(1612345125.776579) can1 601#000A006A00000000
(1612345125.776580) can0 316#81500AF07A370200
(1612345125.776581) can0 329#004500000000218C
(1612345125.776581) can0 3F0#0000000000000000
(1612345125.784761) can1 600#0400000000000000
(1612345125.784763) can1 601#000A006A00000000
(1612345125.784764) can0 316#81500AF07A370200
(1612345125.784765) can0 39F#00040004000000AB
(1612345125.792874) can0 4F2#0000000000000000
(1612345125.792875) can0 450#0000001000000000
(1612345125.792876) can0 45E#0000100000100000
(1612345125.792876) can0 47C#0000000000000000
(1612345125.800701) can0 350#01FFB00700007F00
(1612345125.800703) can0 360#0000000000240052
(1612345125.800704) can0 380#80737E03E8FFFF7D
(1612345125.800705) can0 34A#0000000000000000
(1612345125.808737) can0 354#50CD000000000000
(1612345125.808738) can0 3C0#000008527FFF4401
(1612345125.808739) can0 3CA#800480040CB7804D
(1612345125.808740) can1 600#0400000000000000
(1612345125.816538) can1 601#000A006A00000000
(1612345125.816539) can0 316#81500AF07A370200
(1612345125.816539) can0 329#004500000000218C
(1612345125.816540) can0 3F0#0000000000000000
(1612345125.824578) can1 38A#0000000000000000
(1612345125.824578) can1 396#00040004000000B0
(1612345125.824579) can1 39F#00040004000000B0
(1612345125.824580) can0 39F#00040004000000C9
(1612345125.832575) can0 3A0#41800100000000D2
(1612345125.832576) can1 600#0400000000000000
(1612345125.832576) can1 601#000A006A00000000
(1612345125.832577) can0 350#01FFB00700007F00
(1612345125.840571) can0 360#000000000024009E
(1612345125.840572) can0 380#80737E03E8FFFF7D
(1612345125.840573) can0 38A#0000000000000094
(1612345125.840573) can0 44D#0000000000000000
(1612345125.848650) can0 33A#0006000000000000
(1612345125.848656) can0 456#0C000C000C000C00
(1612345125.848659) can0 340#0004000000000000
(1612345125.848664) can1 600#0400000000000000
(1612345125.856751) can1 601#000A006A00000000
(1612345125.856752) can0 316#81500AF07A370200
(1612345125.856752) can0 329#004500000000218C
(1612345125.856753) can0 70E#0006000000000000
(1612345125.864891) can0 70B#0006000000000000
(1612345125.864893) can1 461#07F86B013EC00000
(1612345125.864893) can0 3BA#0000000000000000
(1612345125.864894) can0 39E#05817F0000000000
(1612345125.872742) can0 39F#00040004000000E7
(1612345125.872743) can0 3A0#41800100000000E1
(1612345125.872744) can1 38A#0000000000000000
(1612345125.872745) can0 350#01FFB00700007F00
(1612345125.880848) can0 360#00000000002400DA
(1612345125.880849) can0 380#80717E03E8FFFF7D
(1612345125.880850) can0 38A#00000000000000D0
(1612345125.880851) can0 354#50CD000000000000
(1612345125.888833) can0 3C0#000008527FFF4401
(1612345125.888834) can0 3CA#800480040CCD8043
(1612345125.888835) can0 39A#20FB000BD0000000
(1612345125.888836) can1 600#0400000000000000
(1612345125.896799) can1 601#000A006A00000000
(1612345125.896801) can0 316#81500AF07A370200
(1612345125.896802) can0 329#004500000000218C
(1612345125.896804) can0 52E#6D00301000000000
(1612345125.904554) can0 3F0#0000000000000000
(1612345125.904556) can1 600#0400000000000000
(1612345125.904558) can1 601#000A006A00000000
(1612345125.904560) can0 39F#0004000400000005
(1612345125.912560) can0 3A0#41800100000000F0
(1612345125.912563) can1 600#0400000000000000
(1612345125.912565) can1 601#000A006A00000000
(1612345125.912568) can0 3C9#FFFFFFFFFFFFFFFF
(1612345125.920789) can0 350#01FFB00700007F00
(1612345125.920791) can0 360#0000000000240016
(1612345125.920793) can0 380#80737E03E8FFFF7D
(1612345125.920795) can1 423#270F000FFFFFF000
(1612345125.928782) can0 354#50CD000000000000
(1612345125.928787) can1 424#3E55550000000000
(1612345125.928790) can0 3C0#000008527FFF4401
(1612345125.928794) can1 600#0400000000000000
(1612345125.936812) can1 601#000A006A00000000
(1612345125.936817) can0 316#81500AF07A370200
(1612345125.936820) can0 329#004500000000218C
(1612345125.936822) can0 3F0#0000000000000000
(1612345125.944764) can0 431#33FCE301004293B2
(1612345125.944768) can0 462#07F8600000000000
(1612345125.944772) can1 600#0400000000000000
(1612345125.944775) can0 39F#0004000400000023
(1612345125.952798) can0 3A0#418001000000000F
(1612345125.952803) can1 600#0400000000000000
(1612345125.952806) can1 601#000A006A00000000
(1612345125.952811) can0 5E5#203D3D3D3D3E3DFF
(1612345125.960741) can0 350#01FFB00700007F00
(1612345125.960745) can0 360#0000000000240052
(1612345125.960748) can0 380#80727E03E8FFFF7D
(1612345125.960751) can0 354#50CD000000000000
(1612345125.968806) can0 3C0#000008527FFF4401
(1612345125.968810) can0 3CA#800480040CCF804D
(1612345125.968813) can0 3BA#0000000000000000
(1612345125.968817) can1 600#0400000000000000
(1612345125.976600) can1 601#000A006A00000000
(1612345125.976607) can0 316#81500AF07A370200
(1612345125.976611) can0 329#004500000000218C
(1612345125.976616) can0 3F0#0000000000000000
(1612345125.984783) can1 600#0400000000000000
(1612345125.984787) can1 601#000A006A00000000
(1612345125.984790) can0 316#81500AF07A370200
(1612345125.984793) can0 39F#0004000400000041
(1612345125.992841) can0 4F2#0000000000000000
(1612345125.992845) can0 450#0000001000000000
(1612345125.992848) can0 45E#0000100000100000
(1612345125.992851) can0 47C#0000000000000000
(1612345126.000671) can0 350#01FFB00700007F00
(1612345126.000675) can0 360#000000000024009E
(1612345126.000678) can0 380#80727E03E8FFFF7D
(1612345126.000683) can0 34A#0000000000000000
(1612345126.008807) can0 354#50CD000000000000
(1612345126.008811) can0 3C0#000008527FFF4401
(1612345126.008814) can0 3CA#800480040CCF804D
(1612345126.008818) can1 600#0400000000000000
(1612345126.016807) can1 601#000A006A00000000
(1612345126.016811) can0 316#81500AF07A370200
(1612345126.016814) can0 329#004500000000218C
(1612345126.016817) can0 3F0#0000000000000000
(1612345126.024802) can1 38A#0000000000000000
(1612345126.024806) can1 396#0004000400000050
(1612345126.024809) can1 39F#0004000400000050
(1612345126.024814) can0 39F#000400040000006F
(1612345126.032819) can0 3A0#418001000000002D
(1612345126.032824) can1 600#0400000000000000
(1612345126.032827) can1 601#000A006A00000000
(1612345126.032830) can0 350#01FFB00700007F00
(1612345126.040812) can0 360#00000000002400DA
(1612345126.040829) can0 380#80717E03E3FFFF7D
(1612345126.040832) can0 38A#00000000000000D0
(1612345126.040835) can0 44D#0000000000000000
(1612345126.048814) can0 33A#0006000000000000
(1612345126.048818) can0 456#0C000C000C000C00
(1612345126.048821) can0 340#0004000000000000
(1612345126.048825) can1 600#0400000000000000
(1612345126.056817) can1 601#000A006A00000000
(1612345126.056822) can0 316#81500AF07A370200
(1612345126.056825) can0 329#004500000000218C
(1612345126.056828) can1 461#07F86B013EC00000
(1612345126.064756) can1 46A#6371FF00FF4E153A
(1612345126.064761) can0 3F0#0000000000000000
(1612345126.064764) can1 521#0000000000000022
(1612345126.064767) can0 39E#05817F0000000000
(1612345126.072795) can0 39F#000400040000008D
(1612345126.072799) can0 650#A000000000000000
(1612345126.072802) can0 3A0#418001000000003C
(1612345126.072807) can0 350#01FFB00700007F00
(1612345126.080815) can0 360#0000000000240016
(1612345126.080819) can0 380#80737E03E3FFFF7D
(1612345126.080822) can0 38A#000000000000001C
(1612345126.080825) can0 354#50CD000000000000
(1612345126.088805) can0 3C0#000008527FFF4401
(1612345126.088809) can0 3CA#800480040CCF804D
(1612345126.088812) can0 3BA#0000000000000000
(1612345126.088815) can1 600#0400000000000000
(1612345126.096814) can1 601#000A006A00000000
(1612345126.096819) can0 316#81500AF07A370200
(1612345126.096822) can0 329#004500000000218C
(1612345126.096826) can0 52E#6D00301000000000
(1612345126.104822) can0 3F0#0000000000000000
(1612345126.104827) can1 600#0400000000000000
(1612345126.104830) can1 601#000A006A00000000
(1612345126.104833) can0 39E#05817F0000000000
(1612345126.112810) can0 39F#00040004000000AB
(1612345126.112814) can0 3A0#418001000000004B
(1612345126.112818) can1 600#0400000000000000
(1612345126.112821) can0 350#01FFB00700007F00
(1612345126.120819) can0 360#0000000000240052
(1612345126.120824) can0 380#80727E03E8FFFF7D
(1612345126.120826) can0 38A#0000000000000058
(1612345126.120831) can1 423#270F000FFFFFF000
(1612345126.128805) can0 354#50CD000000000000
(1612345126.128810) can1 424#3E55550000000000
(1612345126.128813) can0 3C0#000008527FFF4401
(1612345126.128816) can1 600#0400000000000000
(1612345126.136819) can1 601#000A006A00000000
(1612345126.136823) can0 316#81500AF07A370200
(1612345126.136826) can0 329#004500000000218C
(1612345126.136829) can0 3F0#0000000000000000
(1612345126.144796) can0 431#33FCE301004293B2
(1612345126.144800) can0 462#07F8600000000000
(1612345126.144803) can1 600#0400000000000000
(1612345126.144807) can0 39F#00040004000000C9
(1612345126.152773) can0 3A0#418001000000005A
(1612345126.152777) can1 600#0400000000000000
(1612345126.152780) can1 601#000A006A00000000
(1612345126.152783) can0 5E5#403D3D3D3D3D3DFF
(1612345126.160767) can0 350#01FFB00700007F00
(1612345126.160771) can0 360#000000000024009E
(1612345126.160774) can0 380#80737E03E8FFFF7D
(1612345126.160777) can0 354#50CD000000000000
(1612345126.168819) can0 3C0#000008527FFF4401
(1612345126.168823) can0 3CA#800180010CB7804D
(1612345126.168826) can0 3BA#0000000000000000
(1612345126.168831) can1 600#0400000000000000
(1612345126.176635) can1 601#000A006A00000000
(1612345126.176639) can0 316#81500AF07A1E0200
(1612345126.176642) can0 329#004500000000218C
(1612345126.176645) can0 3F0#0000000000000000
(1612345126.184830) can1 600#0400000000000000
(1612345126.184834) can1 601#000A006A00000000
(1612345126.184850) can0 316#81500AF07A1E0200
(1612345126.184853) can0 39E#05817F0000000000
(1612345126.192648) can0 39F#00040004000000E7
(1612345126.192652) can0 4F2#0000000000000000
(1612345126.192655) can0 450#0000001000000000
(1612345126.192659) can0 47C#0000000000000000
(1612345126.200786) can0 350#01FFB00700007F00
(1612345126.200790) can0 360#00000000002400DA
(1612345126.200793) can0 380#80727E03E8FFFF7D
(1612345126.200796) can0 34A#0000000000000000
(1612345126.208826) can0 354#50CD000000000000
(1612345126.208830) can0 3C0#000008527FFF4401
(1612345126.208833) can0 3CA#800480040CC88043
(1612345126.208837) can1 600#0400000000000000
(1612345126.216834) can1 601#000A006A00000000
(1612345126.216839) can0 316#81500AF07A370200
(1612345126.216842) can0 329#004500000000218C
(1612345126.216845) can0 3F0#0000000000000000
(1612345126.224821) can1 38A#0000000000000000
(1612345126.224825) can1 396#00040004000000F0
(1612345126.224828) can1 39F#00040004000000F0
(1612345126.224832) can0 39E#05817F0000000000
(1612345126.232814) can0 39F#0004000400000005
(1612345126.232818) can0 3A0#4180010000000078
(1612345126.232821) can1 600#0400000000000000
(1612345126.232824) can0 350#01FFB00700007F00
(1612345126.240836) can0 360#0000000000240016
(1612345126.240840) can0 380#80727E03EDFFFF7D
(1612345126.240843) can0 38A#000000000000001C
(1612345126.240846) can0 44D#0000000000000000
(1612345126.248893) can0 33A#0006000000000000
(1612345126.248897) can0 456#0C000C000C000C00
(1612345126.248900) can0 340#0004000000000000
(1612345126.248904) can1 457#01FF01FF01FF01FF
(1612345126.256599) can1 601#000A006A00000000
(1612345126.256604) can0 316#81500AF07A370200
(1612345126.256607) can0 329#004500000000218C
(1612345126.256610) can1 461#07F86B013EC00000
(1612345126.264665) can1 46A#6371FF00FF4E153A
(1612345126.264670) can0 3F0#0000000000000000
(1612345126.264673) can1 521#0000000000000022
(1612345126.264677) can0 39E#05817F0000000000
(1612345126.272601) can0 39F#0004000400000023
(1612345126.272605) can0 650#A000000000000000
(1612345126.272609) can0 3A0#4180010000000087
(1612345126.272612) can0 350#01FFB00700007F00
(1612345126.280606) can0 360#0000000000240052
(1612345126.280613) can0 380#80717E03E8FFFF7D
(1612345126.280619) can0 38A#0000000000000058
(1612345126.280624) can0 354#50CD000000000000
(1612345126.288623) can0 3C0#000008527FFF4401
(1612345126.288628) can0 3CA#800180010CC18043
(1612345126.288632) can0 3BA#0000000000000000
(1612345126.288636) can1 601#000A006A00000000
(1612345126.296600) can0 316#81500AF07A1E0200
(1612345126.296606) can0 329#004500000000218C
(1612345126.296610) can0 335#0000000000000000
(1612345126.296614) can0 52E#6D00301000000000
(1612345126.304601) can0 3F0#0000000000000000
(1612345126.304607) can1 600#0400000000000000
(1612345126.304611) can1 601#000A006A00000000
(1612345126.304617) can0 39E#05817F0000000000
(1612345126.312661) can0 39F#0004000400000041
(1612345126.312666) can0 3A0#4180010000000096
(1612345126.312671) can1 600#0400000000000000
(1612345126.312676) can0 70A#0006000000000000
(1612345126.320596) can0 350#01FFB00700007F00
(1612345126.320600) can0 360#000000000024009E
(1612345126.320603) can0 380#80727E03E8FFFF7D
(1612345126.320606) can1 423#270F000FFFFFF000
(1612345126.328604) can0 354#50CD000000000000
(1612345126.328609) can1 424#3E55550000000000
(1612345126.328612) can0 3C0#000008527FFF4401
(1612345126.328628) can1 600#0400000000000000
(1612345126.336605) can1 601#000A006A00000000
(1612345126.336612) can1 724#0006000000000000
(1612345126.336618) can0 316#81500AF07A1E0200
(1612345126.336623) can1 727#0006000000000000
(1612345126.344607) can0 3F0#0000000000000000
(1612345126.344613) can0 431#33FCE301004293B2
(1612345126.344617) can0 462#07F8600000000000
(1612345126.344621) can0 39E#05817F0000000000
(1612345126.352638) can0 39F#000400040000006F
(1612345126.352640) can0 3A0#41800100000000A5
(1612345126.352642) can1 600#0400000000000000
(1612345126.352644) can0 5E5#103D3D3D3D3D3D3D
(1612345126.360610) can0 350#01FFB00700007F00
(1612345126.360611) can0 360#00000000002400DA
(1612345126.360612) can0 380#80727E03E8FFFF7D
(1612345126.360613) can0 354#50CD000000000000
(1612345126.368601) can0 3C0#000008527FFF4401
(1612345126.368602) can0 3CA#800480040CC68043
(1612345126.368602) can0 3BA#0000000000000000
(1612345126.368604) can1 600#0400000000000000
(1612345126.376609) can1 601#000A006A00000000
(1612345126.376610) can0 401#00007F0620000000
(1612345126.376611) can0 316#81500AF07A370200
(1612345126.376611) can0 3F0#0000000000000000
(1612345126.384597) can1 600#0400000000000000
(1612345126.384598) can1 601#000A006A00000000
(1612345126.384599) can0 316#81500AF07A370200
(1612345126.384599) can0 39E#05817F0000000000
(1612345126.392736) can0 39F#000400040000008D
(1612345126.392737) can0 4F2#0000000000000000
(1612345126.392737) can0 450#0000001000000000
(1612345126.392738) can0 350#01FFB00700007F00
(1612345126.400612) can0 360#0000000000240016
(1612345126.400613) can0 380#80717E03E8FFFF7D
(1612345126.400614) can0 38A#000000000000001C
(1612345126.400615) can0 34A#0000000000000000
(1612345126.408779) can0 354#50CD000000000000
(1612345126.408780) can0 3C0#000008527FFF4401
(1612345126.408780) can0 3BA#0000000000000000
(1612345126.408781) can1 601#000A006A00000000
(1612345126.416584) can0 316#81500AF07A370200
(1612345126.416585) can0 329#004500000000218C
(1612345126.416586) can0 335#0000000000000000
(1612345126.416586) can0 3F0#0000000000000000
(1612345126.424788) can1 38A#0000000000000000
(1612345126.424789) can1 396#0004000400000090
(1612345126.424790) can1 39F#0004000400000090
(1612345126.424790) can0 39E#05817F0000000000
(1612345126.432739) can0 39F#00040004000000AB
(1612345126.432740) can0 3A0#41800100000000C3
(1612345126.432741) can1 600#0400000000000000
(1612345126.432742) can0 350#01FFB00700007F00
(1612345126.440594) can0 360#0000000000240052
(1612345126.440595) can0 380#80737E03E8FFFF7D
(1612345126.440596) can0 38A#0000000000000058
(1612345126.440597) can0 44D#0000000000000000
(1612345126.448739) can0 33A#0006000000000000
(1612345126.448740) can0 456#0C000C000C000C00
(1612345126.448740) can0 340#0004000000000000
(1612345126.448741) can1 456#0FFF0FFF0FFF0FFF
(1612345126.456700) can1 600#0400000000000000
(1612345126.456701) can1 457#01FF01FF01FF01FF
(1612345126.456702) can0 316#81500AF07A370200
(1612345126.456703) can1 461#07F86B013EC00000
(1612345126.464686) can1 46A#6371FF00FF4E153A
(1612345126.464688) can0 3F0#0000000000000000
(1612345126.464689) can1 521#0000000000000022
(1612345126.464691) can0 39E#05817F0000000000
(1612345126.472643) can0 39F#00040004000000C9
(1612345126.472647) can0 650#A000000000000000
(1612345126.472649) can0 3A0#41800100000000D2
(1612345126.472652) can0 350#01FFB00700007F00
(1612345126.480650) can0 360#000000000024009E
(1612345126.480653) can0 380#80727E03E8FFFF7D
(1612345126.480656) can0 38A#0000000000000094
(1612345126.480658) can0 354#50CD000000000000
(1612345126.488647) can0 3C0#000008527FFF4401
(1612345126.488650) can0 3BA#0000000000000000
(1612345126.488653) can0 3CA#800480040CCD8043
(1612345126.488656) can1 601#000A006A00000000
(1612345126.496655) can0 316#81500AF07A370200
(1612345126.496658) can0 329#004500000000218C
(1612345126.496661) can0 335#0000000000000000
(1612345126.496663) can0 52E#6D00301000000000
(1612345126.504609) can0 3F0#0000000000000000
(1612345126.504614) can1 600#0400000000000000
(1612345126.504618) can1 601#000A006A00000000
(1612345126.504621) can0 39E#05817F0000000000
(1612345126.512659) can0 39F#00040004000000E7
(1612345126.512662) can0 3A0#41800100000000E1
(1612345126.512666) can1 600#0400000000000000
(1612345126.512668) can0 350#01FFB00700007F00
(1612345126.520805) can0 360#00000000002400DA
(1612345126.520808) can0 380#80737E03E8FFFF7D
(1612345126.520810) can0 38A#00000000000000D0
(1612345126.520813) can1 423#270F000FFFFFF000
(1612345126.528620) can0 354#50CD000000000000
(1612345126.528625) can1 424#3E55550000000000
(1612345126.528629) can0 3C0#000008527FFF4401
(1612345126.528633) can1 601#000A006A00000000
(1612345126.536834) can0 316#81500AF07A370200
(1612345126.536837) can0 329#004500000000218C
(1612345126.536840) can0 335#0000000000000000
(1612345126.536842) can0 3F0#0000000000000000
(1612345126.544632) can0 431#33FCE301004293B2
(1612345126.544636) can0 462#07F8600000000000
(1612345126.544639) can1 600#0400000000000000
(1612345126.544641) can0 39E#05817F0000000000
(1612345126.552681) can0 39F#0004000400000005
(1612345126.552684) can0 3A0#41800100000000F0
(1612345126.552687) can1 600#0400000000000000
(1612345126.552690) can0 5E5#303D3D433D3D3DFF
(1612345126.560654) can0 350#01FFB00700007F00
(1612345126.560657) can0 360#0000000000240016
(1612345126.560660) can0 380#80727E03E8FFFF7D
(1612345126.560662) can0 354#50CD000000000000
(1612345126.568802) can0 3BA#0000000000000000
(1612345126.568805) can0 3C0#000008527FFF4401
(1612345126.568808) can0 3C5#96D0000000000000
(1612345126.568811) can1 600#0400000000000000
(1612345126.576613) can1 601#000A006A00000000
(1612345126.576618) can0 316#81500AF07A370200
(1612345126.576620) can0 329#004500000000218C
(1612345126.576623) can0 3F0#0000000000000000
(1612345126.584838) can1 600#0400000000000000
(1612345126.584842) can1 601#000A006A00000000
(1612345126.584845) can0 316#81500AF07A1E0200
(1612345126.584847) can0 39E#05817F0000000000
(1612345126.592631) can0 39F#0004000400000023
(1612345126.592635) can0 4F2#0000000000000000
(1612345126.592638) can0 450#0000001000000000
(1612345126.592640) can0 350#01FFB00700007F00
(1612345126.600687) can0 360#0000000000240052
(1612345126.600690) can0 380#80727E03E8FFFF7D
(1612345126.600692) can0 38A#0000000000000058
(1612345126.600696) can0 34A#0000000000000000
(1612345126.608624) can0 354#50CD000000000000
(1612345126.608629) can0 3BA#0000000000000000
(1612345126.608633) can0 3C0#000008527FFF4401
(1612345126.608638) can1 601#000A006A00000000
(1612345126.616812) can0 316#81500AF07A1E0200
(1612345126.616815) can0 329#004500000000218C
(1612345126.616818) can0 335#0000000000000000
(1612345126.616820) can0 3F0#0000000000000000
(1612345126.624634) can1 38A#0000000000000000
(1612345126.624657) can1 396#0004000400000030
(1612345126.624660) can1 39F#0004000400000030
(1612345126.624665) can0 39E#05817F0000000000
(1612345126.632827) can0 39F#0004000400000041
(1612345126.632831) can0 3A0#418001000000001E
(1612345126.632834) can1 600#0400000000000000
(1612345126.632836) can0 350#01FFB00700007F00
(1612345126.640637) can0 360#000000000024009E
(1612345126.640643) can0 380#80727E03E8FFFF7D
(1612345126.640648) can0 38A#0000000000000094
(1612345126.640651) can0 44D#0000000000000000
(1612345126.648620) can0 33A#0006000000000000
(1612345126.648624) can0 3BA#0000000000000000
(1612345126.648626) can0 340#0004000000000000
(1612345126.648629) can1 459#4100410041004100
(1612345126.656627) can1 600#0400000000000000
(1612345126.656632) can1 456#0FFF0FFF0FFF0FFF
(1612345126.656636) can0 316#81500AF07A1E0200
(1612345126.656640) can1 461#07F86B013EC00000
(1612345126.664629) can1 46A#6371FF00FF4E153A
(1612345126.664635) can0 3F0#0000000000000000
(1612345126.664639) can1 521#0000000000000022
(1612345126.664642) can0 39E#05817F0000000000
(1612345126.672630) can0 39F#000400040000006F
(1612345126.672634) can0 650#A000000000000000
(1612345126.672638) can0 3A0#418001000000002D
(1612345126.672642) can0 350#01FFB00700007F00
(1612345126.680633) can0 360#00000000002400DA
(1612345126.680638) can0 380#80727E03E8FFFF7D
(1612345126.680641) can0 38A#00000000000000D0
(1612345126.680644) can0 354#50CD000000000000
(1612345126.688684) can0 3BA#0000000000000000
(1612345126.688687) can0 3C0#000008527FFF4401
(1612345126.688690) can0 3CA#800180010CBC804D
(1612345126.688693) can1 601#000A006A00000000
(1612345126.696619) can0 316#81500AF07A1E0200
(1612345126.696621) can0 329#004500000000218C
(1612345126.696623) can0 335#0000000000000000
(1612345126.696625) can0 52E#6D00301000000000
(1612345126.704618) can0 3F0#0000000000000000
(1612345126.704621) can1 600#0400000000000000
(1612345126.704622) can1 601#000A006A00000000
(1612345126.704624) can0 39E#05817F0000000000
(1612345126.712651) can0 39F#000400040000008D
(1612345126.712652) can0 3A0#418001000000003C
(1612345126.712653) can1 600#0400000000000000
(1612345126.712654) can0 350#01FFB00700007F00
(1612345126.720731) can0 360#0000000000240016
(1612345126.720732) can0 380#80727E03E8FFFF7D
(1612345126.720733) can0 38A#000000000000001C
(1612345126.720734) can1 423#270F000FFFFFF000
(1612345126.728777) can0 3BA#0000000000000000
(1612345126.728779) can1 424#3E55550000000000
(1612345126.728779) can0 354#50CD000000000000
(1612345126.728780) can1 601#000A006A00000000
(1612345126.736770) can0 316#81500AF07A370200
(1612345126.736771) can0 329#004500000000218C
(1612345126.736772) can0 335#0000000000000000
(1612345126.736772) can0 3F0#0000000000000000
(1612345126.744650) can0 431#33FCE301004293B2
(1612345126.744651) can0 462#07F8600000000000
(1612345126.744654) can1 600#0400000000000000
(1612345126.744654) can0 396#00040004AD0000A4
(1612345126.752799) can0 39E#05817F0000000000
(1612345126.752801) can0 39F#00040004000000AB
(1612345126.752803) can0 3A0#418001000000004B
(1612345126.752804) can0 5E5#503D3D3E3DFFFFFF
(1612345126.760787) can0 350#01FFB00700007F00
(1612345126.760789) can0 360#0000000000240052
(1612345126.760789) can0 380#80727E03E3FFFF7D
(1612345126.760790) can0 3BA#0000000000000000
(1612345126.768696) can0 354#50CD000000000000
(1612345126.768697) can0 3C5#96D0000000000000
(1612345126.768704) can0 3C0#000008527FFF4401
(1612345126.768705) can1 600#0400000000000000
(1612345126.776772) can1 601#000A006A00000000
(1612345126.776774) can0 316#81500AF07A370200
(1612345126.776775) can0 329#004500000000218C
(1612345126.776776) can0 3F0#0000000000000000
(1612345126.784870) can1 600#0400000000000000
(1612345126.784872) can1 601#000A006A00000000
(1612345126.784874) can0 316#81500AF07A370200
(1612345126.784875) can0 396#00040004AD0000C2
(1612345126.792707) can0 39E#05817F0000000000
(1612345126.792709) can0 39F#00040004000000C9
(1612345126.792711) can0 4F2#0000000000000000
(1612345126.792712) can0 350#01FFB00700007F00
(1612345126.800662) can0 360#000000000024009E
(1612345126.800669) can0 380#80737E03E3FFFF7D
(1612345126.800675) can0 38A#0000000000000094
(1612345126.800678) can0 34A#0000000000000000
(1612345126.808641) can0 3BA#0000000000000000
(1612345126.808645) can0 354#50CD000000000000
(1612345126.808648) can0 3C0#000008527FFF4401
(1612345126.808652) can1 601#000A006A00000000
(1612345126.816874) can0 316#81500AF07A370200
(1612345126.816878) can0 329#004500000000218C
(1612345126.816881) can0 335#0000000000000000
(1612345126.816884) can0 3F0#0000000000000000
(1612345126.824886) can1 38A#0000000000000000
(1612345126.824890) can1 396#00040004000000D0
(1612345126.824893) can1 39F#00040004000000D0
(1612345126.824897) can0 39E#05817F0000000000
(1612345126.832690) can0 39F#00040004000000E7
(1612345126.832695) can0 3A0#4180010000000069
(1612345126.832698) can1 600#0400000000000000
(1612345126.832701) can0 350#01FFB00700007F00
(1612345126.840647) can0 360#00000000002400DA
(1612345126.840651) can0 380#80727E03E8FFFF7D
(1612345126.840654) can0 38A#00000000000000D0
(1612345126.840657) can0 33A#0006000000000000
(1612345126.848644) can0 3BA#0000000000000000
(1612345126.848648) can0 340#0004000000000000
(1612345126.848651) can0 456#0C000C000C000C00
(1612345126.848656) can1 600#0400000000000000
(1612345126.856637) can1 455#3F3F3F3FFFFFFFFF
(1612345126.856640) can0 316#81500AF07A370200
(1612345126.856643) can1 601#000A006A00000000
(1612345126.856646) can0 705#0006000000000000
(1612345126.864635) can1 461#07F86B013EC00000
(1612345126.864639) can1 46A#6371FF00FF4E153A
(1612345126.864642) can0 3F0#0000000000000000
(1612345126.864645) can0 396#00040004AD00000E
(1612345126.872635) can0 39E#05817F0000000000
(1612345126.872639) can0 39F#0004000400000005
(1612345126.872641) can0 708#0006000000000000
(1612345126.872645) can0 350#01FFB00700007F00
(1612345126.880624) can0 360#0000000000240016
(1612345126.880625) can0 380#80727E03EDFFFF7D
(1612345126.880626) can0 38A#000000000000001C
(1612345126.880627) can0 34A#0000000000000000
(1612345126.888623) can0 354#50CD000000000000
(1612345126.888624) can0 3C0#000008527FFF4401
(1612345126.888624) can0 3CA#800480040CAB804D
(1612345126.888625) can1 601#000A006A00000000
(1612345126.896621) can0 316#81500AF07A370200
(1612345126.896622) can0 329#004500000000218C
(1612345126.896623) can0 335#0000000000000000
(1612345126.896623) can0 52E#6D00301000000000
(1612345126.904657) can0 3F0#0000000000000000
(1612345126.904657) can1 600#0400000000000000
(1612345126.904658) can1 601#000A006A00000000
(1612345126.904659) can0 396#00040004AE00002B
(1612345126.912651) can0 39E#05817F0000000000
(1612345126.912653) can0 39F#0004000400000023
(1612345126.912653) can0 3A0#4180010000000087
(1612345126.912662) can0 350#01FFB00700007F00
(1612345126.920880) can0 360#0000000000240052
(1612345126.920881) can0 380#80727E03E8FFFF7D
(1612345126.920882) can0 38A#0000000000000058
(1612345126.920883) can1 423#270F000FFFFFF000
(1612345126.928832) can0 3BA#0000000000000000
(1612345126.928834) can1 424#3E55550000000000
(1612345126.928834) can0 354#50CD000000000000
(1612345126.928835) can1 601#000A006A00000000
(1612345126.936983) can0 316#81500AF07A370200
(1612345126.936983) can0 329#004500000000218C
(1612345126.936984) can0 335#0000000000000000
(1612345126.936985) can0 3F0#0000000000000000
(1612345126.944954) can0 431#33FCE301004293B2
(1612345126.944956) can0 462#07F8600000000000
(1612345126.944956) can1 600#0400000000000000
(1612345126.944957) can0 396#00040004AD00004A
(1612345126.952942) can0 39E#05817F0000000000
(1612345126.952943) can0 39F#0004000400000041
(1612345126.952943) can0 3A0#4180010000000096
(1612345126.952944) can0 5E5#203D3D3D3D3E3DFF
(1612345126.960833) can0 350#01FFB00700007F00
(1612345126.960835) can0 360#000000000024009E
(1612345126.960836) can0 380#80737E03EDFFFF7D
(1612345126.960837) can0 34A#0000000000000000
(1612345126.968886) can0 3C5#96D0000000000000
(1612345126.968888) can0 354#50CD000000000000
(1612345126.968889) can0 3C9#FFFFFFFFFFFFFFFF
(1612345126.968892) can1 600#0400000000000000
(1612345126.976816) can1 601#000A006A00000000
(1612345126.976819) can0 316#81500AF07A370200
(1612345126.976822) can0 329#004500000000218C
(1612345126.976824) can0 3F0#0000000000000000
(1612345126.984889) can1 600#0400000000000000
(1612345126.984893) can1 601#000A006A00000000
(1612345126.984896) can0 316#81500AF07A370200
(1612345126.984899) can0 396#00040004AD000068
(1612345126.992738) can0 39E#05817F0000000000
(1612345126.992743) can0 39F#000400040000006F
(1612345126.992745) can0 4F2#0000000000000000
(1612345126.992749) can0 350#01FFB00700007F00
(1612345127.000704) can0 360#00000000002400DA
(1612345127.000707) can0 380#80737E03E8FFFF7D
(1612345127.000711) can0 38A#00000000000000D0
(1612345127.000713) can0 3BA#0000000000000000
(1612345127.008735) can0 34A#0000000000000000
(1612345127.008740) can0 354#50CD000000000000
(1612345127.008742) can0 3C0#000008527FFF4401
(1612345127.008746) can1 601#000A006A00000000
(1612345127.016837) can0 316#81500AF07A370200
(1612345127.016841) can0 329#004500000000218C
(1612345127.016844) can0 335#0000000000000000
(1612345127.016848) can0 3F0#0000000000000000
(1612345127.024665) can1 38A#0000000000000000
(1612345127.024670) can1 396#0004000400000070
(1612345127.024674) can1 39F#0004000400000070
(1612345127.024678) can0 396#00040004AD000086
(1612345127.032737) can0 39E#05817F0000000000
(1612345127.032742) can0 39F#000400040000008D
(1612345127.032745) can0 3A0#41800100000000B4
(1612345127.032747) can0 350#01FFB00700007F00
(1612345127.040867) can0 360#0000000000240016
(1612345127.040871) can0 380#80737E03E8FFFF7D
(1612345127.040874) can0 38A#000000000000001C
(1612345127.040878) can0 33A#0006000000000000
(1612345127.048897) can0 44D#0000000000000000
(1612345127.048901) can0 340#0004000000000000
(1612345127.048904) can0 456#0C000C000C000C00
(1612345127.048908) can1 601#000A006A00000000
(1612345127.056896) can1 445#FF000B0000040001
(1612345127.056901) can0 316#81500AF07A370200
(1612345127.056904) can1 455#3F3F3F3FFFFFFFFF
(1612345127.056907) can1 461#07F86B013EC00000
(1612345127.064893) can1 46A#6371FF00FF4E153A
(1612345127.064898) can0 3F0#0000000000000000
(1612345127.064901) can1 521#0000000000000022
(1612345127.064905) can0 396#00040004AD0000A4
(1612345127.072897) can0 39E#05817F0000000000
(1612345127.072901) can0 39F#00040004000000AB
(1612345127.072903) can0 401#00007F0620000000
(1612345127.072906) can0 350#01FFB00700007F00
(1612345127.080900) can0 360#0000000000240052
(1612345127.080904) can0 380#80717E03E8FFFF7D
(1612345127.080907) can0 38A#0000000000000058
(1612345127.080910) can0 34A#0000000000000000
(1612345127.088736) can0 354#50CD000000000000
(1612345127.088739) can0 3C0#000008527FFF4401
(1612345127.088742) can0 3CA#800480040CBC8043
(1612345127.088747) can1 601#000A006A00000000
(1612345127.096885) can0 316#81500AF07A370200
(1612345127.096889) can0 329#004500000000218C
(1612345127.096892) can0 335#0000000000000000
(1612345127.096895) can0 52E#6D00301000000000
(1612345127.104890) can0 3F0#0000000000000000
(1612345127.104895) can1 600#0400000000000000
(1612345127.104898) can1 601#000A006A00000000
(1612345127.104901) can0 396#00040004AD0000C2
(1612345127.112909) can0 39E#05817F0000000000
(1612345127.112913) can0 39F#00040004000000C9
(1612345127.112916) can0 3A0#41800100000000D2
(1612345127.112920) can0 350#01FFB00700007F00
(1612345127.120911) can0 360#000000000024009E
(1612345127.120914) can0 380#80737E03E8FFFF7D
(1612345127.120917) can0 38A#0000000000000094
(1612345127.120921) can1 423#270F000FFFFFF000
(1612345127.128899) can0 34A#0000000000000000
(1612345127.128904) can1 424#3E55550000000000
(1612345127.128907) can0 354#50CD000000000000
(1612345127.128910) can1 601#000A006A00000000
(1612345127.136926) can0 316#81500AF07A370200
(1612345127.136930) can0 329#004500000000218C
(1612345127.136933) can0 335#0000000000000000
(1612345127.136937) can0 3F0#0000000000000000
(1612345127.144902) can0 431#33FCE301004293B2
(1612345127.144906) can0 462#07F8600000000000
(1612345127.144909) can1 600#0400000000000000
(1612345127.144912) can0 396#00040004AD0000E0
(1612345127.152848) can0 39E#05817F0000000000
(1612345127.152851) can0 39F#00040004000000E7
(1612345127.152854) can0 3A0#41800100000000E1
(1612345127.152857) can0 5E5#403D3D3D3D3D3DFF
(1612345127.160892) can0 350#01FFB00700007F00
(1612345127.160897) can0 360#00000000002400DA
(1612345127.160900) can0 380#80737E03E8FFFF7D
(1612345127.160904) can0 3C5#96D0000000000000
(1612345127.168672) can0 34A#0000000000000000
(1612345127.168677) can0 3C9#FFFFFFFFFFFFFFFF
(1612345127.168680) can0 354#50CD000000000000
(1612345127.168684) can1 600#0400000000000000
(1612345127.176843) can1 601#000A006A00000000
(1612345127.176848) can0 316#81500AF07A370200
(1612345127.176851) can0 329#004500000000218C
(1612345127.176854) can0 3F0#0000000000000000
(1612345127.184915) can1 600#0400000000000000
(1612345127.184919) can1 601#000A006A00000000
(1612345127.184923) can0 316#81500AF07A370200
(1612345127.184927) can0 396#00040004AD00000E
(1612345127.192865) can0 39E#05817F0000000000
(1612345127.192869) can0 39F#0004000400000005
(1612345127.192872) can0 3A0#41800100000000F0
(1612345127.192875) can0 350#01FFB00700007F00
(1612345127.200860) can0 360#0000000000240016
(1612345127.200864) can0 380#80717E03E8FFFF7D
(1612345127.200867) can0 38A#000000000000001C
(1612345127.200870) can0 410#0800080000000000
(1612345127.208754) can0 34A#0000000000000000
(1612345127.208770) can0 354#50CD000000000000
(1612345127.208773) can0 3C0#000008527FFF4401
(1612345127.208778) can1 601#000A006A00000000
(1612345127.216918) can0 316#81500AF07A370200
(1612345127.216922) can0 329#004500000000218C
(1612345127.216925) can0 335#0000000000000000
(1612345127.216928) can0 3F0#0000000000000000
(1612345127.224727) can1 38A#0000000000000000
(1612345127.224732) can1 396#0004000400000010
(1612345127.224736) can1 39F#0004000400000010
(1612345127.224740) can0 396#00040004AD00002C
(1612345127.232921) can0 39E#05817F0000000000
(1612345127.232925) can0 39F#0004000400000023
(1612345127.232928) can0 3A0#418001000000000F
(1612345127.232932) can0 350#01FFB00700007F00
(1612345127.240949) can0 360#0000000000240052
(1612345127.240955) can0 380#80727E03E8FFFF7D
(1612345127.240958) can0 38A#0000000000000058
(1612345127.240962) can0 33A#0006000000000000
(1612345127.248921) can0 44D#0000000000000000
(1612345127.248925) can0 340#0004000000000000
(1612345127.248928) can0 456#0C000C000C000C00
(1612345127.248932) can1 601#000A006A00000000
(1612345127.256674) can0 316#81500AF07A1E0200
(1612345127.256680) can1 445#FF000B0000040001
(1612345127.256683) can0 329#004500000000218C
(1612345127.256686) can1 461#07F86B013EC00000
(1612345127.264753) can1 46A#6371FF00FF4E153A
(1612345127.264757) can0 3F0#0000000000000000
(1612345127.264760) can1 521#0000000000000022
(1612345127.264764) can0 396#00040004AD00004A
(1612345127.272900) can0 39E#05817F0000000000
(1612345127.272905) can0 39F#0004000400000041
(1612345127.272907) can0 401#00007F0620000000
(1612345127.272910) can0 350#01FFB00700007F00
(1612345127.280680) can0 360#000000000024009E
(1612345127.280684) can0 380#80737E03E8FFFF7D
(1612345127.280687) can0 38A#0000000000000094
(1612345127.280690) can0 34A#0000000000000000
(1612345127.288904) can0 354#50CD000000000000
(1612345127.288908) can0 3C0#000008527FFF4401
(1612345127.288911) can0 3CA#800480040CBE8043
(1612345127.288915) can1 600#0400000000000000
(1612345127.296698) can1 601#000A006A00000000
(1612345127.296705) can0 316#81500AF07A370200
(1612345127.296709) can0 329#004500000000218C
(1612345127.296714) can0 52E#6D00301000000000
(1612345127.304682) can0 3F0#0000000000000000
(1612345127.304687) can1 600#0400000000000000
(1612345127.304689) can1 601#000A006A00000000
(1612345127.304693) can0 396#00040004AD000068
(1612345127.312918) can0 39E#05817F0000000000
(1612345127.312922) can0 39F#000400040000006F
(1612345127.312925) can0 3A0#418001000000002D
(1612345127.312929) can0 350#01FFB00700007F00
(1612345127.320924) can0 360#00000000002400DA
(1612345127.320928) can0 380#80727E03E8FFFF7D
(1612345127.320931) can0 38A#00000000000000D0
(1612345127.320934) can0 34A#0000000000000000
(1612345127.328917) can1 423#270F000FFFFFF000
(1612345127.328921) can1 424#3E55550000000000
(1612345127.328925) can0 354#50CD000000000000
(1612345127.328928) can1 724#0006000000000000
(1612345127.336702) can1 72A#0006000000000000
(1612345127.336708) can1 600#0400000000000000
(1612345127.336713) can0 316#81500AF07A370200
(1612345127.336718) can0 3F0#0000000000000000
(1612345127.344697) can0 431#33FCE301004293B2
(1612345127.344703) can0 462#07F8600000000000
(1612345127.344708) can1 600#0400000000000000
(1612345127.344712) can0 396#00040004AD000086
(1612345127.352686) can0 39E#05817F0000000000
(1612345127.352691) can0 39F#000400040000008D
(1612345127.352707) can0 3A0#418001000000003C
(1612345127.352710) can1 44C#000A000A00000000
(1612345127.360743) can0 5E5#103D3D3D3D3D3D3D
(1612345127.360748) can0 350#01FFB00700007F00
(1612345127.360751) can0 360#0000000000240016
(1612345127.360755) can0 3C9#FFFFFFFFFFFFFFFF
(1612345127.368733) can0 340#0004000000000000
(1612345127.368736) can0 34A#0000000000000000
(1612345127.368739) can0 354#50CD000000000000
(1612345127.368743) can1 600#0400000000000000
(1612345127.376700) can1 601#000A006A00000000
(1612345127.376704) can0 316#81500AF07A1E0200
(1612345127.376706) can0 329#004500000000218C
(1612345127.376708) can0 3F0#0000000000000000
(1612345127.384702) can1 600#0400000000000000
(1612345127.384704) can1 601#000A006A00000000
(1612345127.384705) can0 316#81500AF07A1E0200
(1612345127.384706) can0 38F#7E7FF5BA00000000
(1612345127.392701) can0 396#00040004AD0000A4
(1612345127.392702) can0 39E#05817F0000000000
(1612345127.392703) can0 39F#00040004000000AB
(1612345127.392703) can0 350#01FFB00700007F00
(1612345127.400703) can0 360#0000000000240052
(1612345127.400704) can0 380#80727E03EDFFFF7D
(1612345127.400705) can0 38A#0000000000000058
(1612345127.400705) can0 340#0004000000000000
(1612345127.408715) can0 34A#0000000000000000
(1612345127.408716) can0 354#50CD000000000000
(1612345127.408716) can0 3C0#000008527FFF4401
(1612345127.408717) can1 601#000A006A00000000
(1612345127.417032) can0 316#81500AF07A1E0200
(1612345127.417033) can0 329#004500000000218C
(1612345127.417034) can0 3C5#96D0000000000000
(1612345127.417034) can0 3F0#0000000000000000
(1612345127.424698) can1 38A#0000000000000000
(1612345127.424699) can1 396#00040004000000B0
(1612345127.424700) can1 39F#00040004000000B0
(1612345127.424701) can0 396#00040004AD0000C2
(1612345127.432873) can0 39E#05817F0000000000
(1612345127.432873) can0 39F#00040004000000C9
(1612345127.432874) can0 3A0#418001000000005A
(1612345127.432875) can0 350#01FFB00700007F00
(1612345127.440740) can0 360#000000000024009E
(1612345127.440742) can0 380#80737E03E8FFFF7D
(1612345127.440743) can0 38A#0000000000000094
(1612345127.440743) can0 33A#0006000000000000
(1612345127.449028) can0 44D#0000000000000000
(1612345127.449029) can0 340#0004000000000000
(1612345127.449030) can0 456#0C000C000C000C00
(1612345127.449030) can1 601#000A006A00000000
(1612345127.456992) can0 316#81500AF07A1E0200
(1612345127.456993) can0 329#004500000000218C
(1612345127.456994) can1 445#FF000B0000040001
(1612345127.456996) can1 461#07F86B013EC00000
(1612345127.464976) can1 46A#6371FF00FF4E153A
(1612345127.464977) can0 3F0#0000000000000000
(1612345127.464978) can1 521#0000000000000022
(1612345127.464979) can0 38F#7E7FCDBE00000000
(1612345127.472925) can0 396#00040004AD0000E0
(1612345127.472927) can0 39E#05817F0000000000
(1612345127.472928) can0 39F#00040004000000E7
(1612345127.472929) can0 350#01FFB00700007F00
(1612345127.480928) can0 360#00000000002400DA
(1612345127.480931) can0 380#80737E03E8FFFF7D
(1612345127.480934) can0 38A#00000000000000D0
(1612345127.480937) can0 34A#0000000000000000
(1612345127.488901) can0 354#50CD000000000000
(1612345127.488905) can0 3C0#000008527FFF4401
(1612345127.488908) can0 3CA#800180010CB78043
(1612345127.488912) can1 601#000A006A00000000
(1612345127.496877) can0 316#81500AF07A1E0200
(1612345127.496881) can0 329#004500000000218C
(1612345127.496884) can0 335#0000000000000000
(1612345127.496899) can0 52E#6D00301000000000
(1612345127.504704) can0 3F0#0000000000000000
(1612345127.504710) can1 600#0400000000000000
(1612345127.504715) can1 601#000A006A00000000
(1612345127.504720) can0 38F#7E7F67C000000000
(1612345127.512698) can0 396#00040004AD00000E
(1612345127.512704) can0 39E#05817F0000000000
(1612345127.512709) can0 39F#0004000400000005
(1612345127.512713) can0 350#01FFB00700007F00
(1612345127.520699) can0 360#0000000000240016
(1612345127.520704) can0 380#80727E03E8FFFF7D
(1612345127.520708) can0 38A#000000000000001C
(1612345127.520713) can0 34A#0000000000000000
(1612345127.528686) can1 423#270F000FFFFFF000
(1612345127.528689) can0 354#50CD000000000000
(1612345127.528692) can1 424#3E55550000000000
(1612345127.528694) can1 601#000A006A00000000
(1612345127.536964) can0 316#81500AF07A1E0200
(1612345127.536965) can0 329#004500000000218C
(1612345127.536966) can0 335#0000000000000000
(1612345127.536967) can0 3F0#0000000000000000
(1612345127.544959) can0 431#33FCE301004293B2
(1612345127.544960) can0 462#07F8600000000000
(1612345127.544961) can1 600#0400000000000000
(1612345127.544962) can0 38F#7E7F7BC200000000
(1612345127.552964) can0 396#00040004AE00002B
(1612345127.552965) can0 39E#05817F0000000000
(1612345127.552966) can0 39F#0004000400000023
(1612345127.552967) can0 5E5#303D3D433D3D3DFF
(1612345127.560977) can0 350#01FFB00700007F00
(1612345127.560978) can0 360#0000000000240052
(1612345127.560979) can0 380#80727E03EDFFFF7D
(1612345127.560980) can0 33A#0006000000000000
(1612345127.568954) can0 340#0004000000000000
(1612345127.568955) can0 34A#0000000000000000
(1612345127.568956) can0 354#50CD000000000000
(1612345127.568958) can1 600#0400000000000000
(1612345127.576921) can1 601#000A006A00000000
(1612345127.576924) can0 316#81500AF07A370200
(1612345127.576926) can0 329#004500000000218C
(1612345127.576928) can0 3F0#0000000000000000
(1612345127.584937) can1 600#0400000000000000
(1612345127.584941) can1 601#000A006A00000000
(1612345127.584944) can0 316#81500AF07A370200
(1612345127.584947) can0 38F#7E7F5FC400000000
(1612345127.592911) can0 396#00040004AD00004A
(1612345127.592915) can0 39E#05817F0000000000
(1612345127.592918) can0 39F#0004000400000041
(1612345127.592921) can0 350#01FFB00700007F00
(1612345127.600871) can0 360#000000000024009E
(1612345127.600874) can0 380#80737E03EDFFFF7D
(1612345127.600878) can0 38A#0000000000000094
(1612345127.600882) can0 340#0004000000000000
(1612345127.608902) can0 34A#0000000000000000
(1612345127.608906) can0 354#50CD000000000000
(1612345127.608909) can0 3C0#000008527FFF4401
(1612345127.608913) can1 601#000A006A00000000
(1612345127.616908) can0 316#81500AF07A370200
(1612345127.616912) can0 3C5#96D0000000000000
(1612345127.616915) can0 329#004500000000218C
(1612345127.616918) can0 3F0#0000000000000000
(1612345127.624786) can1 38A#0000000000000000
(1612345127.624790) can1 396#0004000400000050
(1612345127.624793) can1 39F#0004000400000050
(1612345127.624797) can0 38F#7E7F43C600000000
(1612345127.632893) can0 396#00040004AD000068
(1612345127.632897) can0 39E#05817F0000000000
(1612345127.632900) can0 39F#000400040000006F
(1612345127.632903) can0 350#01FFB00700007F00
(1612345127.640713) can0 360#00000000002400DA
(1612345127.640717) can0 380#80737E03E3FFFF7D
(1612345127.640720) can0 38A#00000000000000D0
(1612345127.640723) can0 33A#0006000000000000
(1612345127.648958) can0 44D#0000000000000000
(1612345127.648962) can0 340#0004000000000000
(1612345127.648965) can0 456#0C000C000C000C00
(1612345127.648969) can1 601#000A006A00000000
(1612345127.656979) can0 316#81500AF07A1E0200
(1612345127.656984) can0 329#004500000000218C
(1612345127.656986) can0 335#0000000000000000
(1612345127.656990) can1 461#07F86B013EC00000
(1612345127.664910) can1 46A#6371FF00FF4E153A
(1612345127.664915) can0 3F0#0000000000000000
(1612345127.664918) can1 521#0000000000000022
(1612345127.664922) can0 38F#7E7F17C800000000
(1612345127.672924) can0 396#00040004AD000086
(1612345127.672928) can0 39E#05817F0000000000
(1612345127.672931) can0 39F#000400040000008D
(1612345127.672934) can0 350#01FFB00700007F00
(1612345127.680956) can0 360#0000000000240016
(1612345127.680960) can0 380#80737E03E3FFFF7D
(1612345127.680963) can0 38A#000000000000001C
(1612345127.680965) can0 34A#0000000000000000
(1612345127.688948) can0 354#50CD000000000000
(1612345127.688952) can0 3C0#000008527FFF4401
(1612345127.688955) can0 3CA#800180010CB9804D
(1612345127.688959) can1 601#000A006A00000000
(1612345127.696907) can0 316#81500AF07A1E0200
(1612345127.696912) can0 329#004500000000218C
(1612345127.696915) can0 335#0000000000000000
(1612345127.696917) can0 52E#6D00301000000000
(1612345127.704946) can0 3F0#0000000000000000
(1612345127.704951) can1 600#0400000000000000
(1612345127.704954) can1 601#000A006A00000000
(1612345127.704957) can0 38F#7E7F0BCA00000000
(1612345127.712962) can0 396#00040004AD0000A4
(1612345127.712966) can0 39E#05817F0000000000
(1612345127.712969) can0 39F#00040004000000AB
(1612345127.712973) can0 350#01FFB00700007F00
(1612345127.720951) can0 360#0000000000240052
(1612345127.720955) can0 380#80727E03E8FFFF7D
(1612345127.720958) can0 38A#0000000000000058
(1612345127.720961) can1 423#270F000FFFFFF000
(1612345127.728964) can0 354#50CD000000000000
(1612345127.728969) can1 424#3E55550000000000
(1612345127.728972) can0 3C0#000008527FFF4401
(1612345127.728975) can1 601#000A006A00000000
(1612345127.736948) can0 316#81500AF07A370200
(1612345127.736952) can0 329#004500000000218C
(1612345127.736955) can0 335#0000000000000000
(1612345127.736959) can0 3F0#0000000000000000
(1612345127.744954) can0 431#33FCE301004293B2
(1612345127.744958) can0 462#07F8600000000000
(1612345127.744962) can1 600#0400000000000000
(1612345127.744965) can0 38F#7E7F2FCC00000000
(1612345127.752952) can0 396#00040004AD0000C2
(1612345127.752956) can0 39E#05817F0000000000
(1612345127.752959) can0 39F#00040004000000C9
(1612345127.752963) can1 44D#0000000000000000
(1612345127.760966) can0 5E5#503D3D3E3DFFFFFF
(1612345127.760970) can0 350#01FFB00700007F00
(1612345127.760973) can0 360#000000000024009E
(1612345127.760977) can0 340#0004000000000000
(1612345127.768954) can0 34A#0000000000000000
(1612345127.768958) can0 401#00007F0620000000
(1612345127.768961) can0 354#50CD000000000000
(1612345127.768964) can1 600#0400000000000000
(1612345127.776945) can1 601#000A006A00000000
(1612345127.776950) can0 316#81500AF07A370200
(1612345127.776953) can0 329#004500000000218C
(1612345127.776955) can0 3F0#0000000000000000
(1612345127.784957) can1 600#0400000000000000
(1612345127.784960) can1 601#000A006A00000000
(1612345127.784964) can0 3BA#0000000000000000
(1612345127.784968) can0 38F#7E7F33CE00000000
(1612345127.792946) can0 396#00040004AD0000E0
(1612345127.792963) can0 39E#05817F0000000000
(1612345127.792966) can0 39F#00040004000000E7
(1612345127.792969) can0 350#01FFB00700007F00
(1612345127.800914) can0 360#00000000002400DA
(1612345127.800918) can0 380#80737E03E3FFFF7D
(1612345127.800921) can0 38A#00000000000000D0
(1612345127.800924) can0 34A#0000000000000000
(1612345127.808929) can0 354#50CD000000000000
(1612345127.808933) can0 3C0#000008527FFF4401
(1612345127.808936) can0 3CA#800180010CB78043
(1612345127.808940) can1 601#000A006A00000000
(1612345127.816954) can0 3C5#96D0000000000000
(1612345127.816958) can0 3C9#FFFFFFFFFFFFFFFF
(1612345127.816961) can0 316#81500AF07A1E0200
(1612345127.816964) can0 3F0#0000000000000000
(1612345127.824913) can1 38A#0000000000000000
(1612345127.824917) can1 396#00040004000000F0
(1612345127.824920) can1 39F#00040004000000F0
(1612345127.824924) can0 38F#7E7F87D000000000
(1612345127.832966) can0 396#00040004AE00000D
(1612345127.832970) can0 39E#05817F0000000000
(1612345127.832973) can0 39F#0004000400000005
(1612345127.832977) can0 350#01FFB00700007F00
(1612345127.840805) can0 360#0000000000240016
(1612345127.840810) can0 380#80737E03E8FFFF7D
(1612345127.840813) can0 38A#000000000000001C
(1612345127.840815) can0 33A#0006000000000000
(1612345127.848962) can0 44D#0000000000000000
(1612345127.848966) can0 340#0004000000000000
(1612345127.848969) can0 456#0C000C000C000C00
(1612345127.848972) can1 601#000A006A00000000
(1612345127.856732) can0 316#81500AF07A370200
(1612345127.856736) can0 329#004500000000218C
(1612345127.856739) can0 335#0000000000000000
(1612345127.856743) can0 705#0006000000000000
(1612345127.864729) can1 461#07F86B013EC00000
(1612345127.864734) can1 46A#6371FF00FF4E153A
(1612345127.864738) can0 3F0#0000000000000000
(1612345127.864741) can0 38F#7E7F9BD200000000
(1612345127.872838) can0 396#00040004AD00002C
(1612345127.872843) can0 39E#05817F0000000000
(1612345127.872846) can0 39F#0004000400000023
(1612345127.872849) can0 350#01FFB00700007F00
(1612345127.880771) can0 360#0000000000240052
(1612345127.880775) can0 380#80727E03E8FFFF7D
(1612345127.880778) can0 38A#0000000000000058
(1612345127.880782) can0 354#50CD000000000000
(1612345127.888741) can0 3C0#000008527FFF4401
(1612345127.888743) can0 3CA#800480040CC38043
(1612345127.888745) can0 39A#20FB000B58000000
(1612345127.888747) can1 601#000A006A00000000
(1612345127.896735) can0 316#81500AF07A370200
(1612345127.896736) can0 329#004500000000218C
(1612345127.896737) can0 335#0000000000000000
(1612345127.896738) can0 52E#6D00301000000000
(1612345127.904738) can0 3F0#0000000000000000
(1612345127.904739) can1 600#0400000000000000
(1612345127.904740) can1 601#000A006A00000000
(1612345127.904741) can0 38F#7E7FBFD400000000
(1612345127.912748) can0 396#00040004AD00004A
(1612345127.912749) can0 39E#05817F0000000000
(1612345127.912749) can0 39F#0004000400000041
(1612345127.912750) can0 350#01FFB00700007F00
(1612345127.920712) can0 360#000000000024009E
(1612345127.920714) can0 380#80737E03E8FFFF7D
(1612345127.920714) can0 38A#0000000000000094
(1612345127.920715) can0 354#50CD000000000000
(1612345127.928886) can1 423#270F000FFFFFF000
(1612345127.928887) can1 424#3E55550000000000
(1612345127.928887) can0 3C0#000008527FFF4401
(1612345127.928888) can1 601#000A006A00000000
(1612345127.936911) can0 316#81500AF07A1E0200
(1612345127.936912) can0 329#004500000000218C
(1612345127.936916) can0 335#0000000000000000
(1612345127.936916) can0 3F0#0000000000000000
(1612345127.944909) can0 431#33FCE301004293B2
(1612345127.944910) can0 462#07F8600000000000
(1612345127.944911) can1 600#0400000000000000
(1612345127.944912) can0 38F#7E7FA3D600000000
(1612345127.952748) can0 396#00040004AE000067
(1612345127.952749) can0 39E#05817F0000000000
(1612345127.952750) can0 39F#000400040000006F
(1612345127.952750) can1 44D#0000000000000000
(1612345127.960975) can0 5E5#203D3D3D3D3E3DFF
(1612345127.960976) can0 350#01FFB00700007F00
(1612345127.960976) can0 360#00000000002400DA
(1612345127.960977) can0 340#0004000000000000
(1612345127.969004) can0 34A#0000000000000000
(1612345127.969005) can0 354#50CD000000000000
(1612345127.969006) can0 3C0#000008527FFF4401
(1612345127.969007) can1 600#0400000000000000
(1612345127.976726) can1 601#000A006A00000000
(1612345127.976728) can0 316#81500AF07A1E0200
(1612345127.976729) can0 329#004500000000218C
(1612345127.976730) can0 3F0#0000000000000000
(1612345127.984726) can1 600#0400000000000000
(1612345127.984728) can1 601#000A006A00000000
(1612345127.984730) can0 3BA#0000000000000000
(1612345127.984732) can0 38F#7E7FF7D800000000
(1612345127.992967) can0 396#00040004AD000086
(1612345127.992970) can0 39E#05817F0000000000
(1612345127.992973) can0 39F#000400040000008D
(1612345127.992975) can0 350#01FFB00700007F00
(1612345128.000923) can0 360#0000000000240016
(1612345128.000927) can0 380#80727E03E8FFFF7D
(1612345128.000930) can0 38A#000000000000001C
(1612345128.000933) can0 34A#0000000000000000
(1612345128.008961) can0 354#50CD000000000000
(1612345128.008965) can0 3C0#000008527FFF4401
(1612345128.008968) can0 3CA#800480040CAB8043
(1612345128.008971) can0 3C5#96D0000000000000
(1612345128.016983) can1 601#000A006A00000000
(1612345128.016987) can0 3C9#FFFFFFFFFFFFFFFF
(1612345128.016990) can0 316#81500AF07A370200
(1612345128.016993) can0 3F0#0000000000000000
(1612345128.024944) can1 38A#0000000000000000
(1612345128.024948) can1 396#0004000400000090
(1612345128.024951) can1 39F#0004000400000090
(1612345128.024955) can0 38F#7E7FEBDA00000000
(1612345128.032987) can0 396#00040004AD0000A4
(1612345128.032991) can0 39E#05817F0000000000
(1612345128.032994) can0 39F#00040004000000AB
(1612345128.032997) can0 350#01FFB00700007F00
(1612345128.040926) can0 360#0000000000240052
(1612345128.040930) can0 380#80727E03E8FFFF7D
(1612345128.040933) can0 38A#0000000000000058
(1612345128.040936) can0 33A#0006000000000000
(1612345128.048991) can0 44D#0000000000000000
(1612345128.048995) can0 340#0004000000000000
(1612345128.048998) can0 456#0C000C000C000C00
(1612345128.049002) can1 601#000A006A00000000
(1612345128.056758) can0 316#81500AF07A370200
(1612345128.056764) can0 329#004500000000218C
(1612345128.056768) can0 335#0000000000000000
(1612345128.056772) can1 461#07F86B013EC00000
(1612345128.064988) can1 46A#6371FF00FF4E153A
(1612345128.064993) can0 3F0#0000000000000000
(1612345128.064996) can1 521#0000000000000022
(1612345128.064999) can0 38F#7E7FCFDC00000000
(1612345128.072791) can0 396#00040004AD0000C2
(1612345128.072795) can0 39E#05817F0000000000
(1612345128.072800) can0 39F#00040004000000C9
(1612345128.072805) can0 350#01FFB00700007F00
(1612345128.080995) can0 360#000000000024009E
(1612345128.080999) can0 380#80727E03E8FFFF7D
(1612345128.081002) can0 38A#0000000000000094
(1612345128.081017) can0 354#50CD000000000000
(1612345128.088968) can0 3C0#000008527FFF4401
(1612345128.088971) can0 3CA#800180010CC68043
(1612345128.088974) can0 39A#20FB000B94000000
(1612345128.088978) can1 601#000A006A00000000
(1612345128.096990) can0 316#81500AF07A1E0200
(1612345128.096995) can0 329#004500000000218C
(1612345128.096997) can0 335#0000000000000000
(1612345128.097000) can0 52E#6D00301000000000
(1612345128.104740) can0 3F0#0000000000000000
(1612345128.104744) can0 3BA#0000000000000000
(1612345128.104747) can1 600#0400000000000000
(1612345128.104752) can0 38C#00000000DE357AAD
(1612345128.112991) can0 38F#7E7FD3DE00000000
(1612345128.112996) can0 396#00040004AD0000E0
(1612345128.112999) can0 39E#05817F0000000000
(1612345128.113002) can0 350#01FFB00700007F00
(1612345128.120984) can0 360#00000000002400DA
(1612345128.120988) can0 380#80727E03E8FFFF7D
(1612345128.120991) can0 38A#00000000000000D0
(1612345128.120994) can0 354#50CD000000000000
(1612345128.128985) can1 423#270F000FFFFFF000
(1612345128.128989) can1 424#3E55550000000000
(1612345128.128993) can0 3C0#000008527FFF4401
(1612345128.128997) can1 601#000A006A00000000
(1612345128.136992) can0 316#81500AF07A1E0200
(1612345128.136996) can0 329#004500000000218C
(1612345128.136999) can0 335#0000000000000000
(1612345128.137002) can0 3F0#0000000000000000
(1612345128.144986) can0 431#33FCE301004293B2
(1612345128.144990) can0 3BA#0000000000000000
(1612345128.144993) can1 600#0400000000000000
(1612345128.144997) can0 38C#00000000E0527FAD
(1612345128.152973) can0 38F#7E7F88E000000000
(1612345128.152977) can0 396#00040004AD00000E
(1612345128.152980) can0 39E#05817F0000000000
(1612345128.152984) can0 5E5#403D3D3D3D3D3DFF
(1612345128.161000) can1 44D#0000000000000000
(1612345128.161004) can0 350#01FFB00700007F00
(1612345128.161007) can0 360#0000000000240016
(1612345128.161010) can0 34A#0000000000000000
(1612345128.168990) can0 354#50CD000000000000
(1612345128.168994) can0 3C0#000008527FFF4401
(1612345128.168997) can0 3CA#800480040CC18043
(1612345128.169001) can1 600#0400000000000000
(1612345128.176834) can1 601#000A006A00000000
(1612345128.176839) can0 316#81500AF07A370200
(1612345128.176842) can0 329#004500000000218C
(1612345128.176846) can0 3F0#0000000000000000
(1612345128.184762) can0 3BA#0000000000000000
(1612345128.184769) can1 600#0400000000000000
(1612345128.184773) can1 601#000A006A00000000
(1612345128.184777) can0 38C#00000000E24E7FAD
(1612345128.192985) can0 38F#7E7F94E200000000
(1612345128.192989) can0 396#00040004AD00002C
(1612345128.192991) can0 39E#05817F0000000000
(1612345128.192994) can0 350#01FFB00700007F00
(1612345128.200952) can0 360#0000000000240052
(1612345128.200956) can0 380#80737E03E3FFFF7D
(1612345128.200959) can0 38A#0000000000000058
(1612345128.200962) can0 34A#0000000000000000
(1612345128.208982) can0 354#50CD000000000000
(1612345128.208986) can0 3C0#000008527FFF4401
(1612345128.208989) can0 3CA#800480040CC88043
(1612345128.208993) can1 601#000A006A00000000
(1612345128.216988) can0 316#81500AF07A370200
(1612345128.216992) can0 329#004500000000218C
(1612345128.216995) can0 335#0000000000000000
(1612345128.216998) can0 3F0#0000000000000000
(1612345128.224969) can1 38A#0000000000000000
(1612345128.224973) can1 396#0004000400000030
(1612345128.224977) can0 3BA#0000000000000000
(1612345128.224981) can0 38C#00000000E46A7FAD
(1612345128.232996) can0 38F#7E7FB0E400000000
(1612345128.233000) can0 396#00040004AD00004A
(1612345128.233003) can0 39E#05817F0000000000
(1612345128.233006) can0 350#01FFB00700007F00
(1612345128.240947) can0 360#000000000024009E
(1612345128.240951) can0 380#80737E03E3FFFF7D
(1612345128.240954) can0 38A#0000000000000094
(1612345128.240957) can0 33A#0006000000000000
(1612345128.249002) can0 44D#0000000000000000
(1612345128.249006) can0 340#0004000000000000
(1612345128.249008) can0 456#0C000C000C000C00
(1612345128.249013) can1 601#000A006A00000000
(1612345128.256840) can0 316#81500AF07A370200
(1612345128.256845) can0 329#004500000000218C
(1612345128.256848) can0 335#0000000000000000
(1612345128.256851) can1 461#07F86B013EC00000
(1612345128.264936) can1 46A#6371FF00FF4E153A
(1612345128.264940) can0 3F0#0000000000000000
(1612345128.264943) can1 521#0000000000000022
(1612345128.264946) can0 38C#00000000E6767FAD
(1612345128.272807) can0 38F#7E7FACE600000000
(1612345128.272814) can0 396#00040004AD000068
(1612345128.272818) can0 39E#05817F0000000000
(1612345128.272823) can0 350#01FFB00700007F00
(1612345128.280994) can0 360#00000000002400DA
(1612345128.280998) can0 380#80727E03E3FFFF7D
(1612345128.281000) can0 38A#00000000000000D0
(1612345128.281003) can0 354#50CD000000000000
(1612345128.288780) can0 3C0#000008527FFF4401
(1612345128.288784) can0 3CA#800480040CC88043
(1612345128.288787) can0 39A#20FB000BD0000000
(1612345128.288790) can1 601#000A006A00000000
(1612345128.297005) can0 316#81500AF07A370200
(1612345128.297008) can0 329#004500000000218C
(1612345128.297011) can0 335#0000000000000000
(1612345128.297015) can0 3F0#0000000000000000
(1612345128.304998) can0 3BA#0000000000000000
(1612345128.305003) can1 600#0400000000000000
(1612345128.305006) can1 601#000A006A00000000
(1612345128.305009) can0 38C#00000000E8537FAE
(1612345128.313006) can0 38F#7E7FF8E800000000
(1612345128.313010) can0 396#00040004AE000085
(1612345128.313013) can0 39E#05817F0000000000
(1612345128.313016) can0 70A#0006000000000000
(1612345128.321008) can0 350#01FFB00700007F00
(1612345128.321013) can0 360#0000000000240016
(1612345128.321016) can0 380#80727E03E8FFFF7D
(1612345128.321018) can0 354#50CD000000000000
(1612345128.329012) can1 423#270F000FFFFFF000
(1612345128.329016) can0 3C0#000008527FFF4401
(1612345128.329019) can1 424#3E55550000000000
(1612345128.329022) can1 600#0400000000000000
(1612345128.336849) can1 601#000A006A00000000
(1612345128.336853) can1 724#0006000000000000
(1612345128.336857) can0 316#81500AF07A370200
(1612345128.336860) can0 3F0#0000000000000000
(1612345128.344770) can0 3BA#0000000000000000
(1612345128.344774) can0 431#33FCE301004293B2
(1612345128.344777) can1 600#0400000000000000
(1612345128.344780) can0 38C#00000000EA027AAD
(1612345128.352768) can0 38F#7E7FE4EA00000000
(1612345128.352774) can0 396#00040004AD0000A4
(1612345128.352778) can0 39E#05817F0000000000
(1612345128.352783) can1 44B#6200000090660000
(1612345128.360814) can0 5E5#103D3D3D3D3D3D3D
(1612345128.360818) can1 44D#0000000000000000
(1612345128.360821) can1 44C#000A000A00000000
(1612345128.360824) can0 354#50CD000000000000
(1612345128.362160) can1 475#0000008000000000
(1612345128.368775) can0 3C0#000008527FFF4401
(1612345128.368780) can0 3CA#800480040CC68043
(1612345128.368785) can0 39A#20FB000B58000000
(1612345128.368789) can1 600#0400000000000000
(1612345128.376858) can1 601#000A006A00000000
(1612345128.376876) can0 316#81500AF07A370200
(1612345128.376879) can0 329#004500000000218C
(1612345128.376882) can0 3F0#0000000000000000
(1612345128.384797) can0 3BA#0000000000000000
(1612345128.384802) can1 600#0400000000000000
(1612345128.384805) can1 601#000A006A00000000
(1612345128.384808) can0 38C#00000000EC267AAD
(1612345128.392771) can0 38F#7E7FC0EC00000000
(1612345128.392776) can0 396#00040004AD0000C2
(1612345128.392779) can0 39E#05817F0000000000
(1612345128.392782) can0 350#01FFB00700007F00
(1612345128.400990) can0 360#000000000024009E
(1612345128.400994) can0 380#80727E03E8FFFF7D
(1612345128.400997) can0 38A#0000000000000094
(1612345128.400999) can0 34A#0000000000000000
(1612345128.408776) can0 354#50CD000000000000
(1612345128.408781) can0 3C0#000008527FFF4401
(1612345128.408784) can0 3CA#800480040CC3804D
(1612345128.408788) can1 601#000A006A00000000
(1612345128.416775) can0 316#81500AF07A370200
(1612345128.416778) can0 329#004500000000218C
(1612345128.416781) can0 335#0000000000000000
(1612345128.416784) can0 3F0#0000000000000000
(1612345128.424757) can1 38A#0000000000000000
(1612345128.424759) can0 3BA#0000000000000000
(1612345128.424761) can1 396#00040004000000D0
(1612345128.424763) can0 38C#00000000EE3A7AAD
(1612345128.432751) can0 38F#7E7FDCEE00000000
(1612345128.432752) can0 396#00040004AD0000E0
(1612345128.432753) can0 39E#05817F0000000000
(1612345128.432754) can0 350#01FFB00700007F00
(1612345128.440751) can0 360#00000000002400DA
(1612345128.440752) can0 380#80737E03E8FFFF7D
(1612345128.440752) can0 38A#00000000000000D0
(1612345128.440753) can0 33A#0006000000000000
(1612345128.448749) can0 44D#0000000000000000
(1612345128.448750) can0 340#0004000000000000
(1612345128.448750) can0 456#0C000C000C000C00
(1612345128.448751) can1 601#000A006A00000000
(1612345128.456752) can0 316#81500AF07A370200
(1612345128.456753) can0 329#004500000000218C
(1612345128.456753) can0 335#0000000000000000
(1612345128.456754) can0 401#00007F0620000000
(1612345128.464960) can1 461#07F86B013EC00000
(1612345128.464961) can1 46A#6371FF00FF4E153A
(1612345128.464962) can0 3BA#0000000000000000
(1612345128.464962) can0 38C#00000000F08E7AAD
(1612345128.472959) can0 38F#7E7F68F000000000
(1612345128.472960) can0 396#00040004AD00000E
(1612345128.472960) can0 39E#05817F0000000000
(1612345128.472961) can0 350#01FFB00700007F00
(1612345128.481103) can0 360#0000000000240016
(1612345128.481105) can0 380#80737E03E8FFFF7D
(1612345128.481105) can0 38A#000000000000001C
(1612345128.481106) can0 354#50CD000000000000
(1612345128.489042) can0 3C0#000008527FFF4401
(1612345128.489043) can0 3CA#800480040CB9804D
(1612345128.489045) can0 39A#20FB000B1C000000
(1612345128.489046) can1 601#000A006A00000000
(1612345128.497127) can0 316#81500AF07A370200
(1612345128.497128) can0 329#004500000000218C
(1612345128.497128) can0 335#0000000000000000
(1612345128.497129) can0 3BA#0000000000000000
(1612345128.504759) can0 3F0#0000000000000000
(1612345128.504760) can1 600#0400000000000000
(1612345128.504761) can1 601#000A006A00000000
(1612345128.504762) can0 38C#00000000F2E37AAE
(1612345128.513060) can0 38F#7E7F74F200000000
(1612345128.513061) can0 396#00040004AE00002B
(1612345128.513061) can0 39E#05817F0000000000
(1612345128.513062) can0 350#01FFB00700007F00
(1612345128.521062) can0 360#0000000000240052
(1612345128.521063) can0 380#80737E03E8FFFF7D
(1612345128.521067) can0 38A#0000000000000058
(1612345128.521068) can0 354#50CD000000000000
(1612345128.529038) can1 423#270F000FFFFFF000
(1612345128.529040) can0 3C0#000008527FFF4401
(1612345128.529041) can1 424#3E55550000000000
(1612345128.529042) can1 601#000A006A00000000
(1612345128.536986) can0 316#81500AF07A370200
(1612345128.536988) can0 329#004500000000218C
(1612345128.536989) can0 335#0000000000000000
(1612345128.536991) can0 3BA#0000000000000000
(1612345128.545017) can0 3F0#0000000000000000
(1612345128.545020) can0 431#33FCE301004293B2
(1612345128.545023) can0 462#07F8600000000000
(1612345128.545025) can0 38C#00000000F4C77AAE
(1612345128.553028) can0 38F#7E7F50F400000000
(1612345128.553032) can0 396#00040004AE000049
(1612345128.553035) can0 39E#05817F0000000000
(1612345128.553039) can0 5E5#303D3D433D3D3DFF
(1612345128.561022) can1 44B#6200000090660000
(1612345128.561026) can1 44D#0000000000000000
(1612345128.561030) can0 350#01FFB00700007F00
(1612345128.561033) can0 354#50CD000000000000
(1612345128.568833) can0 3C0#000008527FFF4401
(1612345128.568837) can0 3CA#800180010CB7804D
(1612345128.568840) can0 39A#20FB000B94000000
(1612345128.568844) can1 600#0400000000000000
(1612345128.573854) can1 475#0000004000000000
(1612345128.576779) can1 601#000A006A00000000
(1612345128.576783) can0 316#81500AF07A1E0200
(1612345128.576787) can0 329#004500000000218C
(1612345128.576790) can0 3BA#0000000000000000
(1612345128.585026) can0 3F0#0000000000000000
(1612345128.585030) can1 600#0400000000000000
(1612345128.585033) can1 601#000A006A00000000
(1612345128.585036) can0 38C#00000000F6AA7AAD
(1612345128.593022) can0 38F#7E7F4CF600000000
(1612345128.593025) can0 396#00040004AD000068
(1612345128.593028) can0 39E#05817F0000000000
(1612345128.593031) can0 350#01FFB00700007F00
(1612345128.600997) can0 360#00000000002400DA
(1612345128.601001) can0 380#80727E03E8FFFF7D
(1612345128.601004) can0 38A#00000000000000D0
(1612345128.601008) can0 34A#0000000000000000
(1612345128.609022) can0 354#50CD000000000000
(1612345128.609026) can0 3C0#000008527FFF4401
(1612345128.609029) can0 3CA#800180010CB7804D
(1612345128.609033) can1 601#000A006A00000000
(1612345128.616978) can0 316#81500AF07A1E0200
(1612345128.616982) can0 329#004500000000218C
(1612345128.616985) can0 335#0000000000000000
(1612345128.616988) can0 3BA#0000000000000000
(1612345128.625006) can0 3F0#0000000000000000
(1612345128.625011) can1 38A#0000000000000000
(1612345128.625014) can1 396#0004000400000070
(1612345128.625018) can0 38C#00000000F8FE7AAD
(1612345128.633028) can0 38F#7E7F18F800000000
(1612345128.633032) can0 396#00040004AD000086
(1612345128.633035) can0 39E#05817F0000000000
(1612345128.633038) can0 350#01FFB00700007F00
(1612345128.641001) can0 360#0000000000240016
(1612345128.641006) can0 380#80737E03E8FFFF7D
(1612345128.641009) can0 38A#000000000000001C
(1612345128.641011) can0 33A#0006000000000000
(1612345128.649029) can0 456#0C000C000C000C00
(1612345128.649033) can0 340#0004000000000000
(1612345128.649036) can0 462#07F8600000000000
(1612345128.649040) can1 601#000A006A00000000
(1612345128.656865) can0 316#81500AF07A370200
(1612345128.656869) can0 329#004500000000218C
(1612345128.656872) can0 335#0000000000000000
(1612345128.656876) can1 461#07F86B013EC00000
(1612345128.665015) can0 3BA#0000000000000000
(1612345128.665019) can1 46A#6371FF00FF4E153A
(1612345128.665022) can0 3C5#96D0000000000000
(1612345128.665037) can0 38C#00000000FAE27AAD
(1612345128.672871) can0 38F#7E7F04FA00000000
(1612345128.672875) can0 396#00040004AD0000A4
(1612345128.672878) can0 39E#05817F0000000000
(1612345128.672883) can0 350#01FFB00700007F00
(1612345128.681034) can0 360#0000000000240052
(1612345128.681038) can0 380#80737E03E8FFFF7D
(1612345128.681041) can0 38A#0000000000000058
(1612345128.681044) can0 354#50CD000000000000
(1612345128.688800) can0 3C0#000008527FFF4401
(1612345128.688806) can0 3CA#800480040CC68043
(1612345128.688810) can0 39A#20FB000B58000000
(1612345128.688814) can1 601#000A006A00000000
(1612345128.697027) can0 316#81500AF07A370200
(1612345128.697031) can0 329#004500000000218C
(1612345128.697034) can0 335#0000000000000000
(1612345128.697038) can0 3BA#0000000000000000
(1612345128.704808) can0 3F0#0000000000000000
(1612345128.704814) can1 600#0400000000000000
(1612345128.704819) can1 601#000A006A00000000
(1612345128.704824) can0 38C#00000000FCC67AAD
(1612345128.712788) can0 38F#7E7F20FC00000000
(1612345128.712793) can0 396#00040004AD0000C2
(1612345128.712798) can0 39E#05817F0000000000
(1612345128.712802) can0 350#01FFB00700007F00
(1612345128.720792) can0 360#000000000024009E
(1612345128.720797) can0 380#80727E03E8FFFF7D
(1612345128.720802) can0 38A#0000000000000094
(1612345128.720806) can0 354#50CD000000000000
(1612345128.728792) can1 423#270F000FFFFFF000
(1612345128.728797) can0 3C0#000008527FFF4401
(1612345128.728802) can1 424#3E55550000000000
(1612345128.728807) can1 601#000A006A00000000
(1612345128.736819) can0 316#81500AF07A1E0200
(1612345128.736822) can0 329#004500000000218C
(1612345128.736825) can0 335#0000000000000000
(1612345128.736828) can0 3BA#0000000000000000
(1612345128.744874) can0 3F0#0000000000000000
(1612345128.744877) can0 431#33FCE301004293B2
(1612345128.744881) can1 600#0400000000000000
(1612345128.744884) can0 38C#00000000FEDA7AAD
(1612345128.753049) can0 38F#7E7F3CFE00000000
(1612345128.753053) can0 396#00040004AD0000E0
(1612345128.753056) can0 39E#05817F0000000000
(1612345128.753059) can0 5E5#503D3D3E3DFFFFFF
(1612345128.761036) can1 44B#6200000090660000
(1612345128.761040) can1 44D#0000000000000000
(1612345128.761043) can0 350#01FFB00700007F00
(1612345128.761046) can0 354#50CD000000000000
(1612345128.769045) can0 3C0#000008527FFF4401
(1612345128.769049) can0 3CA#800180010CCF804D
(1612345128.769052) can0 39A#20FB000BD0000000
(1612345128.769056) can1 600#0400000000000000
(1612345128.777009) can1 601#000A006A00000000
(1612345128.777013) can0 316#81500AF07A1E0200
(1612345128.777016) can0 329#004500000000218C
(1612345128.777019) can0 3BA#0000000000000000
(1612345128.783889) can1 475#0000008000000000
(1612345128.784842) can0 3F0#0000000000000000
(1612345128.784847) can1 600#0400000000000000
(1612345128.784851) can1 601#000A006A00000000
(1612345128.784855) can0 38A#000000000000000D
(1612345128.792840) can0 38C#0000000000BD7AAD
(1612345128.792844) can0 38F#7E7F5B0000000000
(1612345128.792847) can0 396#00040004AD00000E
(1612345128.792850) can0 39E#05817F0000000000
(1612345128.800873) can0 350#01FFB00700007F00
(1612345128.800877) can0 360#0000000000240016
(1612345128.800880) can0 380#80707E03E8FFFF7D
(1612345128.800883) can0 34A#0000000000000000
(1612345128.808839) can0 354#50CD000000000000
(1612345128.808843) can0 3C0#000008527FFF4401
(1612345128.808846) can0 3CA#800180010CCF804D
(1612345128.808850) can1 601#000A006A00000000
(1612345128.816840) can0 316#81500AF07A1E0200
(1612345128.816844) can0 329#004500000000218C
(1612345128.816847) can0 335#0000000000000000
(1612345128.816850) can0 3BA#0000000000000000
(1612345128.825033) can0 3F0#0000000000000000
(1612345128.825038) can1 38A#0000000000000000
(1612345128.825041) can1 396#0004000400000010
(1612345128.825044) can0 38A#0000000000000049
(1612345128.833050) can0 38C#0000000002EC7FAE
(1612345128.833054) can0 38F#7E7F470200000000
(1612345128.833058) can0 396#00040004AE00002B
(1612345128.833060) can0 350#01FFB00700007F00
(1612345128.841019) can0 360#0000000000240052
(1612345128.841023) can0 380#80737E03E3FFFF7D
(1612345128.841026) can0 38A#0000000000000058
(1612345128.841029) can0 33A#0006000000000000
(1612345128.849038) can0 456#0C000C000C000C00
(1612345128.849042) can0 340#0004000000000000
(1612345128.849045) can0 462#07F8600000000000
(1612345128.849049) can1 601#000A006A00000000
(1612345128.857011) can0 316#81500AF07A1E0200
(1612345128.857015) can0 329#004500000000218C
(1612345128.857018) can0 335#0000000000000000
(1612345128.857021) can0 3BA#0000000000000000
(1612345128.865032) can0 3C5#96D0000000000000
(1612345128.865036) can1 461#07F86B013EC00000
(1612345128.865039) can0 3C9#FFFFFFFFFFFFFFFF
(1612345128.865042) can0 380#80737E03E8FFFF7D
(1612345128.872989) can0 38A#0000000000000085
(1612345128.872993) can0 38C#0000000004B97FAD
(1612345128.872996) can0 38F#7E7F630400000000
(1612345128.872999) can0 39E#05817F0000000000
(1612345128.881054) can0 350#01FFB00700007F00
(1612345128.881059) can0 360#000000000024009E
(1612345128.881062) can0 380#80727E03E3FFFF7D
(1612345128.881065) can0 354#50CD000000000000
(1612345128.888817) can0 3C0#000008527FFF4401
(1612345128.888823) can0 3CA#800480040CCA8043
(1612345128.888827) can0 39A#20FB000B94000000
(1612345128.888831) can1 601#000A006A00000000
(1612345128.897055) can0 316#81500AF07A370200
(1612345128.897060) can0 329#004500000000218C
(1612345128.897063) can0 335#0000000000000000
(1612345128.897065) can0 3BA#0000000000000000
(1612345128.904997) can0 3F0#0000000000000000
(1612345128.905004) can1 600#0400000000000000
(1612345128.905007) can1 601#000A006A00000000
(1612345128.905012) can0 380#80737E03E3FFFF7D
(1612345128.912898) can0 38A#00000000000000C1
(1612345128.912902) can0 38C#0000000006A57FAD
(1612345128.912905) can0 38F#7E7F7F0600000000
(1612345128.912908) can0 39E#05817F0000000000
(1612345128.920817) can0 350#01FFB00700007F00
(1612345128.920822) can0 360#00000000002400DA
(1612345128.920825) can0 380#80737E03E8FFFF7D
(1612345128.920828) can0 354#50CD000000000000
(1612345128.928833) can1 423#270F000FFFFFF000
(1612345128.928837) can0 3C0#000008527FFF4401
(1612345128.928840) can1 424#3E55550000000000
(1612345128.928844) can1 601#000A006A00000000
(1612345128.936808) can0 316#81500AF07A370200
(1612345128.936812) can0 329#004500000000218C
(1612345128.936815) can0 335#0000000000000000
(1612345128.936818) can0 3BA#0000000000000000
(1612345128.944806) can0 3F0#0000000000000000
(1612345128.944810) can0 431#33FCE301004293B2
(1612345128.944813) can1 600#0400000000000000
(1612345128.944816) can0 380#80737E03E3FFFF7D
(1612345128.952809) can0 38A#000000000000000D
(1612345128.952813) can0 38C#0000000008F17FAD
(1612345128.952816) can0 38F#7E7F2B0800000000
(1612345128.952819) can0 5E5#203D3D3D3D3E3DFF
(1612345128.960804) can1 44B#6200000090660000
(1612345128.960814) can1 44D#0000000000000000
(1612345128.960816) can0 39E#05817F0000000000
(1612345128.960818) can0 354#50CD000000000000
(1612345128.968796) can0 3C0#000008527FFF4401
(1612345128.968797) can0 3CA#800480040CB98043
(1612345128.968798) can0 39A#20FB000B1C000000
(1612345128.968799) can1 600#0400000000000000
(1612345128.976808) can1 601#000A006A00000000
(1612345128.976810) can0 316#81500AF07A370200
(1612345128.976812) can0 329#004500000000218C
(1612345128.976813) can0 3BA#0000000000000000
(1612345128.984794) can0 3F0#0000000000000000
(1612345128.984795) can1 600#0400000000000000
(1612345128.984796) can1 601#000A006A00000000
(1612345128.984796) can0 380#80737E03E8FFFF7D
(1612345128.990711) can1 475#0000008000000000
(1612345128.992801) can0 38A#0000000000000049
(1612345128.992802) can0 38C#000000000AED7FAD
(1612345128.992803) can0 38F#7E7F370A00000000
(1612345128.992804) can0 39E#05817F0000000000
(1612345129.000802) can0 350#01FFB00700007F00
(1612345129.000803) can0 360#0000000000240052
(1612345129.000805) can0 380#80727E03E3FFFF7D
(1612345129.000806) can0 34A#0000000000000000
(1612345129.008804) can0 354#50CD000000000000
(1612345129.008806) can0 3C0#000008527FFF4401
(1612345129.008806) can0 3CA#800480040CB98043
(1612345129.008807) can0 316#81500AF07A370200
(1612345129.017114) can0 329#004500000000218C
(1612345129.017115) can0 335#0000000000000000
(1612345129.017115) can0 33A#0006000000000000
(1612345129.017116) can0 3BA#0000000000000000
(1612345129.025135) can0 3F0#0000000000000000
(1612345129.025136) can1 38A#0000000000000000
(1612345129.025136) can1 396#00040004000000B0
(1612345129.025137) can0 380#80737E03E8FFFF7D
(1612345129.033130) can0 38A#0000000000000085
(1612345129.033131) can0 38C#000000000CF57AAD
(1612345129.033132) can0 38F#7E7F130C00000000
(1612345129.033132) can0 39E#05817F0000000000
(1612345129.041105) can0 350#01FFB00700007F00
(1612345129.041106) can0 360#000000000024009E
(1612345129.041107) can0 380#80717E03E8FFFF7D
(1612345129.041108) can0 33A#0006000000000000
(1612345129.049093) can0 456#0C000C000C000C00
(1612345129.049094) can0 340#0004000000000000
(1612345129.049095) can0 462#07F8600000000000
(1612345129.049096) can0 316#81500AF07A370200
(1612345129.057037) can0 329#004500000000218C
(1612345129.057038) can0 335#0000000000000000
(1612345129.057040) can0 33A#0006000000000000
(1612345129.057041) can0 3BA#0000000000000000
(1612345129.065054) can0 3C5#96D0000000000000
(1612345129.065056) can0 3C9#FFFFFFFFFFFFFFFF
(1612345129.065058) can1 461#07F86B013EC00000
(1612345129.065060) can0 380#80737E03E8FFFF7D
(1612345129.073019) can0 38A#00000000000000C1
(1612345129.073023) can0 38C#000000000EE97AAD
(1612345129.073026) can0 38F#7E7F0F0E00000000
(1612345129.073030) can0 39E#05817F0000000000
(1612345129.081069) can0 350#01FFB00700007F00
(1612345129.081073) can0 360#00000000002400DA
(1612345129.081075) can0 380#80737E03E8FFFF7D
(1612345129.081078) can0 354#50CD000000000000
(1612345129.088908) can0 3C0#000008527FFF4401
(1612345129.088913) can0 3CA#800480040CC88043
(1612345129.088916) can0 39A#20FB000BD0000000
(1612345129.088918) can0 316#81500AF07A370200
(1612345129.096908) can0 329#004500000000218C
(1612345129.096912) can0 335#0000000000000000
(1612345129.096915) can0 33A#0006000000000000
(1612345129.096919) can0 3BA#0000000000000000
(1612345129.104834) can0 3F0#0000000000000000
(1612345129.104841) can1 600#0400000000000000
(1612345129.104861) can1 601#000A006A00000000
(1612345129.104865) can0 380#80737E03E8FFFF7D
(1612345129.113077) can0 38A#000000000000000D
(1612345129.113081) can0 38C#00000000105D7AAD
(1612345129.113084) can0 38F#7E7FBB1000000000
(1612345129.113087) can0 39E#05817F0000000000
(1612345129.121104) can0 350#01FFB00700007F00
(1612345129.121110) can0 360#0000000000240016
(1612345129.121113) can0 380#80737E03E8FFFF7D
(1612345129.121118) can0 354#50CD000000000000
(1612345129.129073) can1 423#270F000FFFFFF000
(1612345129.129077) can0 3C0#000008527FFF4401
(1612345129.129080) can1 424#3E55550000000000
(1612345129.129083) can0 316#81500AF07A370200
(1612345129.137042) can0 329#004500000000218C
(1612345129.137046) can0 335#0000000000000000
(1612345129.137049) can0 33A#0006000000000000
(1612345129.137052) can0 3BA#0000000000000000
(1612345129.145074) can0 3F0#0000000000000000
(1612345129.145078) can0 431#33FCE301004293B2
(1612345129.145082) can1 600#0400000000000000
(1612345129.145085) can0 380#80717E03E8FFFF7D
(1612345129.153066) can0 38A#0000000000000049
(1612345129.153070) can0 38C#0000000012307AAE
(1612345129.153073) can0 38F#7E7FA71200000000
(1612345129.153076) can0 5E5#303D3D433D3D3DFF
(1612345129.161071) can0 401#00007F0620000000
(1612345129.161075) can1 44B#6200000090660000
(1612345129.161078) can1 44D#0000000000000000
(1612345129.161081) can0 354#50CD000000000000
(1612345129.168882) can0 3C0#000008527FFF4401
(1612345129.168886) can0 3CA#800480040CB58043
(1612345129.168889) can0 39A#20FB000B58000000
(1612345129.168893) can1 600#0400000000000000
(1612345129.176883) can1 601#000A006A00000000
(1612345129.176887) can0 316#81500AF07A370200
(1612345129.176890) can0 329#004500000000218C
(1612345129.176893) can0 3BA#0000000000000000
(1612345129.185078) can0 3F0#0000000000000000
(1612345129.185083) can1 600#0400000000000000
(1612345129.185086) can1 601#000A006A00000000
(1612345129.185090) can0 380#80727E03E8FFFF7D
(1612345129.192850) can0 38A#0000000000000085
(1612345129.192856) can0 38C#0000000014657AAD
(1612345129.192860) can0 38F#7E7F831400000000
(1612345129.192865) can0 39E#05817F0000000000
(1612345129.196923) can1 475#0000008000000000
(1612345129.200830) can0 350#01FFB00700007F00
(1612345129.200834) can0 360#000000000024009E
(1612345129.200837) can0 380#80727E03E8FFFF7D
(1612345129.200839) can0 34A#0000000000000000
(1612345129.208885) can0 354#50CD000000000000
(1612345129.208889) can0 3C0#000008527FFF4401
(1612345129.208892) can0 3CA#800480040CCA8043
(1612345129.208895) can0 316#81500AF07A370200
(1612345129.216873) can0 329#004500000000218C
(1612345129.216877) can0 335#0000000000000000
(1612345129.216881) can0 33A#0006000000000000
(1612345129.216884) can0 3F0#0000000000000000
(1612345129.224909) can1 38A#0000000000000000
(1612345129.224913) can1 396#0004000400000050
(1612345129.224916) can1 39F#0004000400000050
(1612345129.224919) can0 380#80737E03E8FFFF7D
(1612345129.233083) can0 38A#00000000000000C1
(1612345129.233087) can0 38C#0000000016087AAE
(1612345129.233090) can0 38F#7E7F9F1600000000
(1612345129.233093) can0 39E#05817F0000000000
(1612345129.241062) can0 350#01FFB00700007F00
(1612345129.241066) can0 360#00000000002400DA
(1612345129.241069) can0 380#80727E03E8FFFF7D
(1612345129.241073) can0 33A#0006000000000000
(1612345129.249086) can0 456#0C000C000C000C00
(1612345129.249090) can0 340#0004000000000000
(1612345129.249093) can0 462#07F8600000000000
(1612345129.249109) can0 316#81500AF07A370200
(1612345129.257054) can0 329#004500000000218C
(1612345129.257058) can0 335#0000000000000000
(1612345129.257061) can0 33A#0006000000000000
(1612345129.257064) can0 3C5#96D0000000000000
(1612345129.265042) can0 3C9#FFFFFFFFFFFFFFFF
(1612345129.265046) can0 5CF#0001000000060000
(1612345129.265049) can1 461#07F86B013EC00000
(1612345129.265053) can0 380#80727E03E8FFFF7D
(1612345129.273039) can0 38A#000000000000000D
(1612345129.273043) can0 38C#00000000182D7AAD
(1612345129.273046) can0 38F#7E7FCB1800000000
(1612345129.273049) can0 39E#05817F0000000000
(1612345129.281089) can0 350#01FFB00700007F00
(1612345129.281093) can0 360#0000000000240016
(1612345129.281095) can0 380#80737E03E8FFFF7D
(1612345129.281098) can0 354#50CD000000000000
(1612345129.288926) can0 3C0#000008527FFF4401
(1612345129.288930) can0 3CA#800480040CA88043
(1612345129.288933) can0 39A#20FB000B1C000000
(1612345129.288936) can0 316#81500AF07A370200
(1612345129.297090) can0 329#004500000000218C
(1612345129.297094) can0 335#0000000000000000
(1612345129.297097) can0 33A#0006000000000000
(1612345129.297099) can0 52E#6D00301000000000
(1612345129.304851) can0 3F0#0000000000000000
(1612345129.304856) can1 600#0400000000000000
(1612345129.304860) can1 601#000A006A00000000
(1612345129.304864) can0 380#80737E03E8FFFF7D
(1612345129.313090) can0 38A#0000000000000049
(1612345129.313094) can0 38C#000000001A317AAD
(1612345129.313098) can0 38F#7E7FD71A00000000
(1612345129.313100) can0 39E#05817F0000000000
(1612345129.321002) can0 350#01FFB00700007F00
(1612345129.321009) can0 360#0000000000240052
(1612345129.321013) can0 380#80727E03E8FFFF7D
(1612345129.321017) can0 354#50CD000000000000
(1612345129.329098) can1 423#270F000FFFFFF000
(1612345129.329103) can0 3C0#000008527FFF4401
(1612345129.329106) can1 424#3E55550000000000
(1612345129.329108) can1 600#0400000000000000
(1612345129.336931) can1 601#000A006A00000000
(1612345129.336935) can1 724#0006000000000000
(1612345129.336939) can0 316#81500AF07A370200
(1612345129.336942) can0 3F0#0000000000000000
(1612345129.345099) can0 431#33FCE301004293B2
(1612345129.345104) can1 600#0400000000000000
(1612345129.345107) can0 462#07F8600000000000
(1612345129.345109) can0 380#80727E03EDFFFF7D
(1612345129.353084) can0 38A#0000000000000085
(1612345129.353088) can0 38C#000000001C647AAE
(1612345129.353091) can0 38F#7E7FF31C00000000
(1612345129.353094) can0 5E4#14000E670E6A0E6E
(1612345129.361095) can0 5E5#503D3D3E3DFFFFFF
(1612345129.361100) can1 44B#6200000090660000
(1612345129.361103) can1 44D#0000000000000000
(1612345129.361107) can0 354#50CD000000000000
(1612345129.369088) can0 3C0#000008527FFF4401
(1612345129.369092) can0 3CA#800480040CBE8043
(1612345129.369095) can0 39A#20FB000B94000000
(1612345129.369099) can1 600#0400000000000000
(1612345129.377086) can1 601#000A006A00000000
(1612345129.377090) can0 316#81500AF07A370200
(1612345129.377094) can0 329#004500000000218C
(1612345129.377096) can0 3F0#0000000000000000
(1612345129.385090) can1 600#0400000000000000
(1612345129.385095) can1 601#000A006A00000000
(1612345129.385100) can0 316#81500AF07A370200
(1612345129.385104) can0 380#80737E03E8FFFF7D
(1612345129.393090) can0 38A#00000000000000C1
(1612345129.393094) can0 38C#000000001E097AAD
(1612345129.393097) can0 38F#7E7FEF1E00000000
(1612345129.393100) can0 39E#05817F0000000000
(1612345129.401062) can0 350#01FFB00700007F00
(1612345129.401066) can0 360#00000000002400DA
(1612345129.401069) can0 380#80727E03E8FFFF7D
(1612345129.401072) can0 34A#0000000000000000
(1612345129.407079) can1 475#0000000000000000
(1612345129.408892) can0 354#50CD000000000000
(1612345129.408896) can0 3C0#000008527FFF4401
(1612345129.408899) can0 3CA#800480040CBE8043
(1612345129.408902) can0 316#81500AF07A370200
(1612345129.417090) can0 329#004500000000218C
(1612345129.417094) can0 335#0000000000000000
(1612345129.417097) can0 33A#0006000000000000
(1612345129.417100) can0 3F0#0000000000000000
(1612345129.425049) can1 38A#0000000000000000
(1612345129.425053) can1 396#00040004000000F0
(1612345129.425056) can1 39F#00040004000000F0
(1612345129.425060) can0 380#80727E03EDFFFF7D
(1612345129.433096) can0 38A#000000000000000D
(1612345129.433100) can0 38C#0000000020527AAD
(1612345129.433103) can0 38F#7E7FB42000000000
(1612345129.433106) can0 39E#05817F0000000000
(1612345129.441081) can0 350#01FFB00700007F00
(1612345129.441085) can0 360#0000000000240016
(1612345129.441088) can0 380#80737E03E8FFFF7D
(1612345129.441091) can0 33A#0006000000000000
(1612345129.449101) can0 456#0C000C000C000C00
(1612345129.449105) can0 340#0004000000000000
(1612345129.449108) can0 462#07F8600000000000
(1612345129.449111) can0 316#81500AF07A1E0200
(1612345129.456921) can0 329#004500000000218C
(1612345129.456926) can0 335#0000000000000000
(1612345129.456929) can0 33A#0006000000000000
(1612345129.456932) can0 3C9#FFFFFFFFFFFFFFFF
(1612345129.464873) can1 461#07F86B013EC00000
(1612345129.464878) can1 46A#6371FF00FF4E153A
(1612345129.464882) can1 521#0000000000000022
(1612345129.464886) can0 380#80737E03E8FFFF7D
(1612345129.472860) can0 38A#0000000000000049
(1612345129.472865) can0 38C#00000000224E7AAD
(1612345129.472868) can0 38F#7E7FA82200000000
(1612345129.472873) can0 39E#05817F0000000000
(1612345129.480857) can0 350#01FFB00700007F00
(1612345129.480862) can0 360#0000000000240052
(1612345129.480866) can0 380#80727E03EDFFFF7D
(1612345129.480870) can0 354#50CD000000000000
(1612345129.488846) can0 3C0#000008527FFF4401
(1612345129.488849) can0 3CA#800180010CC88043
(1612345129.488852) can0 39A#20FB000B58000000
(1612345129.488854) can0 316#81500AF07A1E0200
(1612345129.496838) can0 329#004500000000218C
(1612345129.496839) can0 335#0000000000000000
(1612345129.496841) can0 33A#0006000000000000
(1612345129.496842) can0 52E#6D00301000000000
(1612345129.504846) can0 3F0#0000000000000000
(1612345129.504848) can1 600#0400000000000000
(1612345129.504849) can1 601#000A006A00000000
(1612345129.504850) can0 380#80727E03E8FFFF7D
(1612345129.512845) can0 38A#0000000000000085
(1612345129.512846) can0 38C#00000000246A7AAD
(1612345129.512847) can0 38F#7E7F8C2400000000
(1612345129.512848) can0 39E#05817F0000000000
(1612345129.520843) can0 350#01FFB00700007F00
(1612345129.520844) can0 360#000000000024009E
(1612345129.520845) can0 380#80737E03E8FFFF7D
(1612345129.520845) can0 354#50CD000000000000
(1612345129.529058) can1 423#270F000FFFFFF000
(1612345129.529059) can0 3C0#000008527FFF4401
(1612345129.529060) can1 424#3E55550000000000
(1612345129.529061) can0 316#81500AF07A370200
(1612345129.537223) can0 329#004500000000218C
(1612345129.537224) can0 335#0000000000000000
(1612345129.537225) can0 33A#0006000000000000
(1612345129.537225) can0 3F0#0000000000000000
(1612345129.545045) can0 431#33FCE301004293B2
(1612345129.545049) can1 600#0400000000000000
(1612345129.545050) can0 462#07F8600000000000
(1612345129.545051) can0 380#80737E03E8FFFF7D
(1612345129.553199) can0 38A#00000000000000C1
(1612345129.553200) can0 38C#0000000026767AAD
(1612345129.553201) can0 38F#7E7F902600000000
(1612345129.553201) can0 5E4#1C000E6D0E680E70
(1612345129.561051) can0 5E5#203D3D3D3D3E3DFF
(1612345129.561053) can1 44B#6200000090660000
(1612345129.561054) can1 44D#0000000000000000
(1612345129.561055) can0 354#50CD000000000000
(1612345129.569136) can0 3C0#000008527FFF4401
(1612345129.569137) can0 3CA#800480040CBC8043
(1612345129.569138) can0 39A#20FB000BD0000000
(1612345129.569139) can1 600#0400000000000000
(1612345129.577117) can1 601#000A006A00000000
(1612345129.577118) can0 316#81500AF07A370200
(1612345129.577119) can0 329#004500000000218C
(1612345129.577121) can0 3F0#0000000000000000
(1612345129.585065) can1 600#0400000000000000
(1612345129.585067) can1 601#000A006A00000000
(1612345129.585069) can0 316#81500AF07A370200
(1612345129.585070) can0 380#80737E03EDFFFF7D
(1612345129.593102) can0 38A#000000000000000D
(1612345129.593106) can0 38C#0000000028227AAD
(1612345129.593108) can0 38F#7E7FC42800000000
(1612345129.593111) can0 39E#05817F0000000000
(1612345129.601076) can0 350#01FFB00700007F00
(1612345129.601080) can0 360#0000000000240016
(1612345129.601083) can0 380#80737E03EDFFFF7D
(1612345129.601087) can0 34A#0000000000000000
(1612345129.609113) can0 354#50CD000000000000
(1612345129.609117) can0 3C0#000008527FFF4401
(1612345129.609120) can0 3CA#800480040CBC8043
(1612345129.609123) can0 316#81500AF07A370200
(1612345129.616917) can0 329#004500000000218C
(1612345129.616921) can0 335#0000000000000000
(1612345129.616923) can0 33A#0006000000000000
(1612345129.616926) can0 3F0#0000000000000000
(1612345129.617723) can1 475#0000004000000000
(1612345129.625087) can1 38A#0000000000000000
(1612345129.625091) can1 396#0004000400000090
(1612345129.625094) can1 39F#0004000400000090
(1612345129.625098) can0 380#80737E03E8FFFF7D
(1612345129.633137) can0 38A#0000000000000049
(1612345129.633141) can0 38C#000000002A3E7AAD
(1612345129.633144) can0 38F#7E7FD82A00000000
(1612345129.633147) can0 39E#05817F0000000000
(1612345129.641115) can0 350#01FFB00700007F00
(1612345129.641119) can0 360#0000000000240052
(1612345129.641122) can0 380#80717E03E8FFFF7D
(1612345129.641125) can0 33A#0006000000000000
(1612345129.649117) can0 456#0C000C000C000C00
(1612345129.649121) can0 340#0004000000000000
(1612345129.649124) can0 462#07F8600000000000
(1612345129.649127) can0 316#81500AF07A370200
(1612345129.657097) can0 329#004500000000218C
(1612345129.657101) can0 335#0000000000000000
(1612345129.657104) can0 33A#0006000000000000
(1612345129.657107) can1 461#07F86B013EC00000
(1612345129.665120) can1 46A#6371FF00FF4E153A
(1612345129.665124) can1 521#0000000000000022
(1612345129.665128) can0 3F0#0000000000000000
(1612345129.665130) can0 380#80737E03E8FFFF7D
(1612345129.673090) can0 38A#0000000000000085
(1612345129.673094) can0 38C#000000002C1A7AAD
(1612345129.673097) can0 38F#7E7FFC2C00000000
(1612345129.673100) can0 39E#05817F0000000000
(1612345129.681099) can0 350#01FFB00700007F00
(1612345129.681103) can0 360#000000000024009E
(1612345129.681106) can0 380#80727E03E8FFFF7D
(1612345129.681109) can0 354#50CD000000000000
(1612345129.689081) can0 3C0#000008527FFF4401
(1612345129.689085) can0 3CA#800480040CCA8043
(1612345129.689101) can0 39A#20FB000B94000000
(1612345129.689104) can0 316#81500AF07A370200
(1612345129.697128) can0 329#004500000000218C
(1612345129.697133) can0 335#0000000000000000
(1612345129.697135) can0 33A#0006000000000000
(1612345129.697139) can0 3F0#0000000000000000
(1612345129.704956) can1 600#0400000000000000
(1612345129.704959) can1 601#000A006A00000000
(1612345129.704963) can0 316#81500AF07A370200
(1612345129.704966) can0 380#80727E03E8FFFF7D
(1612345129.712942) can0 38A#00000000000000C1
(1612345129.712947) can0 38C#000000002E067AAD
(1612345129.712950) can0 38F#7E7FE02E00000000
(1612345129.712952) can0 39E#05817F0000000000
(1612345129.720954) can0 350#01FFB00700007F00
(1612345129.720958) can0 360#00000000002400DA
(1612345129.720961) can0 380#80737E03E8FFFF7D
(1612345129.720964) can0 354#50CD000000000000
(1612345129.729123) can1 423#270F000FFFFFF000
(1612345129.729127) can0 3C0#000008527FFF4401
(1612345129.729131) can1 424#3E55550000000000
(1612345129.729134) can0 316#81500AF07A1E0200
(1612345129.736969) can0 329#004500000000218C
(1612345129.736986) can0 335#0000000000000000
(1612345129.736992) can0 33A#0006000000000000
(1612345129.736996) can0 3F0#0000000000000000
(1612345129.745117) can0 431#33FCE301004293B2
(1612345129.745122) can1 600#0400000000000000
(1612345129.745125) can0 462#07F8600000000000
(1612345129.745129) can0 380#80737E03E8FFFF7D
(1612345129.753119) can0 38A#000000000000000D
(1612345129.753124) can0 38C#0000000030C37AAE
(1612345129.753127) can0 38F#7E7F543000000000
(1612345129.753130) can0 5E4#04000E6D0E650E0D
(1612345129.761131) can0 5E5#403D3D3D3D3D3DFF
(1612345129.761136) can1 44B#6200000090660000
(1612345129.761139) can1 44D#0000000000000000
(1612345129.761142) can0 354#50CD000000000000
(1612345129.769126) can0 3C0#000008527FFF4401
(1612345129.769130) can0 3CA#800180010CBE8043
(1612345129.769133) can0 39A#20FB000B1C000000
(1612345129.769137) can1 600#0400000000000000
(1612345129.777133) can1 601#000A006A00000000
(1612345129.777137) can0 316#81500AF07A1E0200
(1612345129.777140) can0 329#004500000000218C
(1612345129.777143) can0 3F0#0000000000000000
(1612345129.785131) can1 600#0400000000000000
(1612345129.785135) can1 601#000A006A00000000
(1612345129.785138) can0 316#81500AF07A370200
(1612345129.785141) can0 380#80737E03E8FFFF7D
(1612345129.793129) can0 38A#0000000000000049
(1612345129.793133) can0 38C#0000000032AE7AAD
(1612345129.793136) can0 38F#7E7F483200000000
(1612345129.793140) can0 39E#05817F0000000000
(1612345129.801092) can0 350#01FFB00700007F00
(1612345129.801096) can0 360#0000000000240052
(1612345129.801099) can0 380#80737E03E8FFFF7D
(1612345129.801102) can0 34A#0000000000000000
(1612345129.809136) can0 354#50CD000000000000
(1612345129.809140) can0 3C0#000008527FFF4401
(1612345129.809143) can0 3CA#800480040CBE8043
(1612345129.809145) can0 316#81500AF07A370200
(1612345129.817131) can0 329#004500000000218C
(1612345129.817135) can0 335#0000000000000000
(1612345129.817138) can0 33A#0006000000000000
(1612345129.817142) can0 3F0#0000000000000000
(1612345129.824896) can1 38A#0000000000000000
(1612345129.824902) can1 396#0004000400000030
(1612345129.824907) can1 39F#0004000400000030
(1612345129.824911) can0 380#80727E03E8FFFF7D
(1612345129.828929) can1 475#0000000000000000
(1612345129.832884) can0 38A#0000000000000085
(1612345129.832889) can0 38C#00000000348A7AAD
(1612345129.832892) can0 38F#7E7F6C3400000000
(1612345129.832905) can0 39E#05817F0000000000
(1612345129.841133) can0 350#01FFB00700007F00
(1612345129.841137) can0 360#000000000024009E
(1612345129.841140) can0 380#80727E03E8FFFF7D
(1612345129.841143) can0 33A#0006000000000000
(1612345129.849125) can0 456#0C000C000C000C00
(1612345129.849129) can0 340#0004000000000000
(1612345129.849133) can0 462#07F8600000000000
(1612345129.849136) can0 401#00007F0620000000
(1612345129.857135) can0 70E#0006000000000000
(1612345129.857139) can0 316#81500AF07A370200
(1612345129.857142) can0 329#004500000000218C
(1612345129.857145) can1 461#07F86B013EC00000
(1612345129.865080) can1 46A#6371FF00FF4E153A
(1612345129.865084) can1 521#0000000000000022
(1612345129.865088) can0 3F0#0000000000000000
(1612345129.865091) can0 380#80727E03E8FFFF7D
(1612345129.873119) can0 38A#00000000000000C1
(1612345129.873123) can0 38C#0000000036E77AAE
(1612345129.873126) can0 38F#7E7F703600000000
(1612345129.873130) can0 39E#05817F0000000000
(1612345129.880913) can0 350#01FFB00700007F00
(1612345129.880916) can0 360#00000000002400DA
(1612345129.880919) can0 380#80737E03E8FFFF7D
(1612345129.880922) can0 354#50CD000000000000
(1612345129.889109) can0 3C0#000008527FFF4401
(1612345129.889113) can0 3CA#800480040CC68043
(1612345129.889116) can0 39A#20FB000BD0000000
(1612345129.889119) can0 316#81500AF07A370200
(1612345129.897135) can0 329#004500000000218C
(1612345129.897139) can0 335#0000000000000000
(1612345129.897142) can0 33A#0006000000000000
(1612345129.897146) can0 3F0#0000000000000000
(1612345129.905086) can1 600#0400000000000000
(1612345129.905090) can1 601#000A006A00000000
(1612345129.905094) can0 316#81500AF07A370200
(1612345129.905097) can0 380#80727E03E8FFFF7D
(1612345129.913091) can0 38A#000000000000000D
(1612345129.913095) can0 38C#0000000038C27AAD
(1612345129.913099) can0 38F#7E7F243800000000
(1612345129.913101) can0 39E#05817F0000000000
(1612345129.920976) can0 350#01FFB00700007F00
(1612345129.920980) can0 360#0000000000240016
(1612345129.920983) can0 380#80727E03E8FFFF7D
(1612345129.920987) can0 354#50CD000000000000
(1612345129.929139) can1 423#270F000FFFFFF000
(1612345129.929143) can0 3C0#000008527FFF4401
(1612345129.929146) can1 424#3E55550000000000
(1612345129.929149) can0 316#81500AF07A370200
(1612345129.936911) can0 329#004500000000218C
(1612345129.936915) can0 335#0000000000000000
(1612345129.936919) can0 33A#0006000000000000
(1612345129.936922) can0 3F0#0000000000000000
(1612345129.945139) can0 431#33FCE301004293B2
(1612345129.945144) can1 600#0400000000000000
(1612345129.945147) can0 462#07F8600000000000
(1612345129.945151) can0 380#80717E03E8FFFF7D
(1612345129.953185) can0 38A#0000000000000049
(1612345129.953189) can0 38C#000000003ADE7AAD
(1612345129.953192) can0 38F#7E7F383A00000000
(1612345129.953195) can0 5E5#103D3D3D3D3D3D3D
(1612345129.960981) can1 44B#6200000090660000
(1612345129.960986) can1 44D#0000000000000000
(1612345129.960989) can0 39E#05817F0000000000
(1612345129.960992) can0 354#50CD000000000000
(1612345129.969152) can0 3C0#000008527FFF4401
(1612345129.969157) can0 3CA#800480040CB78043
(1612345129.969172) can0 39A#20FB000B58000000
(1612345129.969180) can1 600#0400000000000000
(1612345129.976914) can1 601#000A006A00000000
(1612345129.976920) can0 316#81500AF07A370200
(1612345129.976925) can0 329#004500000000218C
(1612345129.976929) can0 3F0#0000000000000000
(1612345129.984910) can1 600#0400000000000000
(1612345129.984915) can1 601#000A006A00000000
(1612345129.984919) can0 316#81500AF07A370200
(1612345129.984923) can0 380#80737E03E8FFFF7D
(1612345129.992906) can0 38A#0000000000000085
(1612345129.992912) can0 38C#000000003CFA7AAD
(1612345129.992916) can0 38F#7E7F1C3C00000000
(1612345129.992921) can0 39E#05817F0000000000
(1612345130.000903) can0 350#01FFB00700007F00
(1612345130.000907) can0 360#000000000024009E
(1612345130.000912) can0 380#80737E03E8FFFF7D
(1612345130.000916) can0 34A#0000000000000000
(1612345130.008902) can0 354#50CD000000000000
(1612345130.008907) can0 3C0#000008527FFF4401
(1612345130.008911) can0 3CA#800480040CB78043
(1612345130.008915) can0 316#81500AF07A370200
(1612345130.016887) can0 329#004500000000218C
(1612345130.016890) can0 335#0000000000000000
(1612345130.016892) can0 33A#0006000000000000
(1612345130.016895) can0 3F0#0000000000000000
(1612345130.024883) can1 38A#0000000000000000
(1612345130.024885) can1 396#00040004000000D0
(1612345130.024886) can1 39F#00040004000000D0
(1612345130.024887) can0 380#80727E03E8FFFF7D
(1612345130.032881) can0 38A#00000000000000C1
(1612345130.032882) can0 38C#000000003EE67AAD
(1612345130.032883) can0 38F#7E7F003E00000000
(1612345130.032884) can0 39E#05817F0000000000
(1612345130.035463) can1 475#0000004000000000
(1612345130.040884) can0 350#01FFB00700007F00
(1612345130.040885) can0 360#00000000002400DA
(1612345130.040886) can0 380#80737E03E8FFFF7D
(1612345130.040887) can0 33A#0006000000000000
(1612345130.048944) can0 456#0C000C000C000C00
(1612345130.048945) can0 340#0004000000000000
(1612345130.048946) can0 462#07F8600000000000
(1612345130.048947) can0 316#81500AF07A370200
(1612345130.057257) can0 329#004500000000218C
(1612345130.057258) can0 335#0000000000000000
(1612345130.057259) can0 33A#0006000000000000
(1612345130.057259) can1 461#07F86B013EC00000
(1612345130.064922) can1 46A#6371FF00FF4E153A
(1612345130.064923) can1 521#0000000000000022
(1612345130.064924) can0 3F0#0000000000000000
(1612345130.064924) can0 360#0000000000240007
(1612345130.073238) can0 380#80727E03E8FFFF7D
(1612345130.073239) can0 38A#000000000000000D
(1612345130.073240) can0 38C#00000000404C7AAD
(1612345130.073240) can0 39E#05817F0000000000
(1612345130.081238) can0 350#01FFB00700007F00
(1612345130.081239) can0 360#0000000000240016
(1612345130.081240) can0 380#80727E03EDFFFF7D
(1612345130.081241) can0 354#50CD000000000000
(1612345130.089230) can0 3C0#000008527FFF4401
(1612345130.089231) can0 3CA#800180010CB78043
(1612345130.089232) can0 39A#20FB000B1C000000
(1612345130.089232) can0 316#81500AF07A1E0200
(1612345130.097227) can0 329#004500000000218C
(1612345130.097229) can0 335#0000000000000000
(1612345130.097229) can0 33A#0006000000000000
(1612345130.097230) can0 3F0#0000000000000000
