(1612344960.949347) can0 335#0000000000000000
(1612344960.949352) can0 33A#0006000000000000
(1612344960.949356) can0 340#0004000000000000
(1612344960.949360) can1 519#0000000000000000
(1612344960.957345) can0 650#A000000000000000
(1612344960.957351) can0 316#81500AF07A370200
(1612344960.957355) can0 3A0#418001000000000F
(1612344960.957374) can0 401#00007F0620000000
(1612344960.965336) can1 461#07F86B013EC00000
(1612344960.965340) can1 46A#6371FF00FF4E153A
(1612344960.965343) can1 521#0000000000000022
(1612344960.965347) can0 350#01FFAFFB00007F00
(1612344960.973411) can0 360#00000000002400AD
(1612344960.973416) can0 380#80737E03E8FFFF7D
(1612344960.973420) can0 38A#00000000000000A3
(1612344960.973426) can0 39E#05817F0000000000
(1612344960.981466) can0 3BA#0000000000000000
(1612344960.981472) can0 350#01FFAFEF00007F00
(1612344960.981476) can0 360#00000000002400BC
(1612344960.981480) can0 329#004500000000218C
(1612344960.989468) can0 335#0000000000000000
(1612344960.989474) can0 33A#0006000000000000
(1612344960.989477) can0 340#0004000000000000
(1612344960.989482) can0 52E#6D00301000000000
(1612344960.997600) can0 52F#000000FD0051001A
(1612344960.997606) can0 410#0800080000000000
(1612344960.997610) can0 316#81500AF07A370200
(1612344960.997615) can1 600#0400000000000000
(1612344961.005554) can1 601#000A006A00000000
(1612344961.005559) can0 39A#20FB000B58000000
(1612344961.005563) can0 316#81500AF07A370200
(1612344961.005568) can1 39F#00040004000000E0
(1612344961.013612) can0 3C5#96D0000000000000
(1612344961.013618) can1 405#00040120FB8003E8
(1612344961.013622) can0 3C9#FFFFFFFFFFFFFFFF
(1612344961.013625) can0 39E#05817F0000000000
(1612344961.021612) can0 3BA#0000000000000000
(1612344961.021617) can0 350#01FFAFEF00007F00
(1612344961.021621) can0 360#00000000002400F8
(1612344961.021627) can0 329#004500000000218C
(1612344961.029604) can0 335#0000000000000000
(1612344961.029609) can0 33A#0006000000000000
(1612344961.029613) can0 340#0004000000000000
(1612344961.029616) can0 462#07F8600000000000
(1612344961.037454) can0 466#0815003400000000
(1612344961.037459) can0 46B#6371000000001500
(1612344961.037463) can0 481#0000000000000000
(1612344961.037469) can1 600#0400000000000000
(1612344961.045398) can1 601#000A006A00000000
(1612344961.045404) can0 39A#20FB000B94000000
(1612344961.045407) can0 316#81500AF07A370200
(1612344961.045412) can0 350#01FFAFFB00007F00
(1612344961.053614) can0 360#0000000000240025
(1612344961.053619) can0 380#80737E03E8FFFF7D
(1612344961.053624) can0 38A#000000000000002B
(1612344961.053629) can0 3CA#800480040CCD8043
(1612344961.061618) can0 39E#05817F0000000000
(1612344961.061623) can1 38A#0000000000000000
(1612344961.061627) can1 396#0004000400000010
(1612344961.061631) can0 329#004500000000218C
(1612344961.069616) can0 335#0000000000000000
(1612344961.069621) can0 33A#0006000000000000
(1612344961.069625) can0 340#0004000000000000
(1612344961.069630) can0 316#81500AF07A370200
(1612344961.077596) can0 3A0#418001000000003C
(1612344961.077601) can0 329#004500000000218C
(1612344961.077605) can0 335#0000000000000000
(1612344961.077609) can1 600#0400000000000000
(1612344961.085622) can1 601#000A006A00000000
(1612344961.085627) can0 39A#20FB000BD0000000
(1612344961.085631) can0 316#81500AF07A370200
(1612344961.085636) can0 350#01FFAFFB00007F00
(1612344961.093602) can0 360#0000000000240061
(1612344961.093607) can0 380#80727E03E8FFFF7D
(1612344961.093611) can0 38A#0000000000000067
(1612344961.093615) can0 517#0000005C05040000
(1612344961.101582) can0 39E#05817F0000000000
(1612344961.101587) can0 3BA#0000000000000000
(1612344961.101591) can0 350#01FFAFEF00007F00
(1612344961.101596) can0 329#004500000000218C
(1612344961.109594) can0 335#0000000000000000
(1612344961.109599) can0 33A#0006000000000000
(1612344961.109603) can0 340#0004000000000000
(1612344961.109607) can1 44F#4000000000000500
(1612344961.117608) can1 465#000AF00000000010
(1612344961.117613) can1 53D#000010000010B200
(1612344961.117617) can1 53E#0000003F006700C9
(1612344961.117622) can1 600#0400000000000000
(1612344961.125461) can1 601#000A006A00000000
(1612344961.125466) can0 39A#20FB000B1C000000
(1612344961.125470) can0 316#81500AF07A370200
(1612344961.125474) can0 46B#6371000000001500
(1612344961.133451) can0 519#0000000000000000
(1612344961.133459) can0 350#01FFAFFB00007F00
(1612344961.133462) can0 360#00000000002400AD
(1612344961.133466) can0 39E#05817F0000000000
(1612344961.141364) can0 3BA#0000000000000000
(1612344961.141370) can0 350#01FFAFEF00007F00
(1612344961.141374) can0 360#00000000002400BC
(1612344961.141378) can0 329#004500000000218C
(1612344961.149620) can0 335#0000000000000000
(1612344961.149625) can0 33A#0006000000000000
(1612344961.149629) can0 340#0004000000000000
(1612344961.149635) can1 519#0000000000000000
(1612344961.157367) can0 650#A000000000000000
(1612344961.157372) can0 316#81500AF07A1E0200
(1612344961.157377) can0 3A0#418001000000005A
(1612344961.157381) can1 461#07F86B013EC00000
(1612344961.165607) can1 46A#6371FF00FF4E153A
(1612344961.165612) can1 521#0000000000000022
(1612344961.165617) can0 39A#20FB000B58000000
(1612344961.165620) can0 350#01FFAFFB00007F00
(1612344961.173619) can0 360#00000000002400E9
(1612344961.173624) can0 380#80727E03E8FFFF7D
(1612344961.173628) can0 38A#00000000000000EF
(1612344961.173632) can0 39E#05817F0000000000
(1612344961.181558) can0 3BA#0000000000000000
(1612344961.181563) can0 350#01FFAFEF00007F00
(1612344961.181568) can0 360#00000000002400F8
(1612344961.181573) can0 329#004500000000218C
(1612344961.189614) can0 335#0000000000000000
(1612344961.189619) can0 33A#0006000000000000
(1612344961.189623) can0 340#0004000000000000
(1612344961.189627) can0 52E#6D00301000000000
(1612344961.197637) can0 52F#000000FD0051001A
(1612344961.197643) can0 410#0800080000000000
(1612344961.197647) can0 3A0#4180010000000069
(1612344961.197652) can1 600#0400000000000000
(1612344961.205467) can1 601#000A006A00000000
(1612344961.205473) can0 39A#20FB000B94000000
(1612344961.205477) can0 316#81500AF07A1E0200
(1612344961.205481) can1 39F#0004000400000080
(1612344961.213636) can1 405#00040120FB8003E8
(1612344961.213641) can1 494#0000000000000000
(1612344961.213645) can1 55C#0000000000000000
(1612344961.213650) can0 39E#05817F0000000000
(1612344961.221629) can0 3BA#0000000000000000
(1612344961.221635) can0 350#01FFAFEF00007F00
(1612344961.221638) can0 360#0000000000240034
(1612344961.221642) can0 329#004500000000218C
(1612344961.229638) can0 335#0000000000000000
(1612344961.229643) can0 33A#0006000000000000
(1612344961.229647) can0 340#0004000000000000
(1612344961.229651) can0 462#07F8600000000000
(1612344961.237632) can0 466#0815003400000000
(1612344961.237638) can0 46B#6371000000001500
(1612344961.237641) can0 481#0000000000000000
(1612344961.237645) can0 38A#0000000000000058
(1612344961.245593) can1 600#0400000000000000
(1612344961.245598) can1 601#000A006A00000000
(1612344961.245602) can0 39A#20FB000BD0000000
(1612344961.245606) can0 350#01FFAFFB00007F00
(1612344961.253624) can0 360#0000000000240061
(1612344961.253644) can0 380#80737E03E8FFFF7D
(1612344961.253648) can0 38A#0000000000000067
(1612344961.253653) can1 4F1#0000000000000000
(1612344961.261632) can0 3CA#800480040CD28043
(1612344961.261637) can0 39E#05817F0000000000
(1612344961.261642) can1 38A#0000000000000000
(1612344961.261646) can0 329#004500000000218C
(1612344961.269618) can0 335#0000000000000000
(1612344961.269623) can0 33A#0006000000000000
(1612344961.269627) can0 340#0004000000000000
(1612344961.269632) can0 316#81500AF07A380200
(1612344961.277612) can0 3A0#4180010000000087
(1612344961.277618) can0 329#004500000000218C
(1612344961.277621) can0 335#0000000000000000
(1612344961.277626) can1 600#0400000000000000
(1612344961.285633) can1 601#000A006A00000000
(1612344961.285639) can0 39A#20FB000B1C000000
(1612344961.285642) can0 316#81500AF07A380200
(1612344961.285648) can0 52C#00562000FE00A100
(1612344961.293644) can0 350#01FFAFFB00007F00
(1612344961.293650) can0 360#00000000002400AD
(1612344961.293654) can0 380#80727E03E8FFFF7D
(1612344961.293657) can0 517#0000005C05040000
(1612344961.301383) can0 39E#05817F0000000000
(1612344961.301388) can0 3BA#0000000000000000
(1612344961.301391) can0 350#01FFAFEF00007F00
(1612344961.301396) can0 329#004500000000218C
(1612344961.309384) can0 335#0000000000000000
(1612344961.309390) can0 33A#0006000000000000
(1612344961.309394) can0 340#0004000000000000
(1612344961.309398) can1 44F#4000000000000500
(1612344961.317376) can1 465#000AF00000000010
(1612344961.317381) can1 53A#00000802C15C8043
(1612344961.317386) can1 53B#0000000000000802
(1612344961.317390) can1 457#01FF01FF01FF01FF
(1612344961.325374) can1 72C#0006000000000000
(1612344961.325379) can1 72F#0006000000000000
(1612344961.325383) can1 600#0400000000000000
(1612344961.325388) can0 46B#6371000000001500
(1612344961.333359) can0 519#0000000000000000
(1612344961.333362) can0 350#01FFAFFB00007F00
(1612344961.333365) can0 360#00000000002400E9
(1612344961.333367) can0 39E#05817F0000000000
(1612344961.341358) can0 3BA#0000000000000000
(1612344961.341359) can0 350#01FFAFEF00007F00
(1612344961.341362) can0 360#00000000002400F8
(1612344961.341363) can0 329#004500000000218C
(1612344961.349353) can0 335#0000000000000000
(1612344961.349354) can0 33A#0006000000000000
(1612344961.349355) can0 340#0004000000000000
(1612344961.349357) can1 519#0000000000000000
(1612344961.357353) can0 650#A000000000000000
(1612344961.357354) can0 316#81500AF07A370200
(1612344961.357354) can0 3A0#41800100000000A5
(1612344961.357355) can0 38A#000000000000001C
(1612344961.365396) can1 461#07F86B013EC00000
(1612344961.365398) can1 46A#6371FF00FF4E153A
(1612344961.365398) can1 521#0000000000000022
(1612344961.365399) can0 350#01FFAFFB00007F00
(1612344961.373417) can0 360#0000000000240025
(1612344961.373418) can0 380#80727E03E8FFFF7D
(1612344961.373419) can0 38A#000000000000002B
(1612344961.373420) can0 3BA#0000000000000000
(1612344961.381727) can0 39E#05817F0000000000
(1612344961.381728) can0 350#01FFAFEF00007F00
(1612344961.381729) can0 360#0000000000240034
(1612344961.381729) can0 329#004500000000218C
(1612344961.389697) can0 335#0000000000000000
(1612344961.389698) can0 33A#0006000000000000
(1612344961.389698) can0 340#0004000000000000
(1612344961.389699) can0 52E#6D00301000000000
(1612344961.397709) can0 52F#000000FD0051001A
(1612344961.397710) can0 410#0800080000000000
(1612344961.397714) can0 3A0#41800100000000B4
(1612344961.397715) can0 38A#0000000000000058
(1612344961.405420) can1 600#0400000000000000
(1612344961.405421) can1 601#000A006A00000000
(1612344961.405427) can0 39A#20FB000BD0000000
(1612344961.405428) can1 39F#0004000400000020
(1612344961.413439) can1 405#00040120FB8003E8
(1612344961.413441) can1 494#0000000000000000
(1612344961.413442) can1 55C#0000000000000000
(1612344961.413444) can0 39E#05817F0000000000
(1612344961.421473) can0 3BA#0000000000000000
(1612344961.421475) can0 350#01FFAFEF00007F00
(1612344961.421477) can0 360#0000000000240070
(1612344961.421478) can0 329#004500000000218C
(1612344961.429626) can0 335#0000000000000000
(1612344961.429630) can0 33A#0006000000000000
(1612344961.429633) can0 340#0004000000000000
(1612344961.429637) can0 462#07F8600000000000
(1612344961.437416) can0 466#0815003400000000
(1612344961.437421) can0 46B#6371000000001500
(1612344961.437425) can0 481#0000000000000000
(1612344961.437430) can0 380#80737E03E8FFFF7D
(1612344961.445629) can0 38A#0000000000000094
(1612344961.445635) can0 5D3#0000000000000000
(1612344961.445639) can1 600#0400000000000000
(1612344961.445645) can0 350#01FFAFFB00007F00
(1612344961.453582) can0 360#00000000002400AD
(1612344961.453587) can0 380#80727E03E8FFFF7D
(1612344961.453591) can0 38A#00000000000000A3
(1612344961.453595) can0 3CA#800480040CBE8043
(1612344961.461643) can0 401#00007F0620000000
(1612344961.461649) can0 3BA#0000000000000000
(1612344961.461653) can0 39E#05817F0000000000
(1612344961.461658) can0 329#004500000000218C
(1612344961.469641) can0 335#0000000000000000
(1612344961.469646) can0 33A#0006000000000000
(1612344961.469650) can0 340#0004000000000000
(1612344961.469654) can0 3A0#41800100000000D2
(1612344961.477627) can0 316#81500AF07A370200
(1612344961.477632) can0 329#004500000000218C
(1612344961.477635) can0 335#0000000000000000
(1612344961.477640) can0 38A#00000000000000D0
(1612344961.485621) can1 600#0400000000000000
(1612344961.485626) can1 601#000A006A00000000
(1612344961.485631) can0 39A#20FB000B58000000
(1612344961.485635) can0 52C#00562000FE00A100
(1612344961.493635) can0 350#01FFAFFB00007F00
(1612344961.493640) can0 360#00000000002400E9
(1612344961.493644) can0 380#80727E03E8FFFF7D
(1612344961.493649) can0 517#0000005C05040000
(1612344961.563928) can0 3BA#0000000000000000
(1612344961.563936) can0 39E#05817F0000000000
(1612344961.563940) can0 350#01FFAFEF00007F00
(1612344961.563944) can0 329#004500000000218C
(1612344961.569397) can0 335#0000000000000000
(1612344961.569400) can0 33A#0006000000000000
(1612344961.569402) can0 340#0004000000000000
(1612344961.569405) can1 44F#4000000000000500
(1612344961.577445) can1 465#000AF00000000010
(1612344961.577448) can1 53D#000010000010B200
(1612344961.577450) can1 53E#0000003F006700C9
(1612344961.577452) can0 38A#000000000000001C
(1612344961.585385) can1 600#0400000000000000
(1612344961.585387) can1 601#000A006A00000000
(1612344961.585388) can0 39A#20FB000B94000000
(1612344961.585389) can0 46B#6371000000001500
(1612344961.593654) can0 519#0000000000000000
(1612344961.593655) can0 350#01FFAFFB00007F00
(1612344961.593656) can0 360#0000000000240025
(1612344961.593657) can0 3BA#0000000000000000
(1612344961.601633) can0 39E#05817F0000000000
(1612344961.601635) can0 350#01FFAFEF00007F00
(1612344961.601635) can0 360#0000000000240034
(1612344961.601641) can0 329#004500000000218C
(1612344961.609635) can0 335#0000000000000000
(1612344961.609637) can0 33A#0006000000000000
(1612344961.609638) can0 340#0004000000000000
(1612344961.609639) can1 519#0000000000000000
(1612344961.617650) can0 3A0#41800100000000F0
(1612344961.617652) can0 650#A000000000000000
(1612344961.617653) can0 316#81500AF07A380200
(1612344961.617654) can0 38A#0000000000000058
(1612344961.625639) can1 461#07F86B013EC00000
(1612344961.625641) can1 46A#6371FF00FF4E153A
(1612344961.625642) can1 521#0000000000000022
(1612344961.625644) can0 350#01FFAFFB00007F00
(1612344961.633641) can0 360#0000000000240061
(1612344961.633644) can0 380#80737E03E3FFFF7D
(1612344961.633645) can0 38A#0000000000000067
(1612344961.633648) can0 3BA#0000000000000000
(1612344961.641584) can0 39E#05817F0000000000
(1612344961.641586) can0 350#01FFAFEF00007F00
(1612344961.641588) can0 360#0000000000240070
(1612344961.641590) can0 329#004500000000218C
(1612344961.649622) can0 335#0000000000000000
(1612344961.649624) can0 33A#0006000000000000
(1612344961.649626) can0 340#0004000000000000
(1612344961.649629) can0 52E#6D00301000000000
(1612344961.657484) can0 52F#000000FD0051001A
(1612344961.657490) can0 410#0800080000000000
(1612344961.657494) can0 3A0#418001000000000F
(1612344961.657497) can0 38A#0000000000000094
(1612344961.665422) can1 600#0400000000000000
(1612344961.665427) can1 601#000A006A00000000
(1612344961.665432) can0 39A#20FB000B1C000000
(1612344961.665437) can1 39F#00040004000000C0
(1612344961.673432) can1 405#00040120FB8003E3
(1612344961.673437) can1 494#0000000000000000
(1612344961.673441) can1 55C#0000000000000000
(1612344961.673446) can0 3BA#0000000000000000
(1612344961.681632) can0 39E#05817F0000000000
(1612344961.681637) can0 350#01FFAFEF00007F00
(1612344961.681641) can0 360#00000000002400BC
(1612344961.681645) can0 329#004500000000218C
(1612344961.689478) can0 335#0000000000000000
(1612344961.689483) can0 33A#0006000000000000
(1612344961.689488) can0 340#0004000000000000
(1612344961.689493) can0 462#07F8600000000000
(1612344961.697645) can0 466#0815003400000000
(1612344961.697650) can0 46B#6371000000001500
(1612344961.697654) can0 481#0000000000000000
(1612344961.697658) can0 38A#00000000000000D0
(1612344961.705631) can1 600#0400000000000000
(1612344961.705634) can1 601#000A006A00000000
(1612344961.705638) can0 39A#20FB000B58000000
(1612344961.705642) can0 350#01FFAFFB00007F00
(1612344961.713640) can0 360#00000000002400E9
(1612344961.713645) can0 380#80727E03E8FFFF7D
(1612344961.713648) can0 38A#00000000000000EF
(1612344961.713651) can0 3C0#000008027FFF4401
(1612344961.721632) can0 3CA#800480040CB08043
(1612344961.721636) can0 3BA#0000000000000000
(1612344961.721639) can0 3C5#96D0000000000000
(1612344961.721643) can0 329#004500000000218C
(1612344961.729631) can0 335#0000000000000000
(1612344961.729635) can0 33A#0006000000000000
(1612344961.729638) can0 340#0004000000000000
(1612344961.729641) can0 3A0#418001000000002D
(1612344961.737629) can0 316#81500AF07A370200
(1612344961.737633) can0 329#004500000000218C
(1612344961.737636) can0 335#0000000000000000
(1612344961.737640) can0 38A#000000000000001C
(1612344961.745665) can1 600#0400000000000000
(1612344961.745669) can1 601#000A006A00000000
(1612344961.745672) can0 39A#20FB000B94000000
(1612344961.745675) can0 52C#00562000FE00A100
(1612344961.753635) can0 350#01FFAFFB00007F00
(1612344961.753639) can0 360#0000000000240025
(1612344961.753642) can0 380#80737E03E8FFFF7D
(1612344961.753647) can0 517#0000005C05040000
(1612344961.761640) can0 3BA#0000000000000000
(1612344961.761645) can0 39E#05817F0000000000
(1612344961.761649) can0 350#01FFAFEF00007F00
(1612344961.761653) can0 329#004500000000218C
(1612344961.769640) can0 335#0000000000000000
(1612344961.769646) can0 33A#0006000000000000
(1612344961.769650) can0 340#0004000000000000
(1612344961.769655) can1 44F#4000000000000500
(1612344961.777628) can1 465#000AF00000000010
(1612344961.777633) can1 53D#000010000010B200
(1612344961.777637) can1 53E#0000003F006700C9
(1612344961.777641) can0 38A#0000000000000058
(1612344961.785644) can1 600#0400000000000000
(1612344961.785649) can1 601#000A006A00000000
(1612344961.785654) can0 39A#20FB000BD0000000
(1612344961.785657) can0 46B#6371000000001500
(1612344961.793628) can0 519#0000000000000000
(1612344961.793634) can0 350#01FFAFFB00007F00
(1612344961.793638) can0 360#0000000000240061
(1612344961.793641) can0 3BA#0000000000000000
(1612344961.801622) can0 39E#05817F0000000000
(1612344961.801627) can0 350#01FFAFEF00007F00
(1612344961.801631) can0 360#0000000000240070
(1612344961.801636) can0 329#004500000000218C
(1612344961.809628) can0 335#0000000000000000
(1612344961.809634) can0 33A#0006000000000000
(1612344961.809637) can0 340#0004000000000000
(1612344961.809642) can1 4E6#6CB0270059604E00
(1612344961.817447) can1 519#0000000000000000
(1612344961.817453) can0 3A0#418001000000004B
(1612344961.817457) can0 650#A000000000000000
(1612344961.817462) can0 38A#0000000000000094
(1612344961.825445) can1 461#07F86B013EC00000
(1612344961.825450) can1 46A#6371FF00FF4E153A
(1612344961.825454) can1 521#0000000000000022
(1612344961.825459) can0 350#01FFAFFB00007F00
(1612344961.833430) can0 360#00000000002400AD
(1612344961.833435) can0 380#80737E03E8FFFF7D
(1612344961.833439) can0 38A#00000000000000A3
(1612344961.833443) can0 3BA#0000000000000000
(1612344961.841438) can0 39E#05817F0000000000
(1612344961.841443) can0 350#01FFAFEF00007F00
(1612344961.841447) can0 360#00000000002400BC
(1612344961.841451) can0 329#004500000000218C
(1612344961.849440) can0 335#0000000000000000
(1612344961.849445) can0 33A#0006000000000000
(1612344961.849448) can0 340#0004000000000000
(1612344961.849453) can0 52E#6D00301000000000
(1612344961.857433) can0 52F#000000FD0051001A
(1612344961.857438) can0 410#0800080000000000
(1612344961.857442) can0 3A0#418001000000005A
(1612344961.857446) can0 380#80737E03EDFFFF7D
(1612344961.865437) can0 38A#00000000000000D0
(1612344961.865442) can1 600#0400000000000000
(1612344961.865447) can1 601#000A006A00000000
(1612344961.865451) can1 39F#0004000400000060
(1612344961.873432) can1 405#00040120FB8003ED
(1612344961.873438) can1 408#00FF000000000000
(1612344961.873442) can1 40A#0000060000000001
(1612344961.873446) can0 3BA#0000000000000000
(1612344961.881436) can0 39E#05817F0000000000
(1612344961.881441) can0 350#01FFAFEF00007F00
(1612344961.881445) can0 360#00000000002400F8
(1612344961.881450) can0 329#004500000000218C
(1612344961.889456) can0 335#0000000000000000
(1612344961.889458) can0 33A#0006000000000000
(1612344961.889460) can0 340#0004000000000000
(1612344961.889461) can0 462#07F8600000000000
(1612344961.897415) can0 466#0815003400000000
(1612344961.897420) can0 46B#6371000000001500
(1612344961.897421) can0 481#0000000000000000
(1612344961.897422) can0 38A#000000000000001C
(1612344961.905444) can0 71A#0006000000000000
(1612344961.905445) can1 600#0400000000000000
(1612344961.905446) can1 601#000A006A00000000
(1612344961.905446) can0 702#0006000000000000
(1612344961.913419) can0 70E#0006000000000000
(1612344961.913421) can0 70F#0006000000000000
(1612344961.913422) can0 401#00007F0620000000
(1612344961.913423) can0 708#0006000000000000
(1612344961.921589) can0 3BA#0000000000000000
(1612344961.921590) can0 3C5#96D0000000000000
(1612344961.921591) can0 3C9#FFFFFFFFFFFFFFFF
(1612344961.921591) can0 329#004500000000218C
(1612344961.929419) can0 335#0000000000000000
(1612344961.929420) can0 33A#0006000000000000
(1612344961.929421) can0 340#0004000000000000
(1612344961.929422) can0 3A0#4180010000000078
(1612344961.937574) can0 316#81500AF07A1E0200
(1612344961.937575) can0 329#004500000000218C
(1612344961.937576) can0 335#0000000000000000
(1612344961.937577) can0 38A#0000000000000058
(1612344961.945720) can1 600#0400000000000000
(1612344961.945721) can1 601#000A006A00000000
(1612344961.945722) can0 39A#20FB000BD0000000
(1612344961.945723) can0 52C#00562000FE00A100
(1612344961.953458) can0 52D#510000003E560000
(1612344961.953459) can0 350#01FFAFFB00007F00
(1612344961.953460) can0 360#0000000000240061
(1612344961.953461) can0 517#0000005C05040000
(1612344961.961606) can0 3BA#0000000000000000
(1612344961.961607) can0 39E#05817F0000000000
(1612344961.961608) can0 350#01FFAFEF00007F00
(1612344961.961610) can0 329#004500000000218C
(1612344961.969452) can0 335#0000000000000000
(1612344961.969454) can0 33A#0006000000000000
(1612344961.969456) can0 340#0004000000000000
(1612344961.969458) can1 44F#4000000000000500
(1612344961.977608) can1 465#000AF00000000010
(1612344961.977611) can1 53D#000010000010B200
(1612344961.977613) can1 53E#0000003F006700C9
(1612344961.977616) can0 38A#0000000000000094
(1612344961.985639) can1 457#01FF01FF01FF01FF
(1612344961.985644) can1 600#0400000000000000
(1612344961.985648) can1 601#000A006A00000000
(1612344961.985652) can0 46B#6371000000001500
(1612344961.993654) can0 519#0000000000000000
(1612344961.993659) can0 350#01FFAFFB00007F00
(1612344961.993663) can0 360#00000000002400AD
(1612344961.993667) can0 3BA#0000000000000000
(1612344962.001478) can0 39E#05817F0000000000
(1612344962.001483) can0 350#01FFAFEF00007F00
(1612344962.001487) can0 360#00000000002400BC
(1612344962.001491) can0 329#004500000000218C
(1612344962.009621) can0 335#0000000000000000
(1612344962.009627) can0 33A#0006000000000000
(1612344962.009630) can0 340#0004000000000000
(1612344962.009635) can1 519#0000000000000000
(1612344962.017482) can0 3A0#4180010000000096
(1612344962.017488) can0 401#00007F0620000000
(1612344962.017492) can0 650#A000000000000000
(1612344962.017496) can0 38A#00000000000000D0
(1612344962.025633) can1 461#07F86B013EC00000
(1612344962.025638) can1 46A#6371FF00FF4E153A
(1612344962.025643) can1 521#0000000000000022
(1612344962.025647) can0 350#01FFAFFB00007F00
(1612344962.033644) can0 360#00000000002400E9
(1612344962.033650) can0 380#80737E03E8FFFF7D
(1612344962.033654) can0 38A#00000000000000EF
(1612344962.033658) can0 3BA#0000000000000000
(1612344962.041626) can0 39E#05817F0000000000
(1612344962.041631) can0 350#01FFAFEF00007F00
(1612344962.041649) can0 360#00000000002400F8
(1612344962.041653) can0 329#004500000000218C
(1612344962.049644) can0 335#0000000000000000
(1612344962.049649) can0 33A#0006000000000000
(1612344962.049653) can0 340#0004000000000000
(1612344962.049657) can0 52E#6D00301000000000
(1612344962.057507) can0 52F#000000FD0051001A
(1612344962.057511) can0 410#0800080000000000
(1612344962.057514) can0 3A0#41800100000000A5
(1612344962.057517) can0 38A#000000000000001C
(1612344962.065459) can1 600#0400000000000000
(1612344962.065464) can1 601#000A006A00000000
(1612344962.065469) can0 39A#20FB000B94000000
(1612344962.065473) can1 39F#0004000400000000
(1612344962.073469) can1 405#00040120FB8003E8
(1612344962.073474) can1 494#0000000000000000
(1612344962.073476) can1 55C#0000000000000000
(1612344962.073481) can0 3BA#0000000000000000
(1612344962.081457) can0 39E#05817F0000000000
(1612344962.081462) can0 350#01FFAFEF00007F00
(1612344962.081465) can0 360#0000000000240034
(1612344962.081468) can0 329#004500000000218C
(1612344962.089501) can0 335#0000000000000000
(1612344962.089505) can0 33A#0006000000000000
(1612344962.089508) can0 340#0004000000000000
(1612344962.089511) can0 462#07F8600000000000
(1612344962.097637) can0 466#0815003400000000
(1612344962.097642) can0 46B#6371000000001500
(1612344962.097646) can0 481#0000000000000000
(1612344962.097650) can0 380#80737E03E8FFFF7D
(1612344962.105629) can0 38A#0000000000000058
(1612344962.105635) can1 600#0400000000000000
(1612344962.105639) can1 601#000A006A00000000
(1612344962.105643) can0 350#01FFAFFB00007F00
(1612344962.113636) can0 360#0000000000240061
(1612344962.113642) can0 380#80727E03E8FFFF7D
(1612344962.113646) can0 38A#0000000000000067
(1612344962.113651) can0 3BA#0000000000000000
(1612344962.121648) can0 3C5#96D0000000000000
(1612344962.121653) can0 3C9#FFFFFFFFFFFFFFFF
(1612344962.121657) can0 3CA#800180010CDE8043
(1612344962.121661) can0 329#004500000000218C
(1612344962.129597) can0 335#0000000000000000
(1612344962.129602) can0 33A#0006000000000000
(1612344962.129606) can0 340#0004000000000000
(1612344962.129611) can0 3A0#41800100000000C3
(1612344962.137631) can0 316#81500AF07A1F0200
(1612344962.137636) can0 329#004500000000218C
(1612344962.137640) can0 335#0000000000000000
(1612344962.137644) can0 380#80727E03E8FFFF7D
(1612344962.145648) can0 38A#0000000000000094
(1612344962.145654) can1 600#0400000000000000
(1612344962.145659) can1 601#000A006A00000000
(1612344962.145662) can0 52C#00562000FE00A100
(1612344962.153628) can0 52D#510000003E560000
(1612344962.153633) can0 350#01FFAFFB00007F00
(1612344962.153637) can0 360#00000000002400AD
(1612344962.153641) can0 3BA#0000000000000000
(1612344962.161633) can0 517#0000005C05040000
(1612344962.161639) can0 39E#05817F0000000000
(1612344962.161643) can0 350#01FFAFEF00007F00
(1612344962.161646) can0 329#004500000000218C
(1612344962.169467) can0 335#0000000000000000
(1612344962.169473) can0 33A#0006000000000000
(1612344962.169477) can0 340#0004000000000000
(1612344962.169482) can1 44F#4000000000000500
(1612344962.177466) can1 465#000AF00000000010
(1612344962.177472) can1 53D#000010000010B200
(1612344962.177476) can1 53E#0000003F006700C9
(1612344962.177480) can0 380#80737E03E8FFFF7D
(1612344962.185623) can0 38A#00000000000000D0
(1612344962.185629) can1 456#0FFF0FFF0FFF0FFF
(1612344962.185632) can1 457#01FF01FF01FF01FF
(1612344962.185650) can0 46B#6371000000001500
(1612344962.193637) can0 519#0000000000000000
(1612344962.193643) can0 350#01FFAFFB00007F00
(1612344962.193647) can0 360#00000000002400E9
(1612344962.193651) can0 3CA#800180010CC18043
(1612344962.201558) can0 39E#05817F0000000000
(1612344962.201564) can0 350#01FFAFEF00007F00
(1612344962.201568) can0 360#00000000002400F8
(1612344962.201571) can0 329#004500000000218C
(1612344962.209488) can0 335#0000000000000000
(1612344962.209491) can0 33A#0006000000000000
(1612344962.209494) can0 340#0004000000000000
(1612344962.209497) can0 401#00007F0620000000
(1612344962.217634) can1 519#0000000000000000
(1612344962.217640) can0 3A0#41800100000000E1
(1612344962.217644) can0 650#A000000000000000
(1612344962.217648) can0 380#80737E03E8FFFF7D
(1612344962.225624) can0 38A#000000000000001C
(1612344962.225630) can1 461#07F86B013EC00000
(1612344962.225634) can1 46A#6371FF00FF4E153A
(1612344962.225640) can0 350#01FFAFFB00007E00
(1612344962.233634) can0 360#0000000000240025
(1612344962.233640) can0 380#80727E03E8FFFF7D
(1612344962.233644) can0 38A#000000000000002B
(1612344962.233648) can0 3CA#800480040CC18043
(1612344962.241611) can0 39E#05817F0000000000
(1612344962.241617) can0 350#01FFAFEF00007E00
(1612344962.241621) can0 360#0000000000240034
(1612344962.241626) can0 329#004500000000218C
(1612344962.249631) can0 335#0000000000000000
(1612344962.249636) can0 33A#0006000000000000
(1612344962.249640) can0 340#0004000000000000
(1612344962.249644) can0 52E#6D00301000000000
(1612344962.257566) can0 52F#000000FD0051001A
(1612344962.257571) can0 410#0800080000000000
(1612344962.257575) can0 3A0#41800100000000F0
(1612344962.257581) can0 380#80727E03EDFFFF7D
(1612344962.265525) can0 38A#0000000000000058
(1612344962.265531) can1 600#0400000000000000
(1612344962.265535) can1 601#000A006A00000000
(1612344962.265539) can1 39F#00040004000000A0
(1612344962.273488) can1 405#00040120FB8003ED
(1612344962.273494) can1 494#0000000000000000
(1612344962.273498) can1 55C#0000000000000000
(1612344962.273504) can0 3CA#800480040CD48043
(1612344962.281631) can0 39E#05817F0000000000
(1612344962.281636) can0 350#01FFAFEF00007F00
(1612344962.281640) can0 360#0000000000240070
(1612344962.281644) can0 329#004500000000218C
(1612344962.289486) can0 335#0000000000000000
(1612344962.289490) can0 33A#0006000000000000
(1612344962.289493) can0 340#0004000000000000
(1612344962.289498) can0 462#07F8600000000000
(1612344962.297595) can0 466#0815003400000000
(1612344962.297600) can0 46B#6371000000001500
(1612344962.297604) can0 481#0000000000000000
(1612344962.297608) can0 360#000000000024009E
(1612344962.305481) can0 380#80737E03E8FFFF7D
(1612344962.305486) can0 38A#0000000000000094
(1612344962.305491) can1 600#0400000000000000
(1612344962.305496) can0 350#01FFAFFB00007F00
(1612344962.313475) can0 360#00000000002400AD
(1612344962.313479) can0 380#80737E03E8FFFF7D
(1612344962.313481) can0 38A#00000000000000A3
(1612344962.313485) can1 4F1#0000000000000000
(1612344962.321486) can0 3C0#000008027FFF4401
(1612344962.321491) can0 3C5#96D0000000000000
(1612344962.321495) can0 3C9#FFFFFFFFFFFFFFFF
(1612344962.321500) can0 329#004500000000218C
(1612344962.329486) can0 335#0000000000000000
(1612344962.329490) can0 33A#0006000000000000
(1612344962.329493) can0 340#0004000000000000
(1612344962.329496) can0 3A0#418001000000001E
(1612344962.337476) can0 316#81500AF07A370200
(1612344962.337481) can0 329#004500000000218C
(1612344962.337484) can0 335#0000000000000000
(1612344962.337488) can0 380#80727E03E8FFFF7D
(1612344962.345479) can0 38A#00000000000000D0
(1612344962.345484) can1 600#0400000000000000
(1612344962.345487) can1 601#000A006A00000000
(1612344962.345490) can0 52C#00562000FE00A100
(1612344962.353481) can0 52D#510000003E560000
(1612344962.353485) can0 350#01FFAFFB00007F00
(1612344962.353488) can0 360#00000000002400E9
(1612344962.353492) can0 3CA#800480040CC88043
(1612344962.361482) can0 517#0000005C05040000
(1612344962.361486) can0 39E#05817F0000000000
(1612344962.361489) can0 350#01FFAFEF00007F00
(1612344962.361492) can0 329#004500000000218C
(1612344962.369480) can0 335#0000000000000000
(1612344962.369484) can0 33A#0006000000000000
(1612344962.369487) can0 340#0004000000000000
(1612344962.369491) can1 44F#4000000000000500
(1612344962.377477) can1 465#000AF00000000010
(1612344962.377481) can1 53A#00000802C15C8043
(1612344962.377484) can0 3A0#418001000000002D
(1612344962.377487) can0 380#80727E03E8FFFF7D
(1612344962.385482) can1 455#3F3F3F3FFFFFFFFF
(1612344962.385488) can0 38A#000000000000001C
(1612344962.385492) can1 459#4100410041004100
(1612344962.385497) can0 46B#6371000000001500
(1612344962.393478) can0 519#0000000000000000
(1612344962.393482) can0 350#01FFAFFB00007F00
(1612344962.393485) can0 360#0000000000240025
(1612344962.393488) can0 3CA#800480040CAB8043
(1612344962.401473) can0 39E#05817F0000000000
(1612344962.401476) can0 350#01FFAFEF00007E00
(1612344962.401478) can0 360#0000000000240034
(1612344962.401480) can0 329#004500000000218C
(1612344962.409469) can0 335#0000000000000000
(1612344962.409471) can0 33A#0006000000000000
(1612344962.409472) can0 340#0004000000000000
(1612344962.409473) can1 519#0000000000000000
(1612344962.417468) can0 3A0#418001000000003C
(1612344962.417470) can0 650#A000000000000000
(1612344962.417471) can0 316#81500AF07A370200
(1612344962.417472) can0 380#80737E03E8FFFF7D
(1612344962.425468) can0 38A#0000000000000058
(1612344962.425470) can1 461#07F86B013EC00000
(1612344962.425471) can1 46A#6371FF00FF4E153A
(1612344962.425471) can0 350#01FFAFFB00007F00
(1612344962.433513) can0 360#0000000000240061
(1612344962.433514) can0 380#80737E03E8FFFF7D
(1612344962.433515) can0 38A#0000000000000067
(1612344962.433516) can0 3CA#800180010CAB8043
(1612344962.441610) can0 39E#05817F0000000000
(1612344962.441611) can0 350#01FFAFEF00007F00
(1612344962.441612) can0 360#0000000000240070
(1612344962.441613) can0 329#004500000000218C
(1612344962.449602) can0 335#0000000000000000
(1612344962.449603) can0 33A#0006000000000000
(1612344962.449604) can0 340#0004000000000000
(1612344962.449605) can0 52E#6D00301000000000
(1612344962.457472) can0 52F#000000FD0051001A
(1612344962.457473) can0 410#0800080000000000
(1612344962.457473) can0 3A0#418001000000004B
(1612344962.457474) can0 380#80737E03E8FFFF7D
(1612344962.465600) can0 38A#0000000000000094
(1612344962.465601) can1 600#0400000000000000
(1612344962.465602) can1 601#000A006A00000000
(1612344962.465603) can1 39F#0004000400000040
(1612344962.473600) can1 405#00040120FB8003E8
(1612344962.473601) can1 494#0000000000000000
(1612344962.473602) can1 55C#0000000000000000
(1612344962.473603) can0 3CA#800180010CD98043
(1612344962.481661) can0 39E#05817F0000000000
(1612344962.481674) can0 350#01FFAFEF00007F00
(1612344962.481675) can0 360#00000000002400BC
(1612344962.481676) can0 329#004500000000218C
(1612344962.489584) can0 335#0000000000000000
(1612344962.489585) can0 33A#0006000000000000
(1612344962.489586) can0 340#0004000000000000
(1612344962.489587) can0 462#07F8600000000000
(1612344962.497528) can0 466#0815003400000000
(1612344962.497529) can0 46B#6371000000001500
(1612344962.497530) can0 481#0000000000000000
(1612344962.497531) can0 360#00000000002400DA
(1612344962.505480) can0 380#80717E03E8FFFF7D
(1612344962.505482) can0 38A#00000000000000D0
(1612344962.505483) can1 600#0400000000000000
(1612344962.505484) can0 350#01FFAFFB00007F00
(1612344962.513488) can0 360#00000000002400E9
(1612344962.513489) can0 380#80727E03E8FFFF7D
(1612344962.513490) can0 38A#00000000000000EF
(1612344962.513491) can0 3C5#96D0000000000000
(1612344962.521486) can0 3C0#000008027FFF4401
(1612344962.521488) can0 3C9#FFFFFFFFFFFFFFFF
(1612344962.521490) can0 3CA#800480040CD98043
(1612344962.521491) can0 329#004500000000218C
(1612344962.529508) can0 335#0000000000000000
(1612344962.529515) can0 33A#0006000000000000
(1612344962.529518) can0 340#0004000000000000
(1612344962.529522) can0 3A0#4180010000000069
(1612344962.537502) can0 316#81500AF07A370200
(1612344962.537506) can0 329#004500000000218C
(1612344962.537509) can0 335#0000000000000000
(1612344962.537513) can0 360#0000000000240016
(1612344962.545506) can0 380#80727E03EDFFFF7D
(1612344962.545510) can0 38A#000000000000001C
(1612344962.545513) can1 600#0400000000000000
(1612344962.545516) can0 52C#00562000FE00A100
(1612344962.553502) can0 52D#510000003E560000
(1612344962.553506) can0 52E#6D00301000000000
(1612344962.553509) can0 350#01FFAFFB00007F00
(1612344962.553513) can0 3CA#800480040CCF8043
(1612344962.561531) can0 517#0000005C05040000
(1612344962.561534) can0 39E#05817F0000000000
(1612344962.561537) can0 350#01FFAFEF00007F00
(1612344962.561539) can0 329#004500000000218C
(1612344962.569559) can0 335#0000000000000000
(1612344962.569564) can0 33A#0006000000000000
(1612344962.569567) can0 340#0004000000000000
(1612344962.569571) can1 44F#4000000000000500
(1612344962.577709) can1 465#000AF00000000010
(1612344962.577712) can1 53D#000010000010B200
(1612344962.577716) can0 3A0#4180010000000078
(1612344962.577718) can1 445#FF000B0000040001
(1612344962.585571) can0 380#80727E03E8FFFF7D
(1612344962.585576) can0 38A#0000000000000058
(1612344962.585580) can1 455#3F3F3F3FFFFFFFFF
(1612344962.585584) can0 46B#6371000000001500
(1612344962.593534) can0 519#0000000000000000
(1612344962.593538) can0 350#01FFAFFB00007F00
(1612344962.593541) can0 360#0000000000240061
(1612344962.593543) can0 3CA#800480040CCF8043
(1612344962.601541) can0 39E#05817F0000000000
(1612344962.601544) can0 350#01FFAFEF00007F00
(1612344962.601547) can0 360#0000000000240070
(1612344962.601550) can0 329#004500000000218C
(1612344962.609597) can0 335#0000000000000000
(1612344962.609601) can0 33A#0006000000000000
(1612344962.609603) can0 340#0004000000000000
(1612344962.609605) can0 3A0#4180010000000087
(1612344962.617557) can1 519#0000000000000000
(1612344962.617563) can0 650#A000000000000000
(1612344962.617566) can0 316#81500AF07A370200
(1612344962.617570) can0 380#80737E03E8FFFF7D
(1612344962.625719) can0 38A#0000000000000094
(1612344962.625723) can1 461#07F86B013EC00000
(1612344962.625736) can1 46A#6371FF00FF4E153A
(1612344962.625739) can0 350#01FFAFFB00007F00
(1612344962.633571) can0 360#00000000002400AD
(1612344962.633575) can0 380#80737E03E8FFFF7D
(1612344962.633578) can0 38A#00000000000000A3
(1612344962.633582) can0 3CA#800480040CC38043
(1612344962.641568) can0 39E#05817F0000000000
(1612344962.641571) can0 350#01FFAFEF00007F00
(1612344962.641574) can0 360#00000000002400BC
(1612344962.641576) can0 329#004500000000218C
(1612344962.649542) can0 335#0000000000000000
(1612344962.649546) can0 33A#0006000000000000
(1612344962.649548) can0 340#0004000000000000
(1612344962.649551) can0 52E#6D00301000000000
(1612344962.657578) can0 52F#000000FD0051001A
(1612344962.657582) can0 410#0800080000000000
(1612344962.657584) can0 3A0#4180010000000096
(1612344962.657586) can0 380#80717E03E8FFFF7D
(1612344962.665544) can0 38A#00000000000000D0
(1612344962.665547) can1 600#0400000000000000
(1612344962.665550) can1 601#000A006A00000000
(1612344962.665553) can1 39F#00040004000000E0
(1612344962.673602) can1 405#00040120FB8003E8
(1612344962.673605) can1 494#0000000000000000
(1612344962.673608) can1 55C#0000000000000000
(1612344962.673613) can0 3CA#800480040CC68043
(1612344962.681511) can0 39E#05817F0000000000
(1612344962.681515) can0 350#01FFAFEF00007F00
(1612344962.681518) can0 360#00000000002400F8
(1612344962.681521) can0 329#004500000000218C
(1612344962.689551) can0 335#0000000000000000
(1612344962.689555) can0 33A#0006000000000000
(1612344962.689557) can0 340#0004000000000000
(1612344962.689559) can0 462#07F8600000000000
(1612344962.697634) can0 466#0815003400000000
(1612344962.697638) can0 46B#6371000000001500
(1612344962.697641) can0 3A0#41800100000000A5
(1612344962.697646) can0 360#0000000000240016
(1612344962.705523) can0 380#80727E03E8FFFF7D
(1612344962.705527) can0 38A#000000000000001C
(1612344962.705530) can1 600#0400000000000000
(1612344962.705532) can0 401#00007F0620000000
(1612344962.713652) can0 350#01FFAFFB00007F00
(1612344962.713656) can0 360#0000000000240025
(1612344962.713659) can0 380#80727E03E8FFFF7D
(1612344962.713663) can0 3C9#FFFFFFFFFFFFFFFF
(1612344962.721533) can0 354#50CD000000000000
(1612344962.721539) can0 3C0#000008027FFF4401
(1612344962.721544) can0 3CA#800180010CC68043
(1612344962.721548) can0 329#004500000000218C
(1612344962.729548) can0 335#0000000000000000
(1612344962.729552) can0 33A#0006000000000000
(1612344962.729555) can0 340#0004000000000000
(1612344962.729559) can0 3A0#41800100000000B4
(1612344962.737645) can0 316#81500AF07A1E0200
(1612344962.737650) can0 329#004500000000218C
(1612344962.737655) can0 335#0000000000000000
(1612344962.737658) can0 380#80727E03E8FFFF7D
(1612344962.745630) can0 38A#0000000000000058
(1612344962.745634) can1 600#0400000000000000
(1612344962.745637) can1 601#000A006A00000000
(1612344962.745640) can0 52C#00562000FE00A100
(1612344962.753542) can0 52D#510000003E560000
(1612344962.753547) can0 52E#6D00301000000000
(1612344962.753550) can0 350#01FFAFFB00007F00
(1612344962.753554) can0 3CA#800180010CD28043
(1612344962.761742) can0 517#0000005C05040000
(1612344962.761747) can0 39E#05817F0000000000
(1612344962.761750) can0 350#01FFAFEF00007F00
(1612344962.761753) can0 329#004500000000218C
(1612344962.769530) can0 335#0000000000000000
(1612344962.769536) can0 33A#0006000000000000
(1612344962.769540) can0 340#0004000000000000
(1612344962.769559) can1 44F#4000000000000500
(1612344962.777531) can1 465#000AF00000000010
(1612344962.777537) can0 3A0#41800100000000C3
(1612344962.777541) can1 53D#000010000010B200
(1612344962.777545) can0 360#000000000024009E
(1612344962.785527) can0 380#80737E03E8FFFF7D
(1612344962.785533) can1 445#FF000B0000040001
(1612344962.785537) can0 38A#0000000000000094
(1612344962.785541) can0 46B#6371000000001500
(1612344962.793530) can0 519#0000000000000000
(1612344962.793536) can0 350#01FFAFFB00007F00
(1612344962.793540) can0 360#00000000002400AD
(1612344962.793544) can0 3CA#800480040CD28043
(1612344962.801529) can0 39E#05817F0000000000
(1612344962.801534) can0 350#01FFAFEF00007F00
(1612344962.801538) can0 360#00000000002400BC
(1612344962.801542) can0 329#004500000000218C
(1612344962.809571) can0 335#0000000000000000
(1612344962.809575) can0 33A#0006000000000000
(1612344962.809578) can0 340#0004000000000000
(1612344962.809581) can0 3A0#41800100000000D2
(1612344962.817537) can1 4E6#6CB0270059604E00
(1612344962.817543) can1 519#0000000000000000
(1612344962.817546) can0 650#A000000000000000
(1612344962.817549) can0 360#00000000002400DA
(1612344962.825531) can0 380#80727E03E8FFFF7D
(1612344962.825535) can0 38A#00000000000000D0
(1612344962.825539) can1 461#07F86B013EC00000
(1612344962.825542) can0 350#01FFAFFB00007F00
(1612344962.833530) can0 360#00000000002400E9
(1612344962.833535) can0 380#80727E03E8FFFF7D
(1612344962.833538) can0 38A#00000000000000EF
(1612344962.833540) can0 3CA#800480040CBC8043
(1612344962.841540) can0 39E#05817F0000000000
(1612344962.841544) can0 350#01FFAFEF00007E00
(1612344962.841547) can0 360#00000000002400F8
(1612344962.841551) can0 329#004500000000218C
(1612344962.849533) can0 335#0000000000000000
(1612344962.849537) can0 33A#0006000000000000
(1612344962.849541) can0 340#0004000000000000
(1612344962.849544) can0 52E#6D00301000000000
(1612344962.857549) can0 52F#000000FD0051001A
(1612344962.857554) can0 410#0800080000000000
(1612344962.857556) can0 3A0#41800100000000E1
(1612344962.857560) can0 360#0000000000240016
(1612344962.865544) can0 380#80727E03E8FFFF7D
(1612344962.865550) can0 38A#000000000000001C
(1612344962.865555) can1 600#0400000000000000
(1612344962.865559) can1 39F#0004000400000080
(1612344962.873537) can1 405#00040120FB8003E8
(1612344962.873541) can1 408#00FF000000000000
(1612344962.873544) can1 40A#0000060000000001
(1612344962.873548) can0 3CA#800180010CBC8043
(1612344962.881538) can0 39E#05817F0000000000
(1612344962.881543) can0 350#01FFAFEF00007F00
(1612344962.881547) can0 360#0000000000240034
(1612344962.881551) can0 329#004500000000218C
(1612344962.889542) can0 335#0000000000000000
(1612344962.889544) can0 33A#0006000000000000
(1612344962.889546) can0 340#0004000000000000
(1612344962.889549) can0 462#07F8600000000000
(1612344962.897541) can0 466#0815003400000000
(1612344962.897543) can0 3A0#41800100000000F0
(1612344962.897544) can0 46B#6371000000001500
(1612344962.897546) can0 360#0000000000240052
(1612344962.905520) can0 380#80727E03E8FFFF7D
(1612344962.905521) can0 38A#0000000000000058
(1612344962.905522) can0 71A#0006000000000000
(1612344962.905523) can0 702#0006000000000000
(1612344962.913518) can0 70F#0006000000000000
(1612344962.913519) can0 650#A000000000000000
(1612344962.913520) can0 70B#0006000000000000
(1612344962.913520) can0 708#0006000000000000
(1612344962.921519) can0 39E#05817F0000000000
(1612344962.921520) can1 38A#0000000000000000
(1612344962.921520) can1 396#00040004000000B0
(1612344962.921521) can0 329#004500000000218C
(1612344962.929565) can0 335#0000000000000000
(1612344962.929566) can0 33A#0006000000000000
(1612344962.929568) can0 340#0004000000000000
(1612344962.929569) can0 3A0#418001000000000F
(1612344962.937541) can0 316#81500AF07A1E0200
(1612344962.937545) can0 329#004500000000218C
(1612344962.937548) can0 335#0000000000000000
(1612344962.937551) can0 360#000000000024009E
(1612344962.945568) can0 380#80727E03E8FFFF7D
(1612344962.945571) can0 38A#0000000000000094
(1612344962.945573) can1 600#0400000000000000
(1612344962.945575) can0 52C#00562000FE00A100
(1612344962.953602) can0 52D#510000003E560000
(1612344962.953605) can0 52E#6D00301000000000
(1612344962.953607) can0 350#01FFAFFB00007F00
(1612344962.953609) can0 3CA#800180010CBE804D
(1612344962.961592) can0 517#0000005C05040000
(1612344962.961595) can0 39E#05817F0000000000
(1612344962.961597) can0 350#01FFAFEF00007F00
(1612344962.961599) can0 329#004500000000218C
(1612344962.969537) can0 335#0000000000000000
(1612344962.969540) can0 3C5#96D0000000000000
(1612344962.969542) can0 33A#0006000000000000
(1612344962.969545) can1 44F#4000000000000500
(1612344962.977623) can0 3A0#418001000000001E
(1612344962.977627) can1 465#000AF00000000010
(1612344962.977629) can1 53D#000010000010B200
(1612344962.977632) can0 360#00000000002400DA
(1612344962.985638) can0 380#80727E03E8FFFF7D
(1612344962.985644) can0 38A#00000000000000D0
(1612344962.985648) can1 445#FF000B0000040001
(1612344962.985654) can0 46B#6371000000001500
(1612344962.993627) can0 519#0000000000000000
(1612344962.993633) can0 350#01FFAFFB00007F00
(1612344962.993637) can0 360#00000000002400E9
(1612344962.993641) can0 3CA#800480040CC1804D
(1612344963.001640) can0 39E#05817F0000000000
(1612344963.001644) can0 350#01FFAFEF00007F00
(1612344963.001647) can0 360#00000000002400F8
(1612344963.001651) can0 329#004500000000218C
(1612344963.009632) can0 335#0000000000000000
(1612344963.009636) can0 33A#0006000000000000
(1612344963.009639) can0 340#0004000000000000
(1612344963.009641) can0 3A0#418001000000002D
(1612344963.017634) can1 519#0000000000000000
(1612344963.017640) can0 650#A000000000000000
(1612344963.017644) can0 316#81500AF07A370200
(1612344963.017649) can0 360#0000000000240016
(1612344963.025630) can0 380#80727E03E8FFFF7D
(1612344963.025635) can0 38A#000000000000001C
(1612344963.025640) can1 461#07F86B013EC00000
(1612344963.025644) can0 350#01FFAFFB00007F00
(1612344963.033635) can0 360#0000000000240025
(1612344963.033640) can0 380#80727E03E8FFFF7D
(1612344963.033644) can0 38A#000000000000002B
(1612344963.033649) can0 3CA#800480040CBE804D
(1612344963.041631) can0 39E#05817F0000000000
(1612344963.041635) can0 350#01FFAFEF00007F00
(1612344963.041639) can0 360#0000000000240034
(1612344963.041643) can0 329#004500000000218C
(1612344963.049602) can0 335#0000000000000000
(1612344963.049606) can0 33A#0006000000000000
(1612344963.049609) can0 340#0004000000000000
(1612344963.049612) can0 39F#0004000400000023
(1612344963.057561) can0 52F#000000FD0051001A
(1612344963.057567) can0 3A0#418001000000003C
(1612344963.057571) can0 410#0800080000000000
(1612344963.057575) can0 360#0000000000240052
(1612344963.065643) can0 380#80727E03E8FFFF7D
(1612344963.065665) can0 38A#0000000000000058
(1612344963.065669) can1 600#0400000000000000
(1612344963.065673) can1 39F#0004000400000020
(1612344963.073622) can1 405#00040120FB8003E8
(1612344963.073628) can1 494#0000000000000000
(1612344963.073632) can1 55C#0000000000000000
(1612344963.073636) can0 3CA#800180010CBE8043
(1612344963.081635) can0 39E#05817F0000000000
(1612344963.081641) can0 350#01FFAFEF00007F00
(1612344963.081645) can0 360#0000000000240070
(1612344963.081650) can0 329#004500000000218C
(1612344963.089615) can0 335#0000000000000000
(1612344963.089620) can0 33A#0006000000000000
(1612344963.089624) can0 340#0004000000000000
(1612344963.089628) can0 39F#0004000400000041
(1612344963.097636) can0 3A0#418001000000004B
(1612344963.097640) can0 466#0815003400000000
(1612344963.097643) can0 46B#6371000000001500
(1612344963.097647) can0 350#01FFB00700007F00
(1612344963.105582) can0 360#000000000024009E
(1612344963.105586) can0 380#80737E03E8FFFF7D
(1612344963.105589) can0 38A#0000000000000094
(1612344963.105592) can0 350#01FFAFFB00007F00
(1612344963.113635) can0 360#00000000002400AD
(1612344963.113638) can0 380#80727E03E8FFFF7D
(1612344963.113641) can0 38A#00000000000000A3
(1612344963.113645) can0 34A#0000000000000000
(1612344963.121641) can0 354#50CD000000000000
(1612344963.121645) can0 3C0#000008027FFF4401
(1612344963.121648) can0 3CA#800180010CC18043
(1612344963.121651) can0 329#004500000000218C
(1612344963.129622) can0 335#0000000000000000
(1612344963.129628) can0 33A#0006000000000000
(1612344963.129632) can0 340#0004000000000000
(1612344963.129637) can0 3A0#418001000000005A
(1612344963.137574) can0 316#81500AF07A1E0200
(1612344963.137578) can0 329#004500000000218C
(1612344963.137581) can0 3BA#0000000000000000
(1612344963.137584) can0 360#00000000002400DA
(1612344963.145571) can0 380#80737E03EDFFFF7D
(1612344963.145575) can0 38A#00000000000000D0
(1612344963.145579) can1 600#0400000000000000
(1612344963.145583) can0 52C#00562000FE00A100
(1612344963.153628) can0 52D#510000003E560000
(1612344963.153632) can0 52E#6D00301000000000
(1612344963.153635) can0 350#01FFAFFB00007F00
(1612344963.153638) can0 3CA#800180010CC18043
(1612344963.161639) can0 517#0000005C05040000
(1612344963.161643) can0 39E#05817F0000000000
(1612344963.161646) can0 350#01FFAFEF00007F00
(1612344963.161650) can0 329#004500000000218C
(1612344963.169634) can0 3C5#96D0000000000000
(1612344963.169638) can0 335#0000000000000000
(1612344963.169641) can0 3C9#FFFFFFFFFFFFFFFF
(1612344963.169644) can0 3A0#4180010000000069
(1612344963.177614) can1 44F#4000000000000500
(1612344963.177618) can1 465#000AF00000000010
(1612344963.177621) can1 487#FFFFFFFFF0000000
(1612344963.177626) can0 360#0000000000240016
(1612344963.185607) can0 380#80737E03E8FFFF7D
(1612344963.185613) can0 38A#000000000000001C
(1612344963.185617) can1 600#0400000000000000
(1612344963.185621) can0 46B#6371000000001500
(1612344963.193575) can0 519#0000000000000000
(1612344963.193580) can0 350#01FFAFFB00007F00
(1612344963.193584) can0 360#0000000000240025
(1612344963.193590) can0 3CA#800180010CBC8043
(1612344963.201574) can0 39E#05817F0000000000
(1612344963.201578) can0 350#01FFAFEF00007F00
(1612344963.201581) can0 360#0000000000240034
(1612344963.201584) can0 329#004500000000218C
(1612344963.209648) can0 335#0000000000000000
(1612344963.209652) can0 33A#0006000000000000
(1612344963.209668) can0 340#0004000000000000
(1612344963.209672) can0 3A0#4180010000000078
(1612344963.217638) can1 519#0000000000000000
(1612344963.217644) can0 650#A000000000000000
(1612344963.217648) can0 316#81500AF07A370200
(1612344963.217652) can0 360#0000000000240052
(1612344963.225667) can0 380#80727E03E8FFFF7D
(1612344963.225671) can0 38A#0000000000000058
(1612344963.225675) can1 461#07F86B013EC00000
(1612344963.225679) can0 350#01FFAFFB00007F00
(1612344963.233657) can0 360#0000000000240061
(1612344963.233661) can0 380#80727E03E8FFFF7D
(1612344963.233664) can0 38A#0000000000000067
(1612344963.233667) can0 3CA#800480040CBC8043
(1612344963.241631) can0 39E#05817F0000000000
(1612344963.241636) can0 350#01FFAFEF00007F00
(1612344963.241640) can0 360#0000000000240070
(1612344963.241646) can0 329#004500000000218C
(1612344963.249641) can0 335#0000000000000000
(1612344963.249646) can0 33A#0006000000000000
(1612344963.249649) can0 340#0004000000000000
(1612344963.249653) can0 39F#00040004000000C9
(1612344963.257652) can0 3A0#4180010000000087
(1612344963.257657) can0 410#0800080000000000
(1612344963.257661) can0 52F#000000FD0051001A
(1612344963.257665) can0 360#000000000024009E
(1612344963.265636) can0 380#80727E03E8FFFF7D
(1612344963.265641) can0 38A#0000000000000094
(1612344963.265645) can1 600#0400000000000000
(1612344963.265650) can1 39F#00040004000000C0
(1612344963.273619) can1 405#00040120FB8003E8
(1612344963.273624) can1 494#0000000000000000
(1612344963.273627) can1 55C#0000000000000000
(1612344963.273634) can0 3CA#800480040CB08043
(1612344963.281639) can0 39E#05817F0000000000
(1612344963.281644) can0 350#01FFAFEF00007F00
(1612344963.281648) can0 360#00000000002400BC
(1612344963.281652) can0 329#004500000000218C
(1612344963.289619) can0 335#0000000000000000
(1612344963.289624) can0 33A#0006000000000000
(1612344963.289628) can0 340#0004000000000000
(1612344963.289633) can0 39F#00040004000000E7
(1612344963.297664) can0 3A0#4180010000000096
(1612344963.297668) can0 466#0815003400000000
(1612344963.297671) can0 46B#6371000000001500
(1612344963.297674) can0 360#00000000002400DA
(1612344963.305607) can0 380#80727E03E8FFFF7D
(1612344963.305613) can0 38A#00000000000000D0
(1612344963.305618) can1 600#0400000000000000
(1612344963.305623) can0 350#01FFAFFB00007F00
(1612344963.313632) can0 360#00000000002400E9
(1612344963.313637) can0 380#80737E03E8FFFF7D
(1612344963.313641) can0 38A#00000000000000EF
(1612344963.313645) can0 34A#0000000000000000
(1612344963.321656) can0 354#50CD000000000000
(1612344963.321660) can0 3C0#000008027FFF4401
(1612344963.321663) can0 3CA#800480040CD48043
(1612344963.321667) can0 329#004500000000218C
(1612344963.329609) can0 335#0000000000000000
(1612344963.329613) can0 33A#0006000000000000
(1612344963.329616) can0 340#0004000000000000
(1612344963.329619) can0 3A0#41800100000000A5
(1612344963.337658) can0 3BA#0000000000000000
(1612344963.337662) can0 316#81500AF07A380200
(1612344963.337665) can0 329#004500000000218C
(1612344963.337669) can0 360#0000000000240016
(1612344963.345658) can0 380#80737E03E8FFFF7D
(1612344963.345662) can0 38A#000000000000001C
(1612344963.345665) can1 600#0400000000000000
(1612344963.345668) can0 52C#00562000FE00A100
(1612344963.353655) can0 52D#510000003E560000
(1612344963.353661) can0 52E#6D00301000000000
(1612344963.353664) can0 350#01FFAFFB00007E00
(1612344963.353686) can0 3CA#800480040CD48043
(1612344963.361640) can0 517#0000005C05040000
(1612344963.361645) can0 39E#05817F0000000000
(1612344963.361649) can0 350#01FFAFEF00007F00
(1612344963.361653) can0 3C9#FFFFFFFFFFFFFFFF
(1612344963.369592) can0 329#004500000000218C
(1612344963.369597) can0 335#0000000000000000
(1612344963.369600) can0 33A#0006000000000000
(1612344963.369603) can0 3A0#41800100000000B4
(1612344963.377591) can1 44F#4000000000000500
(1612344963.377595) can1 465#000AF00000000010
(1612344963.377598) can1 487#FFFFFFFFF0000000
(1612344963.377602) can0 350#01FFB00700007F00
(1612344963.385602) can0 360#0000000000240052
(1612344963.385610) can1 724#0006000000000000
(1612344963.385615) can0 380#80727E03E8FFFF7D
(1612344963.385620) can0 46B#6371000000001500
(1612344963.393630) can0 519#0000000000000000
(1612344963.393634) can0 350#01FFAFFB00007F00
(1612344963.393636) can0 360#0000000000240061
(1612344963.393640) can0 39E#05817F0000000000
(1612344963.401632) can0 350#01FFAFEF00007F00
(1612344963.401636) can0 360#0000000000240070
(1612344963.401639) can0 380#80737E03E8FFFF7D
(1612344963.401642) can0 329#004500000000218C
(1612344963.409627) can0 335#0000000000000000
(1612344963.409631) can0 33A#0006000000000000
(1612344963.409634) can0 401#00007F0620000000
(1612344963.409637) can0 3A0#41800100000000C3
(1612344963.417631) can1 519#0000000000000000
(1612344963.417635) can0 3BA#0000000000000000
(1612344963.417638) can0 316#81500AF07A1E0200
(1612344963.417640) can0 360#000000000024009E
(1612344963.425608) can0 380#80727E03E8FFFF7D
(1612344963.425610) can0 38A#0000000000000094
(1612344963.425612) can1 461#07F86B013EC00000
(1612344963.425613) can0 350#01FFAFFB00007F00
(1612344963.433574) can0 360#00000000002400AD
(1612344963.433576) can0 380#80737E03E8FFFF7D
(1612344963.433577) can0 38A#00000000000000A3
(1612344963.433578) can0 39E#05817F0000000000
(1612344963.441607) can0 350#01FFAFEF00007F00
(1612344963.441608) can0 360#00000000002400BC
(1612344963.441609) can0 380#80737E03E8FFFF7D
(1612344963.441610) can0 329#004500000000218C
(1612344963.449606) can0 335#0000000000000000
(1612344963.449607) can0 33A#0006000000000000
(1612344963.449608) can0 340#0004000000000000
(1612344963.449609) can0 39F#000400040000006F
(1612344963.457578) can0 3A0#41800100000000D2
(1612344963.457579) can0 410#0800080000000000
(1612344963.457580) can0 52F#000000FD0051001A
(1612344963.457581) can0 350#01FFB00700007F00
(1612344963.465588) can0 360#00000000002400DA
(1612344963.465589) can0 380#80727E03EDFFFF7D
(1612344963.465589) can0 38A#00000000000000D0
(1612344963.465590) can1 39F#0004000400000060
(1612344963.473710) can1 405#00040120FB8003ED
(1612344963.473711) can1 494#0000000000000000
(1612344963.473712) can1 55C#0000000000000000
(1612344963.473713) can0 39E#05817F0000000000
(1612344963.481582) can0 350#01FFAFEF00007F00
(1612344963.481583) can0 360#00000000002400F8
(1612344963.481584) can0 380#80717E03E8FFFF7D
(1612344963.481584) can0 329#004500000000218C
(1612344963.489582) can0 335#0000000000000000
(1612344963.489583) can0 33A#0006000000000000
(1612344963.489584) can0 340#0004000000000000
(1612344963.489584) can0 39F#000400040000008D
(1612344963.497732) can0 3A0#41800100000000E1
(1612344963.497733) can0 466#0815003400000000
(1612344963.497734) can0 46B#6371000000001500
(1612344963.497735) can0 350#01FFB00700007F00
(1612344963.505691) can0 360#0000000000240016
(1612344963.505695) can0 380#80717E03E8FFFF7D
(1612344963.505698) can0 38A#000000000000001C
(1612344963.505701) can0 350#01FFAFFB00007F00
(1612344963.513641) can0 360#0000000000240025
(1612344963.513647) can0 380#80727E03E8FFFF7D
(1612344963.513651) can0 38A#000000000000002B
(1612344963.513654) can0 354#50CD000000000000
(1612344963.521686) can0 3C0#000008027FFF4401
(1612344963.521690) can0 3CA#800180010CCF8043
(1612344963.521693) can0 39E#05817F0000000000
(1612344963.521696) can0 329#004500000000218C
(1612344963.529643) can0 335#0000000000000000
(1612344963.529648) can0 33A#0006000000000000
(1612344963.529652) can0 340#0004000000000000
(1612344963.529656) can0 39F#00040004000000AB
(1612344963.537690) can0 3A0#41800100000000F0
(1612344963.537694) can0 3BA#0000000000000000
(1612344963.537697) can0 316#81500AF07A1E0200
(1612344963.537700) can0 350#01FFB00700007F00
(1612344963.545644) can0 360#0000000000240052
(1612344963.545649) can0 380#80737E03E8FFFF7D
(1612344963.545653) can0 38A#0000000000000058
(1612344963.545657) can0 52C#00562000FE00A100
(1612344963.553613) can0 52D#510000003E560000
(1612344963.553617) can0 52E#6D00301000000000
(1612344963.553620) can0 350#01FFAFFB00007F00
(1612344963.553623) can0 517#0000005C05040000
(1612344963.561640) can0 39E#05817F0000000000
(1612344963.561645) can0 350#01FFAFEF00007F00
(1612344963.561649) can0 360#0000000000240070
(1612344963.561652) can0 329#004500000000218C
(1612344963.569611) can0 335#0000000000000000
(1612344963.569615) can0 33A#0006000000000000
(1612344963.569619) can0 340#0004000000000000
(1612344963.569622) can0 39F#00040004000000C9
(1612344963.577627) can1 44F#4000000000000500
(1612344963.577633) can0 3A0#418001000000000F
(1612344963.577637) can1 465#000AF00000000010
(1612344963.577641) can0 350#01FFB00700007F00
(1612344963.585691) can0 360#000000000024009E
(1612344963.585695) can0 380#80737E03E8FFFF7D
(1612344963.585699) can1 600#0400000000000000
(1612344963.585703) can0 46B#6371000000001500
(1612344963.593635) can0 519#0000000000000000
(1612344963.593640) can0 350#01FFAFFB00007F00
(1612344963.593644) can0 360#00000000002400AD
(1612344963.593647) can0 39E#05817F0000000000
(1612344963.601636) can0 350#01FFAFEF00007F00
(1612344963.601641) can0 360#00000000002400BC
(1612344963.601645) can0 380#80727E03E8FFFF7D
(1612344963.601650) can0 329#004500000000218C
(1612344963.609649) can0 335#0000000000000000
(1612344963.609655) can0 33A#0006000000000000
(1612344963.609659) can0 340#0004000000000000
(1612344963.609663) can0 39F#00040004000000E7
(1612344963.617631) can0 3A0#418001000000001E
(1612344963.617637) can1 519#0000000000000000
(1612344963.617641) can0 3BA#0000000000000000
(1612344963.617646) can0 350#01FFB00700007F00
(1612344963.625637) can0 360#00000000002400DA
(1612344963.625642) can0 380#80737E03E8FFFF7D
(1612344963.625647) can1 461#07F86B013EC00000
(1612344963.625651) can0 350#01FFAFFB00007F00
(1612344963.633815) can0 360#00000000002400E9
(1612344963.633819) can0 380#80737E03E8FFFF7D
(1612344963.633823) can1 600#0400000000000000
(1612344963.633827) can0 39E#05817F0000000000
(1612344963.641624) can0 350#01FFAFEF00007F00
(1612344963.641629) can0 360#00000000002400F8
(1612344963.641633) can0 380#80737E03E8FFFF7D
(1612344963.641637) can0 329#004500000000218C
(1612344963.649636) can0 335#0000000000000000
(1612344963.649655) can0 33A#0006000000000000
(1612344963.649659) can0 340#0004000000000000
(1612344963.649665) can0 39A#20FB000B85000000
(1612344963.657639) can0 39F#0004000400000005
(1612344963.657644) can0 3A0#418001000000002D
(1612344963.657648) can0 410#0800080000000000
(1612344963.657651) can0 350#01FFB00700007F00
(1612344963.665633) can0 360#0000000000240016
(1612344963.665638) can0 380#80737E03E8FFFF7D
(1612344963.665642) can0 38A#000000000000001C
(1612344963.665648) can1 39F#0004000400000000
(1612344963.673629) can1 405#00040120FB8003E8
(1612344963.673635) can1 494#0000000000000000
(1612344963.673639) can1 55C#0000000000000000
(1612344963.673644) can0 39E#05817F0000000000
(1612344963.681660) can0 350#01FFAFEF00007F00
(1612344963.681664) can0 360#0000000000240034
(1612344963.681667) can0 380#80717E03E8FFFF7D
(1612344963.681671) can0 329#004500000000218C
(1612344963.689649) can0 335#0000000000000000
(1612344963.689654) can0 33A#0006000000000000
(1612344963.689658) can0 340#0004000000000000
(1612344963.689662) can0 39F#0004000400000023
(1612344963.697697) can0 3A0#418001000000003C
(1612344963.697701) can0 466#0815003400000000
(1612344963.697704) can0 46B#6371000000001500
(1612344963.697707) can0 350#01FFB00700007F00
(1612344963.705666) can0 360#0000000000240052
(1612344963.705670) can0 380#80727E03E8FFFF7D
(1612344963.705673) can1 600#0400000000000000
(1612344963.705676) can0 350#01FFAFFB00007F00
(1612344963.713622) can0 360#0000000000240061
(1612344963.713626) can0 380#80737E03E8FFFF7D
(1612344963.713629) can0 38A#0000000000000067
(1612344963.713632) can0 3CA#800180010CC1804D
(1612344963.721701) can0 39E#05817F0000000000
(1612344963.721705) can1 38A#0000000000000000
(1612344963.721709) can1 396#0004000400000030
(1612344963.721713) can0 329#004500000000218C
(1612344963.729665) can0 335#0000000000000000
(1612344963.729670) can0 33A#0006000000000000
(1612344963.729674) can0 340#0004000000000000
(1612344963.729677) can0 39F#0004000400000041
(1612344963.737706) can0 3A0#418001000000004B
(1612344963.737710) can0 3BA#0000000000000000
(1612344963.737713) can0 316#81500AF07A1E0200
(1612344963.737717) can0 350#01FFB00700007F00
(1612344963.745639) can0 360#000000000024009E
(1612344963.745644) can0 380#80737E03E8FFFF7D
(1612344963.745649) can1 600#0400000000000000
(1612344963.745653) can0 52C#00562000FE00A100
(1612344963.753703) can0 52D#510000003E560000
(1612344963.753708) can0 52E#6D00301000000000
(1612344963.753710) can0 350#01FFAFFB00007F00
(1612344963.753715) can0 517#0000005C05040000
(1612344963.761649) can0 39E#05817F0000000000
(1612344963.761653) can0 350#01FFAFEF00007F00
(1612344963.761656) can0 360#00000000002400BC
(1612344963.761659) can0 329#004500000000218C
(1612344963.769650) can0 335#0000000000000000
(1612344963.769655) can0 33A#0006000000000000
(1612344963.769658) can0 340#0004000000000000
(1612344963.769664) can0 39F#000400040000006F
(1612344963.777707) can1 44F#4000000000000500
(1612344963.777712) can0 3A0#418001000000005A
(1612344963.777715) can1 465#000AF00000000010
(1612344963.777718) can0 350#01FFB00700007F00
(1612344963.785647) can0 360#00000000002400DA
(1612344963.785652) can0 380#80737E03E8FFFF7D
(1612344963.785655) can1 600#0400000000000000
(1612344963.785660) can0 46B#6371000000001500
(1612344963.793651) can0 519#0000000000000000
(1612344963.793655) can0 350#01FFAFFB00007F00
(1612344963.793671) can0 360#00000000002400E9
(1612344963.793674) can0 39E#05817F0000000000
(1612344963.801644) can0 350#01FFAFEF00007F00
(1612344963.801648) can0 360#00000000002400F8
(1612344963.801651) can0 380#80737E03E8FFFF7D
(1612344963.801655) can0 329#004500000000218C
(1612344963.809647) can0 335#0000000000000000
(1612344963.809653) can0 33A#0006000000000000
(1612344963.809657) can0 340#0004000000000000
(1612344963.809660) can0 39F#000400040000008D
(1612344963.817651) can0 3A0#4180010000000069
(1612344963.817656) can1 4E6#6CB0270059604E00
(1612344963.817659) can0 3BA#0000000000000000
(1612344963.817663) can0 350#01FFB00700007F00
(1612344963.825642) can0 360#0000000000240016
(1612344963.825646) can0 380#80737E03E8FFFF7D
(1612344963.825650) can1 461#07F86B013EC00000
(1612344963.825653) can0 350#01FFAFFB00007F00
(1612344963.833648) can0 360#0000000000240025
(1612344963.833653) can0 380#80737E03E8FFFF7D
(1612344963.833657) can1 600#0400000000000000
(1612344963.833661) can0 39E#05817F0000000000
(1612344963.841648) can0 350#01FFAFEF00007F00
(1612344963.841654) can0 360#0000000000240034
(1612344963.841657) can0 380#80737E03EDFFFF7D
(1612344963.841660) can0 329#004500000000218C
(1612344963.849648) can0 335#0000000000000000
(1612344963.849653) can0 33A#0006000000000000
(1612344963.849656) can0 340#0004000000000000
(1612344963.849661) can0 39F#00040004000000AB
(1612344963.857642) can0 3A0#4180010000000078
(1612344963.857646) can0 410#0800080000000000
(1612344963.857649) can0 3BA#0000000000000000
(1612344963.857651) can0 350#01FFB00700007F00
(1612344963.865651) can0 360#0000000000240052
(1612344963.865655) can0 380#80727E03E8FFFF7D
(1612344963.865660) can1 600#0400000000000000
(1612344963.865664) can1 39F#00040004000000A0
(1612344963.873718) can1 405#00040120FB8003E8
(1612344963.873722) can1 408#00FF000000000000
(1612344963.873724) can1 40A#0000060000000001
(1612344963.873728) can0 39E#05817F0000000000
(1612344963.881649) can0 350#01FFAFEF00007F00
(1612344963.881653) can0 360#0000000000240070
(1612344963.881656) can0 380#80727E03E8FFFF7D
(1612344963.881661) can0 329#004500000000218C
(1612344963.889644) can0 335#0000000000000000
(1612344963.889649) can0 33A#0006000000000000
(1612344963.889652) can0 340#0004000000000000
(1612344963.889655) can0 39A#20FB000B0D000000
(1612344963.897644) can0 39F#00040004000000C9
(1612344963.897649) can0 3A0#4180010000000087
(1612344963.897652) can0 46B#6371000000001500
(1612344963.897655) can0 350#01FFB00700007F00
(1612344963.905640) can0 360#000000000024009E
(1612344963.905644) can0 380#80727E03E8FFFF7D
(1612344963.905648) can1 600#0400000000000000
(1612344963.905651) can0 702#0006000000000000
(1612344963.913637) can0 70B#0006000000000000
(1612344963.913641) can0 3BA#0000000000000000
(1612344963.913644) can0 3C5#96D0000000000000
(1612344963.913647) can0 708#0006000000000000
(1612344963.921635) can0 39E#05817F0000000000
(1612344963.921639) can1 38A#0000000000000000
(1612344963.921642) can1 396#00040004000000D0
(1612344963.921645) can0 329#004500000000218C
(1612344963.929624) can0 335#0000000000000000
(1612344963.929625) can0 33A#0006000000000000
(1612344963.929626) can0 340#0004000000000000
(1612344963.929628) can0 39F#00040004000000E7
(1612344963.937623) can0 3A0#4180010000000096
(1612344963.937623) can0 3BA#0000000000000000
(1612344963.937624) can0 316#81500AF07A380200
(1612344963.937629) can0 350#01FFB00700007F00
(1612344963.945622) can0 360#00000000002400DA
(1612344963.945623) can0 380#80727E03E8FFFF7D
(1612344963.945624) can1 600#0400000000000000
(1612344963.945625) can0 52C#00562000FE00A100
(1612344963.953628) can0 52D#510000003E560000
(1612344963.953628) can0 52E#6D00301000000000
(1612344963.953629) can0 350#01FFAFFB00007F00
(1612344963.953630) can0 517#0000005C05040000
(1612344963.961711) can0 39E#05817F0000000000
(1612344963.961711) can0 350#01FFAFEF00007F00
(1612344963.961712) can0 360#00000000002400F8
(1612344963.961713) can0 329#004500000000218C
(1612344963.969772) can0 335#0000000000000000
(1612344963.969773) can0 33A#0006000000000000
(1612344963.969773) can0 340#0004000000000000
(1612344963.969774) can0 39F#0004000400000005
(1612344963.977708) can1 44F#4000000000000500
(1612344963.977709) can0 3A0#41800100000000A5
(1612344963.977709) can1 465#000AF00000000010
(1612344963.977710) can0 350#01FFB00700007F00
(1612344963.985631) can0 360#0000000000240016
(1612344963.985632) can0 380#80727E03E8FFFF7D
(1612344963.985633) can1 600#0400000000000000
(1612344963.985633) can0 46B#6371000000001500
(1612344963.993725) can0 519#0000000000000000
(1612344963.993726) can0 350#01FFAFFB00007F00
(1612344963.993727) can0 360#0000000000240025
(1612344963.993728) can0 39E#05817F0000000000
(1612344964.001748) can0 350#01FFAFEF00007F00
(1612344964.001749) can0 360#0000000000240034
(1612344964.001750) can0 380#80727E03E8FFFF7D
(1612344964.001751) can0 329#004500000000218C
(1612344964.009663) can0 335#0000000000000000
(1612344964.009665) can0 33A#0006000000000000
(1612344964.009666) can0 340#0004000000000000
(1612344964.009668) can0 39F#0004000400000023
(1612344964.017644) can0 3A0#41800100000000B4
(1612344964.017646) can0 3BA#0000000000000000
(1612344964.017648) can1 519#0000000000000000
(1612344964.017649) can0 350#01FFB00700007F00
(1612344964.025660) can0 360#0000000000240052
(1612344964.025664) can1 461#07F86B013EC00000
(1612344964.025667) can0 380#80727E03E8FFFF7D
(1612344964.025670) can0 350#01FFAFFB00007F00
(1612344964.033871) can0 360#0000000000240061
(1612344964.033875) can0 380#80737E03E8FFFF7D
(1612344964.033878) can1 600#0400000000000000
(1612344964.033881) can0 39E#05817F0000000000
(1612344964.041660) can0 350#01FFAFEF00007F00
(1612344964.041664) can0 360#0000000000240070
(1612344964.041667) can0 380#80727E03E8FFFF7D
(1612344964.041670) can0 329#004500000000218C
(1612344964.049662) can0 335#0000000000000000
(1612344964.049668) can0 33A#0006000000000000
(1612344964.049671) can0 340#0004000000000000
(1612344964.049673) can0 39F#0004000400000041
(1612344964.057663) can0 3A0#41800100000000C3
(1612344964.057667) can0 3BA#0000000000000000
(1612344964.057670) can0 410#0800080000000000
(1612344964.057673) can0 350#01FFB00700007F00
(1612344964.065666) can0 360#000000000024009E
(1612344964.065670) can0 380#80737E03EDFFFF7D
(1612344964.065674) can1 600#0400000000000000
(1612344964.065677) can1 39F#0004000400000040
(1612344964.073666) can1 405#00040120FB8003ED
(1612344964.073672) can1 494#0000000000000000
(1612344964.073674) can1 55C#0000000000000000
(1612344964.073678) can0 39E#05817F0000000000
(1612344964.081679) can0 350#01FFAFEF00007F00
(1612344964.081683) can0 360#00000000002400BC
(1612344964.081687) can1 600#0400000000000000
(1612344964.081690) can0 329#004500000000218C
(1612344964.089680) can0 335#0000000000000000
(1612344964.089684) can0 33A#0006000000000000
(1612344964.089687) can0 340#0004000000000000
(1612344964.089691) can0 39A#20FB000B49000000
(1612344964.097665) can0 39F#000400040000006F
(1612344964.097668) can0 3A0#41800100000000D2
(1612344964.097672) can0 3BA#0000000000000000
(1612344964.097674) can0 401#00007F0620000000
(1612344964.105764) can0 350#01FFB00700007F00
(1612344964.105768) can0 360#00000000002400DA
(1612344964.105771) can1 600#0400000000000000
(1612344964.105776) can0 350#01FFAFFB00007F00
(1612344964.113676) can0 360#00000000002400E9
(1612344964.113681) can0 380#80737E03E8FFFF7D
(1612344964.113684) can1 600#0400000000000000
(1612344964.113688) can0 3CA#800480040CA88043
(1612344964.121757) can0 39E#05817F0000000000
(1612344964.121761) can1 38A#0000000000000000
(1612344964.121765) can1 396#0004000400000070
(1612344964.121769) can0 329#004500000000218C
(1612344964.129715) can0 335#0000000000000000
(1612344964.129719) can0 33A#0006000000000000
(1612344964.129722) can0 340#0004000000000000
(1612344964.129725) can0 39A#20FB000B85000000
(1612344964.137901) can0 39F#000400040000008D
(1612344964.137905) can0 3A0#41800100000000E1
(1612344964.137908) can0 3BA#0000000000000000
(1612344964.137913) can0 350#01FFB00700007F00
(1612344964.145722) can0 360#0000000000240016
(1612344964.145727) can1 600#0400000000000000
(1612344964.145730) can0 380#80737E03E8FFFF7D
(1612344964.145733) can0 52C#00562000FE00A100
(1612344964.153903) can0 52D#510000003E560000
(1612344964.153907) can0 52E#6D00301000000000
(1612344964.153910) can0 350#01FFAFFB00007F00
(1612344964.153914) can0 517#0000005C05040000
(1612344964.161685) can0 39E#05817F0000000000
(1612344964.161689) can0 350#01FFAFEF00007F00
(1612344964.161692) can0 360#0000000000240034
(1612344964.161695) can0 329#004500000000218C
(1612344964.169721) can0 335#0000000000000000
(1612344964.169726) can0 33A#0006000000000000
(1612344964.169729) can0 340#0004000000000000
(1612344964.169733) can1 44F#4000000000000500
(1612344964.177751) can0 39F#00040004000000AB
(1612344964.177756) can1 465#000AF00000000010
(1612344964.177759) can0 3A0#41800100000000F0
(1612344964.177761) can0 350#01FFB00700007F00
(1612344964.185688) can0 360#0000000000240052
(1612344964.185694) can1 600#0400000000000000
(1612344964.185697) can0 380#80727E03E8FFFF7D
(1612344964.185701) can0 46B#6371000000001500
(1612344964.193687) can0 519#0000000000000000
(1612344964.193691) can0 350#01FFAFFB00007F00
(1612344964.193694) can0 360#0000000000240061
(1612344964.193697) can0 39E#05817F0000000000
(1612344964.201689) can0 401#00007F0620000000
(1612344964.201693) can0 350#01FFAFEF00007F00
(1612344964.201696) can0 360#0000000000240070
(1612344964.201699) can0 329#004500000000218C
(1612344964.209724) can0 335#0000000000000000
(1612344964.209728) can0 33A#0006000000000000
(1612344964.209731) can0 340#0004000000000000
(1612344964.209734) can0 39F#00040004000000C9
(1612344964.217690) can0 3A0#418001000000000F
(1612344964.217694) can0 3BA#0000000000000000
(1612344964.217698) can1 519#0000000000000000
(1612344964.217701) can0 350#01FFB00700007F00
(1612344964.225903) can0 360#000000000024009E
(1612344964.225907) can1 461#07F86B013EC00000
(1612344964.225910) can0 380#80747E03E8FFFF7D
(1612344964.225913) can0 350#01FFAFFB00007F00
(1612344964.233688) can0 360#00000000002400AD
(1612344964.233706) can1 600#0400000000000000
(1612344964.233709) can0 380#80717E03E8FFFF7D
(1612344964.233712) can0 39E#05817F0000000000
(1612344964.241696) can0 350#01FFAFEF00007F00
(1612344964.241700) can0 360#00000000002400BC
(1612344964.241703) can1 600#0400000000000000
(1612344964.241706) can0 329#004500000000218C
(1612344964.249687) can0 335#0000000000000000
(1612344964.249691) can0 33A#0006000000000000
(1612344964.249694) can0 340#0004000000000000
(1612344964.249697) can0 39A#20FB000B49000000
(1612344964.257898) can0 39F#00040004000000E7
(1612344964.257903) can0 3A0#418001000000001E
(1612344964.257906) can0 3BA#0000000000000000
(1612344964.257909) can0 350#01FFB00700007F00
(1612344964.265692) can0 360#00000000002400DA
(1612344964.265696) can1 600#0400000000000000
(1612344964.265699) can0 380#80737E03E8FFFF7D
(1612344964.265703) can1 39F#00040004000000E0
(1612344964.273705) can1 405#00040120FB8003E8
(1612344964.273709) can1 494#0000000000000000
(1612344964.273712) can1 55C#0000000000000000
(1612344964.273715) can0 39E#05817F0000000000
(1612344964.281684) can0 350#01FFAFEF00007F00
(1612344964.281689) can0 360#00000000002400F8
(1612344964.281693) can1 600#0400000000000000
(1612344964.281696) can0 329#004500000000218C
(1612344964.289688) can0 335#0000000000000000
(1612344964.289693) can0 33A#0006000000000000
(1612344964.289697) can0 340#0004000000000000
(1612344964.289701) can0 39A#20FB000B85000000
(1612344964.297684) can0 39F#0004000400000005
(1612344964.297689) can0 3A0#418001000000002D
(1612344964.297691) can0 3BA#0000000000000000
(1612344964.297694) can0 70A#0006000000000000
(1612344964.305784) can0 350#01FFB00700007F00
(1612344964.305789) can1 600#0400000000000000
(1612344964.305792) can0 360#0000000000240016
(1612344964.305795) can0 350#01FFAFFB00007F00
(1612344964.313742) can0 360#0000000000240025
(1612344964.313746) can1 600#0400000000000000
(1612344964.313749) can0 380#80737E03E3FFFF7D
(1612344964.313752) can0 3CA#800180010CC68043
(1612344964.321731) can0 39E#05817F0000000000
(1612344964.321736) can1 38A#0000000000000000
(1612344964.321739) can1 396#0004000400000010
(1612344964.321742) can0 316#81500AF07A1E0200
(1612344964.329726) can0 329#004500000000218C
(1612344964.329730) can0 335#0000000000000000
(1612344964.329733) can0 33A#0006000000000000
(1612344964.329736) can0 39A#20FB000BC1000000
(1612344964.337732) can0 39F#0004000400000023
(1612344964.337736) can0 3A0#418001000000003C
(1612344964.337739) can0 3BA#0000000000000000
(1612344964.337742) can0 350#01FFB00700007F00
(1612344964.344901) can1 475#0000008000000000
(1612344964.345684) can0 360#0000000000240052
(1612344964.345689) can1 600#0400000000000000
(1612344964.345693) can0 380#80737E03E8FFFF7D
(1612344964.345697) can0 52C#00562000FE00A100
(1612344964.353713) can0 52D#510000003E560000
(1612344964.353719) can0 52E#6D00301000000000
(1612344964.353723) can0 350#01FFAFFB00007F00
(1612344964.353729) can0 517#0000005C05040000
(1612344964.361732) can0 39E#05817F0000000000
(1612344964.361734) can0 350#01FFAFEF00007F00
(1612344964.361736) can0 360#0000000000240070
(1612344964.361738) can0 329#004500000000218C
(1612344964.369759) can0 335#0000000000000000
(1612344964.369762) can0 33A#0006000000000000
(1612344964.369763) can0 340#0004000000000000
(1612344964.369766) can0 39A#20FB000B0D000000
(1612344964.377767) can1 44F#4000000000000500
(1612344964.377770) can0 39F#0004000400000041
(1612344964.377783) can1 465#000AF00000000010
(1612344964.377784) can1 724#0006000000000000
(1612344964.385848) can0 350#01FFB00700007F00
(1612344964.385850) can1 72F#0006000000000000
(1612344964.385852) can0 360#000000000024009E
(1612344964.385854) can0 46B#6371000000001500
(1612344964.393766) can0 519#0000000000000000
(1612344964.393768) can0 350#01FFAFFB00007F00
(1612344964.393770) can0 360#00000000002400AD
(1612344964.393771) can0 39E#05817F0000000000
(1612344964.401685) can0 401#00007F0620000000
(1612344964.401688) can0 350#01FFAFEF00007F00
(1612344964.401690) can0 360#00000000002400BC
(1612344964.401692) can0 329#004500000000218C
(1612344964.409694) can0 335#0000000000000000
(1612344964.409697) can0 33A#0006000000000000
(1612344964.409699) can0 340#0004000000000000
(1612344964.409701) can0 39A#20FB000B49000000
(1612344964.417690) can0 39F#000400040000006F
(1612344964.417693) can0 3A0#418001000000005A
(1612344964.417696) can1 519#0000000000000000
(1612344964.417699) can0 350#01FFB00700007F00
(1612344964.425684) can0 360#00000000002400DA
(1612344964.425687) can1 461#07F86B013EC00000
(1612344964.425690) can0 380#80727E03E8FFFF7D
(1612344964.425692) can0 350#01FFAFFB00007F00
(1612344964.433676) can0 360#00000000002400E9
(1612344964.433678) can1 600#0400000000000000
(1612344964.433679) can0 380#80737E03E8FFFF7D
(1612344964.433680) can0 39E#05817F0000000000
(1612344964.441678) can0 350#01FFAFEF00007F00
(1612344964.441679) can0 360#00000000002400F8
(1612344964.441680) can1 600#0400000000000000
(1612344964.441681) can0 329#004500000000218C
(1612344964.449675) can0 335#0000000000000000
(1612344964.449676) can0 33A#0006000000000000
(1612344964.449677) can0 340#0004000000000000
(1612344964.449677) can0 39A#20FB000B85000000
(1612344964.457696) can0 39F#000400040000008D
(1612344964.457697) can0 3A0#4180010000000069
(1612344964.457698) can0 3BA#0000000000000000
(1612344964.457698) can0 350#01FFB00700007F00
(1612344964.465769) can0 360#0000000000240016
(1612344964.465771) can1 600#0400000000000000
(1612344964.465771) can0 380#80737E03E8FFFF7D
(1612344964.465772) can1 39F#0004000400000080
(1612344964.473747) can1 405#00040120FB8003E8
(1612344964.473748) can1 494#0000000000000000
(1612344964.473749) can1 55C#0000000000000000
(1612344964.473750) can0 39E#05817F0000000000
(1612344964.481739) can0 350#01FFAFEF00007F00
(1612344964.481739) can0 360#0000000000240034
(1612344964.481740) can1 600#0400000000000000
(1612344964.481741) can0 329#004500000000218C
(1612344964.489733) can0 335#0000000000000000
(1612344964.489735) can0 33A#0006000000000000
(1612344964.489735) can0 340#0004000000000000
(1612344964.489736) can0 396#00040004AD0000A4
(1612344964.497696) can0 39A#20FB000BC1000000
(1612344964.497697) can0 39F#00040004000000AB
(1612344964.497699) can0 3A0#4180010000000078
(1612344964.497701) can0 350#01FFB00700007F00
(1612344964.505690) can0 360#0000000000240052
(1612344964.505692) can1 600#0400000000000000
(1612344964.505693) can0 380#80737E03E8FFFF7D
(1612344964.505694) can0 350#01FFAFFB00007F00
(1612344964.513748) can0 360#0000000000240061
(1612344964.513749) can1 600#0400000000000000
(1612344964.513750) can0 380#80737E03E8FFFF7D
(1612344964.513751) can0 3CA#800480040CB08043
(1612344964.521922) can0 39E#05817F0000000000
(1612344964.521924) can1 38A#0000000000000000
(1612344964.521925) can1 396#00040004000000B0
(1612344964.521931) can0 316#81500AF07A370200
(1612344964.529775) can0 329#004500000000218C
(1612344964.529776) can0 335#0000000000000000
(1612344964.529778) can0 33A#0006000000000000
(1612344964.529779) can0 39A#20FB000B0D000000
(1612344964.537779) can0 39F#00040004000000C9
(1612344964.537782) can0 3A0#4180010000000087
(1612344964.537785) can0 3BA#0000000000000000
(1612344964.537787) can0 350#01FFB00700007E00
(1612344964.545718) can0 360#000000000024009E
(1612344964.545722) can1 600#0400000000000000
(1612344964.545725) can0 380#80727E03E8FFFF7D
(1612344964.545730) can0 52C#00562000FE00A100
(1612344964.553754) can0 52D#510000003E560000
(1612344964.553758) can0 52E#6D00301000000000
(1612344964.553761) can0 350#01FFAFFB00007E00
(1612344964.553764) can0 517#0000005C05040000
(1612344964.556846) can1 475#0000004000000000
(1612344964.561754) can0 39E#05817F0000000000
(1612344964.561758) can0 350#01FFAFEF00007E00
(1612344964.561762) can0 360#00000000002400BC
(1612344964.561764) can0 329#004500000000218C
(1612344964.569784) can0 335#0000000000000000
(1612344964.569788) can0 33A#0006000000000000
(1612344964.569791) can0 340#0004000000000000
(1612344964.569794) can0 39A#20FB000B49000000
(1612344964.577939) can1 44F#4000000000000500
(1612344964.577944) can0 39F#00040004000000E7
(1612344964.577947) can1 465#000AF00000000010
(1612344964.577952) can0 350#01FFB00700007F00
(1612344964.585793) can0 360#00000000002400DA
(1612344964.585797) can1 600#0400000000000000
(1612344964.585800) can0 380#80737E03E8FFFF7D
(1612344964.585803) can0 46B#6371000000001500
(1612344964.593762) can0 519#0000000000000000
(1612344964.593767) can0 350#01FFAFFB00007F00
(1612344964.593770) can0 360#00000000002400E9
(1612344964.593774) can0 401#00007F0620000000
(1612344964.601728) can0 39E#05817F0000000000
(1612344964.601734) can0 350#01FFAFEF00007F00
(1612344964.601739) can0 360#00000000002400F8
(1612344964.601743) can0 329#004500000000218C
(1612344964.609888) can0 335#0000000000000000
(1612344964.609892) can0 33A#0006000000000000
(1612344964.609895) can0 340#0004000000000000
(1612344964.609899) can0 39A#20FB000B85000000
(1612344964.617784) can0 39F#0004000400000005
(1612344964.617788) can0 3A0#41800100000000A5
(1612344964.617792) can1 519#0000000000000000
(1612344964.617795) can0 350#01FFB00700007F00
(1612344964.625887) can1 461#07F86B013EC00000
(1612344964.625892) can0 360#0000000000240016
(1612344964.625895) can1 46A#6371FF00FF4E153A
(1612344964.625899) can0 350#01FFAFFB00007F00
(1612344964.633793) can0 360#0000000000240025
(1612344964.633797) can1 600#0400000000000000
(1612344964.633800) can0 380#80737E03E8FFFF7D
(1612344964.633803) can0 39E#05817F0000000000
(1612344964.641771) can0 350#01FFAFEF00007F00
(1612344964.641775) can0 360#0000000000240034
(1612344964.641778) can1 600#0400000000000000
(1612344964.641783) can0 329#004500000000218C
(1612344964.649815) can0 335#0000000000000000
(1612344964.649818) can0 33A#0006000000000000
(1612344964.649821) can0 340#0004000000000000
(1612344964.649824) can0 39A#20FB000BC1000000
(1612344964.657733) can0 39F#0004000400000023
(1612344964.657737) can0 3A0#41800100000000B4
(1612344964.657740) can0 3BA#0000000000000000
(1612344964.657744) can0 350#01FFB00700007F00
(1612344964.665802) can0 360#0000000000240052
(1612344964.665806) can1 600#0400000000000000
(1612344964.665809) can0 380#80717E03E8FFFF7D
(1612344964.665812) can1 405#00040120FB8003E8
(1612344964.673732) can1 494#0000000000000000
(1612344964.673736) can1 55C#0000000000000000
(1612344964.673739) can1 40A#0000060000000001
(1612344964.673743) can0 39E#05817F0000000000
(1612344964.681895) can0 350#01FFAFEF00007F00
(1612344964.681900) can1 600#0400000000000000
(1612344964.681903) can0 360#0000000000240070
(1612344964.681905) can0 329#004500000000218C
(1612344964.689821) can0 335#0000000000000000
(1612344964.689825) can0 33A#0006000000000000
(1612344964.689828) can0 340#0004000000000000
(1612344964.689832) can0 38F#7E7F50F400000000
(1612344964.697826) can0 396#00040004AD00004A
(1612344964.697830) can0 39A#20FB000B0D000000
(1612344964.697833) can0 39F#0004000400000041
(1612344964.697836) can0 350#01FFB00700007F00
(1612344964.705825) can0 360#000000000024009E
(1612344964.705829) can1 600#0400000000000000
(1612344964.705832) can0 380#80727E03E8FFFF7D
(1612344964.705836) can0 350#01FFAFFB00007F00
(1612344964.713816) can0 360#00000000002400AD
(1612344964.713821) can1 600#0400000000000000
(1612344964.713824) can0 380#80727E03E8FFFF7D
(1612344964.713827) can0 3CA#800480040CB28043
(1612344964.721808) can0 39E#05817F0000000000
(1612344964.721813) can1 38A#0000000000000000
(1612344964.721816) can1 396#0004000400000050
(1612344964.721820) can0 316#81500AF07A370200
(1612344964.729811) can0 329#004500000000218C
(1612344964.729815) can0 335#0000000000000000
(1612344964.729818) can0 33A#0006000000000000
(1612344964.729821) can0 396#00040004AD000068
(1612344964.737807) can0 39A#20FB000B49000000
(1612344964.737811) can0 39F#000400040000006F
(1612344964.737814) can0 3A0#41800100000000D2
(1612344964.737818) can0 350#01FFB00700007F00
(1612344964.745813) can1 600#0400000000000000
(1612344964.745818) can0 360#00000000002400DA
(1612344964.745821) can1 601#000A006A00000000
(1612344964.745824) can0 52C#00562000FE00A100
(1612344964.753820) can0 52D#510000003E560000
(1612344964.753824) can0 52E#6D00301000000000
(1612344964.753827) can0 350#01FFAFFB00007F00
(1612344964.753831) can0 517#0000005C05040000
(1612344964.761748) can0 39E#05817F0000000000
(1612344964.761752) can0 350#01FFAFEF00007F00
(1612344964.761756) can1 600#0400000000000000
(1612344964.761759) can0 329#004500000000218C
(1612344964.766631) can1 475#0000008000000000
(1612344964.769732) can0 335#0000000000000000
(1612344964.769737) can0 33A#0006000000000000
(1612344964.769742) can0 340#0004000000000000
(1612344964.769746) can0 39A#20FB000B85000000
(1612344964.777814) can1 44F#4000000000000500
(1612344964.777818) can1 465#000AF00000000010
(1612344964.777821) can0 39F#000400040000008D
(1612344964.777824) can0 350#01FFB00700007F00
(1612344964.785905) can0 360#0000000000240016
(1612344964.785910) can1 600#0400000000000000
(1612344964.785914) can0 380#80727E03E8FFFF7D
(1612344964.785917) can0 46B#6371000000001500
(1612344964.793905) can0 519#0000000000000000
(1612344964.793909) can0 350#01FFAFFB00007F00
(1612344964.793912) can0 360#0000000000240025
(1612344964.793915) can0 401#00007F0620000000
(1612344964.801831) can0 39E#05817F0000000000
(1612344964.801835) can0 350#01FFAFEF00007F00
(1612344964.801839) can1 600#0400000000000000
(1612344964.801844) can0 329#004500000000218C
(1612344964.809823) can0 335#0000000000000000
(1612344964.809827) can0 33A#0006000000000000
(1612344964.809830) can0 340#0004000000000000
(1612344964.809833) can0 39A#20FB000BC1000000
(1612344964.817747) can0 39F#00040004000000AB
(1612344964.817768) can1 4E6#6CB0270059604E00
(1612344964.817772) can0 3A0#41800100000000F0
(1612344964.817777) can0 350#01FFB00700007F00
(1612344964.825812) can1 461#07F86B013EC00000
(1612344964.825816) can0 360#0000000000240052
(1612344964.825819) can1 46A#6371FF00FF4E153A
(1612344964.825822) can0 350#01FFAFFB00007F00
(1612344964.833786) can1 600#0400000000000000
(1612344964.833790) can0 360#0000000000240061
(1612344964.833793) can1 601#000A006A00000000
(1612344964.833798) can0 39E#05817F0000000000
(1612344964.841825) can0 350#01FFAFEF00007F00
(1612344964.841829) can1 600#0400000000000000
(1612344964.841832) can0 360#0000000000240070
(1612344964.841835) can0 329#004500000000218C
(1612344964.849820) can0 335#0000000000000000
(1612344964.849824) can0 33A#0006000000000000
(1612344964.849827) can0 340#0004000000000000
(1612344964.849831) can0 39A#20FB000B0D000000
(1612344964.857819) can0 39F#00040004000000C9
(1612344964.857823) can0 3A0#418001000000000F
(1612344964.857826) can0 3BA#0000000000000000
(1612344964.857829) can0 350#01FFB00700007F00
(1612344964.865827) can1 600#0400000000000000
(1612344964.865831) can0 360#000000000024009E
(1612344964.865834) can1 601#000A006A00000000
(1612344964.865838) can1 405#00040120FB8003E8
(1612344964.873814) can1 408#00FF000000000000
(1612344964.873818) can1 40A#0000060000000001
(1612344964.873821) can1 40C#96D0000000000000
(1612344964.873825) can0 39E#05817F0000000000
(1612344964.881825) can0 350#01FFAFEF00007E00
(1612344964.881829) can1 600#0400000000000000
(1612344964.881833) can0 360#00000000002400BC
(1612344964.881841) can0 329#004500000000218C
(1612344964.889843) can0 335#0000000000000000
(1612344964.889847) can0 33A#0006000000000000
(1612344964.889849) can0 340#0004000000000000
(1612344964.889852) can0 38F#7E7F3CFE00000000
(1612344964.897822) can0 396#00040004AD0000E0
(1612344964.897826) can0 39A#20FB000B49000000
(1612344964.897829) can0 39F#00040004000000E7
(1612344964.897833) can0 350#01FFB00700007F00
(1612344964.905830) can1 600#0400000000000000
(1612344964.905834) can0 360#00000000002400DA
(1612344964.905837) can1 601#000A006A00000000
(1612344964.905840) can0 702#0006000000000000
(1612344964.913750) can0 5E2#10000E6E0E640E6E
(1612344964.913754) can0 5E3#10000E6E0E6F0E64
(1612344964.913757) can0 70F#0006000000000000
(1612344964.913761) can0 708#0006000000000000
(1612344964.921749) can0 39E#05817F0000000000
(1612344964.921754) can1 38A#0000000000000000
(1612344964.921757) can1 396#00040004000000F0
(1612344964.921760) can0 51A#0000000000000000
(1612344964.929746) can0 329#004500000000218C
(1612344964.929750) can0 335#0000000000000000
(1612344964.929752) can0 33A#0006000000000000
(1612344964.929756) can0 396#00040004AD00000E
(1612344964.937757) can0 39A#20FB000B85000000
(1612344964.937762) can0 39F#0004000400000005
(1612344964.937766) can0 3A0#418001000000002D
(1612344964.937770) can0 350#01FFB00700007F00
(1612344964.945737) can1 600#0400000000000000
(1612344964.945740) can0 360#0000000000240016
(1612344964.945741) can1 601#000A006A00000000
(1612344964.945744) can0 52C#00562000FE00A100
(1612344964.953732) can0 52D#510000003E560000
(1612344964.953734) can0 52E#6D00301000000000
(1612344964.953735) can0 350#01FFAFFB00007F00
(1612344964.953736) can0 517#0000005C05040000
(1612344964.961728) can0 39E#05817F0000000000
(1612344964.961729) can0 350#01FFAFEF00007F00
(1612344964.961735) can1 600#0400000000000000
(1612344964.961736) can0 329#004500000000218C
(1612344964.969728) can0 335#0000000000000000
(1612344964.969729) can0 33A#0006000000000000
(1612344964.969730) can0 340#0004000000000000
(1612344964.969730) can0 396#00040004AD00002C
(1612344964.973239) can1 475#0000008000000000
(1612344964.977767) can1 44F#4000000000000500
(1612344964.977768) can0 39A#20FB000BC1000000
(1612344964.977769) can1 465#000AF00000000010
(1612344964.977769) can0 350#01FFB00700007F00
(1612344964.985876) can1 600#0400000000000000
(1612344964.985877) can0 360#0000000000240052
(1612344964.985878) can1 601#000A006A00000000
(1612344964.985878) can0 46B#6371000000001500
(1612344964.993739) can0 519#0000000000000000
(1612344964.993740) can0 3BA#0000000000000000
(1612344964.993740) can1 600#0400000000000000
(1612344964.993741) can0 3CA#800180010CC18043
(1612344965.001876) can0 39E#05817F0000000000
(1612344965.001877) can0 350#01FFAFEF00007F00
(1612344965.001878) can1 600#0400000000000000
(1612344965.001878) can0 329#004500000000218C
(1612344965.009893) can0 335#0000000000000000
(1612344965.009894) can0 33A#0006000000000000
(1612344965.009894) can0 340#0004000000000000
(1612344965.009896) can0 396#00040004AD00004A
(1612344965.017743) can0 39A#20FB000B0D000000
(1612344965.017744) can0 39F#0004000400000041
(1612344965.017745) can1 519#0000000000000000
(1612344965.017746) can1 461#07F86B013EC00000
(1612344965.025745) can0 350#01FFB00700007F00
(1612344965.025746) can1 46A#6371FF00FF4E153A
(1612344965.025747) can0 360#000000000024009E
(1612344965.025748) can0 3BA#0000000000000000
(1612344965.033896) can1 600#0400000000000000
(1612344965.033897) can0 350#01FFAFFB00007F00
(1612344965.033898) can1 601#000A006A00000000
(1612344965.033899) can0 39E#05817F0000000000
(1612344965.041854) can0 350#01FFAFEF00007F00
(1612344965.041856) can1 600#0400000000000000
(1612344965.041857) can0 360#00000000002400BC
(1612344965.041858) can0 329#004500000000218C
(1612344965.049841) can0 335#0000000000000000
(1612344965.049843) can0 33A#0006000000000000
(1612344965.049844) can0 340#0004000000000000
(1612344965.049846) can0 396#00040004AD000068
(1612344965.057836) can0 39A#20FB000B49000000
(1612344965.057840) can0 39F#000400040000006F
(1612344965.057842) can0 3A0#418001000000005A
(1612344965.057846) can0 3C5#96D0000000000000
(1612344965.065838) can0 350#01FFB00700007F00
(1612344965.065843) can1 600#0400000000000000
(1612344965.065846) can0 360#00000000002400DA
(1612344965.065849) can1 405#00040120FB8003E8
(1612344965.073935) can1 494#0000000000000000
(1612344965.073939) can1 55C#0000000000000000
(1612344965.073942) can1 40A#0000060000000001
(1612344965.073947) can0 39E#05817F0000000000
(1612344965.081844) can0 350#01FFAFEF00007F00
(1612344965.081848) can1 600#0400000000000000
(1612344965.081851) can0 360#00000000002400F8
(1612344965.081854) can0 329#004500000000218C
(1612344965.089848) can0 335#0000000000000000
(1612344965.089852) can0 33A#0006000000000000
(1612344965.089855) can0 340#0004000000000000
(1612344965.089859) can0 38F#7E7F2B0800000000
(1612344965.097851) can0 396#00040004AD000086
(1612344965.097854) can0 39A#20FB000B85000000
(1612344965.097857) can0 39F#000400040000008D
(1612344965.097860) can0 350#01FFB00700007F00
(1612344965.105844) can1 600#0400000000000000
(1612344965.105849) can0 360#0000000000240016
(1612344965.105852) can1 601#000A006A00000000
(1612344965.105870) can0 3BA#0000000000000000
(1612344965.113828) can1 600#0400000000000000
(1612344965.113833) can0 350#01FFAFFB00007F00
(1612344965.113836) can1 601#000A006A00000000
(1612344965.113839) can0 3CA#800480040CE58043
(1612344965.121850) can0 39E#05817F0000000000
(1612344965.121855) can1 38A#0000000000000000
(1612344965.121858) can1 396#0004000400000090
(1612344965.121862) can0 51A#0000000000000000
(1612344965.129820) can0 329#004500000000218C
(1612344965.129825) can0 335#0000000000000000
(1612344965.129828) can0 33A#0006000000000000
(1612344965.129831) can0 38F#7E7F370A00000000
(1612344965.137852) can0 396#00040004AD0000A4
(1612344965.137856) can0 39A#20FB000BC1000000
(1612344965.137859) can0 39F#00040004000000AB
(1612344965.137863) can0 350#01FFB00700007F00
(1612344965.145780) can1 600#0400000000000000
(1612344965.145784) can0 360#0000000000240052
(1612344965.145788) can1 601#000A006A00000000
(1612344965.145791) can0 52C#00562000FE00A100
(1612344965.153858) can0 52D#510000003E560000
(1612344965.153862) can0 52E#6D00301000000000
(1612344965.153865) can0 3BA#0000000000000000
(1612344965.153869) can0 517#0000005C05040000
(1612344965.161854) can0 39E#05817F0000000000
(1612344965.161857) can0 3C5#96D0000000000000
(1612344965.161860) can0 350#01FFAFEF00007F00
(1612344965.161863) can0 335#0000000000000000
(1612344965.169944) can0 33A#0006000000000000
(1612344965.169948) can0 340#0004000000000000
(1612344965.169951) can0 34A#0000000000000000
(1612344965.169955) can0 38F#7E7F130C00000000
(1612344965.177776) can1 44F#4000000000000500
(1612344965.177781) can0 396#00040004AD0000C2
(1612344965.177785) can1 465#000AF00000000010
(1612344965.177788) can0 350#01FFB00700007F00
(1612344965.179231) can1 475#0000008000000000
(1612344965.185795) can1 600#0400000000000000
(1612344965.185799) can0 360#000000000024009E
(1612344965.185803) can1 601#000A006A00000000
(1612344965.185806) can0 46B#6371000000001500
(1612344965.193861) can0 519#0000000000000000
(1612344965.193865) can0 3BA#0000000000000000
(1612344965.193868) can0 350#01FFAFFB00007F00
(1612344965.193871) can0 39E#05817F0000000000
(1612344965.201948) can0 350#01FFAFEF00007F00
(1612344965.201952) can1 600#0400000000000000
(1612344965.201955) can0 360#00000000002400BC
(1612344965.201959) can0 329#004500000000218C
(1612344965.209946) can0 335#0000000000000000
(1612344965.209951) can0 33A#0006000000000000
(1612344965.209954) can0 340#0004000000000000
(1612344965.209957) can0 396#00040004AD0000E0
(1612344965.217863) can0 39A#20FB000B49000000
(1612344965.217867) can0 39F#00040004000000E7
(1612344965.217871) can1 519#0000000000000000
(1612344965.217875) can1 461#07F86B013EC00000
(1612344965.225878) can0 350#01FFB00700007F00
(1612344965.225883) can1 46A#6371FF00FF4E153A
(1612344965.225886) can0 360#00000000002400DA
(1612344965.225889) can0 3BA#0000000000000000
(1612344965.233796) can0 350#01FFAFFB00007F00
(1612344965.233803) can1 600#0400000000000000
(1612344965.233807) can0 360#00000000002400E9
(1612344965.233812) can0 39E#05817F0000000000
(1612344965.241864) can0 350#01FFAFEF00007F00
(1612344965.241868) can1 600#0400000000000000
(1612344965.241871) can0 360#00000000002400F8
(1612344965.241874) can0 329#004500000000218C
(1612344965.249863) can0 335#0000000000000000
(1612344965.249868) can0 33A#0006000000000000
(1612344965.249870) can0 340#0004000000000000
(1612344965.249875) can0 38F#7E7FBB1000000000
(1612344965.258017) can0 396#00040004AD00000E
(1612344965.258021) can0 39A#20FB000B85000000
(1612344965.258024) can0 39F#0004000400000005
(1612344965.258027) can0 3C5#96D0000000000000
(1612344965.265865) can0 3C9#FFFFFFFFFFFFFFFF
(1612344965.265870) can1 600#0400000000000000
(1612344965.265873) can0 350#01FFB00700007F00
(1612344965.265877) can1 405#00040120FB8003E8
(1612344965.273867) can1 494#0000000000000000
(1612344965.273870) can1 55C#0000000000000000
(1612344965.273873) can1 40A#0000060000000001
(1612344965.273877) can0 39E#05817F0000000000
(1612344965.281862) can1 600#0400000000000000
(1612344965.281867) can0 350#01FFAFEF00007F00
(1612344965.281870) can0 360#0000000000240034
(1612344965.281874) can0 329#004500000000218C
(1612344965.289870) can0 335#0000000000000000
(1612344965.289874) can0 33A#0006000000000000
(1612344965.289877) can0 340#0004000000000000
(1612344965.289880) can0 38F#7E7FA71200000000
(1612344965.297884) can0 396#00040004AD00002C
(1612344965.297890) can0 39A#20FB000BC1000000
(1612344965.297893) can0 39F#0004000400000023
(1612344965.297900) can0 350#01FFB00700007F00
(1612344965.306022) can1 600#0400000000000000
(1612344965.306027) can0 360#0000000000240052
(1612344965.306030) can1 601#000A006A00000000
(1612344965.306033) can0 3BA#0000000000000000
(1612344965.313871) can0 3C5#96D0000000000000
(1612344965.313875) can1 600#0400000000000000
(1612344965.313878) can0 350#01FFAFFB00007F00
(1612344965.313882) can0 3CA#800480040CBC8043
(1612344965.321873) can0 39E#05817F0000000000
(1612344965.321878) can1 38A#0000000000000000
(1612344965.321881) can1 396#0004000400000030
(1612344965.321884) can0 51A#0000000000000000
(1612344965.329874) can0 329#004500000000218C
(1612344965.329878) can0 335#0000000000000000
(1612344965.329881) can0 33A#0006000000000000
(1612344965.329885) can0 396#00040004AE000049
(1612344965.337980) can0 39A#20FB000B0D000000
(1612344965.337984) can0 39F#0004000400000041
(1612344965.337987) can0 316#81500AF07A370200
(1612344965.337991) can1 600#0400000000000000
