(1612249095.129892) can0 316#81500AF07B020200
(1612249095.129899) can0 350#01FFB00700007F00
(1612249095.137900) can0 360#00000000002400DA
(1612249095.137903) can0 380#80727E03E8FFFF7F
(1612249095.137908) can0 350#01FFAFFB00007F00
(1612249095.145835) can0 360#00000000002400E9
(1612249095.145842) can0 380#80717E03E8FFFF7F
(1612249095.145852) can0 3C9#FFFFFFFFFFFFFFFF
(1612249095.153836) can0 39A#20FC000B82000000
(1612249095.153846) can0 34A#0000000000000000
(1612249095.161805) can0 354#50CD000000000000
(1612249095.161810) can0 3A0#41800100000000D2
(1612249095.161813) can0 3C0#00000BCC7FFF4401
(1612249095.161817) can0 380#80727E03E8FFFF7F
(1612249095.169822) can0 316#81500AF07A6A0200
(1612249095.169828) can0 350#01FFB00700007F00
(1612249095.177986) can0 360#0000000000240016
(1612249095.177990) can0 380#80737E03E8FFFF7F
(1612249095.177999) can0 350#01FFAFFB00007F00
(1612249095.185769) can0 360#0000000000240025
(1612249095.185773) can0 380#80707E03E8FFFF7F
(1612249095.193977) can0 39A#20FC000BC6000000
(1612249095.193990) can0 34A#0000000000000000
(1612249095.201831) can0 354#50CD000000000000
(1612249095.201835) can0 3A0#41800100000000E1
(1612249095.201838) can0 3C0#00000BCC7FFF4401
(1612249095.201841) can0 380#80737E03E8FFFF7F
(1612249095.209958) can0 316#81500AF07A6A0200
(1612249095.209964) can0 350#01FFB00700007F00
(1612249095.217940) can0 360#0000000000240052
(1612249095.217944) can0 380#80727E03E8FFFF7F
(1612249095.233909) can0 39A#20FC000B0A000000
(1612249095.233918) can0 5E1#1C000EAB0EB00EAE
(1612249095.233921) can0 34A#0000000000000000
(1612249095.241909) can0 354#50CD000000000000
(1612249095.241913) can0 3A0#41800100000000F0
(1612249095.241917) can0 3C0#00000BCC7FFF4401
(1612249095.241920) can0 380#80727E03E8FFFF7F
(1612249095.249883) can0 316#81500AF07A6A0200
(1612249095.249890) can0 350#01FFB00700007E00
(1612249095.257902) can0 360#000000000024009E
(1612249095.257906) can0 380#80727E03E8FFFF7F
(1612249095.257914) can0 401#00007F0620000000
(1612249095.265725) can0 350#01FFAFFB00007F00
(1612249095.265729) can0 360#00000000002400AD
(1612249095.265732) can0 380#80727E03E8FFFF7F
(1612249095.265735) can0 450#0000001000000000
(1612249095.273880) can0 39A#20FC000B4E000000
(1612249095.273886) can0 34A#0000000000000000
(1612249095.281680) can0 354#50CD000000000000
(1612249095.281684) can0 3A0#418001000000000F
(1612249095.281687) can0 3C0#00000BCC7FFF4401
(1612249095.281689) can0 380#80727E03E8FFFF7F
(1612249095.289863) can0 316#81500AF07A6A0200
(1612249095.289869) can0 350#01FFB00700007F00
(1612249095.297638) can0 360#00000000002400DA
(1612249095.297641) can0 380#80727E03E8FFFF7F
(1612249095.297650) can0 433#0000000000000000
(1612249095.305838) can0 436#0080000000000000
(1612249095.305842) can0 440#0200000000000000
(1612249095.305845) can0 445#FF00030000000000
(1612249095.305848) can0 525#0000000000258380
(1612249095.313841) can0 39A#20FC000B82000000
(1612249095.313848) can0 340#0004000000000000
(1612249095.321818) can0 34A#0000000000000000
(1612249095.321822) can0 3A0#418001000000001E
(1612249095.321825) can0 354#50CD000000000000
(1612249095.321828) can0 380#80727E03E8FFFF7F
(1612249095.329818) can0 316#81500AF07A6A0200
(1612249095.329824) can0 70A#0006000000000000
(1612249095.337797) can0 350#01FFB00700007F00
(1612249095.337801) can0 360#0000000000240016
(1612249095.345785) can0 3C5#96D0000000000000
(1612249095.353776) can0 39A#20FC000BC6000000
(1612249095.353783) can0 34A#0000000000000000
(1612249095.361778) can0 3A0#418001000000002D
(1612249095.361782) can0 354#50CD000000000000
(1612249095.361785) can0 3C0#00000BCC7FFF4401
(1612249095.361788) can0 380#80737E03E8FFFF7F
(1612249095.369758) can0 316#81500AF07A6A0200
(1612249095.369764) can0 350#01FFB00700007F00
(1612249095.377753) can0 360#0000000000240052
(1612249095.377757) can0 380#80727E03E8FFFF7F
(1612249095.377766) can0 350#01FFAFFB00007F00
(1612249095.385734) can0 360#0000000000240061
(1612249095.385738) can0 380#80717E03E8FFFF7F
(1612249095.385747) can0 3CA#800C800C0CEF806B
(1612249095.393724) can0 39A#20FC000B0A000000
(1612249095.393730) can0 34A#0000000000000000
(1612249095.401571) can0 3A0#418001000000003C
(1612249095.401575) can0 354#50CD000000000000
(1612249095.401577) can0 3C5#96D0000000000000
(1612249095.401580) can0 380#80727E03E8FFFF7F
(1612249095.409720) can0 316#81500AF07A6A0200
(1612249095.409727) can0 350#01FFB00700007F00
(1612249095.417704) can0 360#000000000024009E
(1612249095.417708) can0 380#80717E03E8FFFF7F
(1612249095.425663) can0 3CA#800C800C0CE58074
(1612249095.433669) can0 39A#20FC000B4E000000
(1612249095.433674) can0 5E1#04000EA10E9E0E9E
(1612249095.433677) can0 5E2#04000EAF0E8E0E10
(1612249095.433680) can0 34A#0000000000000000
(1612249095.441676) can0 3A0#418001000000004B
(1612249095.441680) can0 354#50CD000000000000
(1612249095.441682) can0 3C0#00000BCC7FFF4401
(1612249095.441685) can0 380#80737E03E8FFFF7F
(1612249095.449637) can0 316#81500AF07A9D0200
(1612249095.457655) can0 350#01FFB00700007F00
(1612249095.457658) can0 360#00000000002400DA
(1612249095.457661) can0 380#80737E03E8FFFF7F
(1612249095.465528) can0 450#0000001000000000
(1612249095.473619) can0 39A#20FC000B82000000
(1612249095.473623) can0 3CA#801380130CED8074
(1612249095.473627) can0 45E#0000100000100000
(1612249095.473630) can0 34A#0000000000000000
(1612249095.481466) can0 3A0#418001000000005A
(1612249095.481470) can0 354#50CD000000000000
(1612249095.481473) can0 3C0#00000BCC7FFF4401
(1612249095.481476) can0 380#80737E03E8FFFF7F
(1612249095.489620) can0 316#81500AF07A9D0200
(1612249095.497486) can0 350#01FFB00700007F00
(1612249095.497490) can0 360#0000000000240016
(1612249095.497498) can0 433#0000000000000000
(1612249095.505582) can0 436#0080000000000000
(1612249095.505586) can0 440#0200000000000000
(1612249095.505595) can0 525#0000000000258380
(1612249095.513541) can0 39A#20FC000BC6000000
(1612249095.513546) can0 3C0#00000BCC7FFF4401
(1612249095.513566) can0 52C#006EB000FE00A400
(1612249095.513570) can0 340#0004000000000000
(1612249095.521567) can0 3A0#4180010000000069
(1612249095.521571) can0 34A#0000000000000000
(1612249095.521574) can0 354#50CD000000000000
(1612249095.529557) can0 380#80727E03E8FFFF7F
(1612249095.529566) can0 316#81500AF07A510200
(1612249095.529569) can0 350#01FFB00700007F00
(1612249095.537567) can0 360#0000000000240052
(1612249095.545534) can0 350#01FFAFFB00007F00
(1612249095.545544) can0 360#0000000000240061
(1612249095.545547) can0 39A#20FC000B0A000000
(1612249095.553524) can0 3C5#96D0000000000000
(1612249095.553528) can0 3C9#FFFFFFFFFFFFFFFF
(1612249095.553531) can0 3CA#800880080CED806B
(1612249095.561519) can0 3A0#4180010000000078
(1612249095.561528) can0 34A#0000000000000000
(1612249095.569322) can0 380#80727E03E8FFFF7F
(1612249095.569337) can0 316#81500AF07A840200
(1612249095.569341) can0 350#01FFB00700007F00
(1612249095.577516) can0 360#000000000024009E
(1612249095.577525) can0 380#80727E03E8FFFF7F
(1612249095.585498) can0 39A#20FC000B4E000000
(1612249095.593474) can0 3CA#800F800F0CED806B
(1612249095.593478) can0 350#01FFAFEF00007F00
(1612249095.593481) can0 360#00000000002400BC
(1612249095.601464) can0 3A0#4180010000000087
(1612249095.601473) can0 34A#0000000000000000
(1612249095.601476) can0 360#00000000002400CB
(1612249095.609463) can0 380#80727E03E8FFFF7F
(1612249095.609469) can0 350#01FFB00700007F00
(1612249095.617448) can0 360#00000000002400DA
(1612249095.617459) can0 380#80737E03E8FFFF7F
(1612249095.617461) can0 397#0E0CDA7FFF3F3E00
(1612249095.625438) can0 39B#80017FFE88980000
(1612249095.625442) can0 39C#800080007FF87FFE
(1612249095.625445) can0 39D#0F008282983D8000
(1612249095.625448) can0 39A#20FC000B82000000
(1612249095.633423) can0 3CA#800F800F0CEF806B
(1612249095.633427) can0 5E1#0C000EA90EA40EA6
(1612249095.633430) can0 5E2#0C000EAC0EA90EA6
(1612249095.633433) can0 3A0#4180010000000096
(1612249095.641427) can0 340#0004000000000000
(1612249095.641430) can0 360#0000000000240007
(1612249095.649394) can0 316#81500AF07A840200
(1612249095.649400) can0 350#01FFB00700007F00
(1612249095.657396) can0 360#0000000000240016
(1612249095.657405) can0 316#81500AF07A840200
(1612249095.657420) can0 401#00007F0620000000
(1612249095.665361) can0 350#01FFAFFB00007F00
(1612249095.665365) can0 360#0000000000240025
(1612249095.665374) can0 3C0#00000BCC7FFF4401
(1612249095.673379) can0 39A#20FC000BC6000000
(1612249095.673383) can0 3CA#800F800F0CEF806B
(1612249095.673385) can0 450#0000001000000000
(1612249095.673388) can0 3A0#41800100000000A5
(1612249095.681239) can0 340#0004000000000000
(1612249095.681248) can0 360#0000000000240043
(1612249095.689363) can0 316#81500AF07A840200
(1612249095.689369) can0 350#01FFB00700007F00
(1612249095.697221) can0 360#0000000000240052
(1612249095.697230) can0 316#81500AF07A840200
(1612249095.705210) can0 433#0000000000000000
(1612249095.705219) can0 436#0080000000000000
(1612249095.705222) can0 3BA#0000000000000000
(1612249095.713170) can0 39A#20FC000B0A000000
(1612249095.713176) can0 3C0#00000BCC7FFF4401
(1612249095.713179) can0 525#0000000000258380
(1612249095.721313) can0 3A0#41800100000000B4
(1612249095.721322) can0 340#0004000000000000
(1612249095.721325) can0 360#000000000024008F
(1612249095.729315) can0 316#81500AF07A840200
(1612249095.729321) can0 350#01FFB00700007F00
(1612249095.737299) can0 360#000000000024009E
(1612249095.737309) can0 316#81500AF07A840200
(1612249095.737311) can0 350#01FFAFFB00007F00
(1612249095.745288) can0 360#00000000002400AD
(1612249095.745299) can0 316#81500AF07A840200
(1612249095.745302) can0 39A#20FC000B4E000000
(1612249095.753286) can0 3C5#96D0000000000000
(1612249095.753290) can0 3C9#FFFFFFFFFFFFFFFF
(1612249095.753293) can0 3CA#800F800F0CF6806B
(1612249095.761267) can0 3A0#41800100000000C3
(1612249095.761277) can0 340#0004000000000000
(1612249095.761280) can0 360#00000000002400CB
(1612249095.769260) can0 316#81500AF07A830200
(1612249095.769267) can0 350#01FFB00700007F00
(1612249095.777248) can0 360#00000000002400DA
(1612249095.777254) can0 350#01FFAFFB00007F00
(1612249095.785252) can0 360#00000000002400E9
(1612249095.785258) can0 39A#20FC000B82000000
(1612249095.793231) can0 3C0#00000BCC7FFF4401
(1612249095.793235) can0 3CA#800F800F0CE38074
(1612249095.793243) can0 3A0#41800100000000D2
(1612249095.801223) can0 340#0004000000000000
(1612249095.801229) can0 360#0000000000240007
(1612249095.809215) can0 316#81500AF07A9C0200
(1612249095.809222) can0 350#01FFB00700007F00
(1612249095.817214) can0 360#0000000000240016
(1612249095.825199) can0 3C0#00000BCC7FFF4401
(1612249095.833186) can0 39A#20FC000BC6000000
(1612249095.833190) can0 3CA#801380130CE38074
(1612249095.833193) can0 5E1#14000EAA0EB20EAF
(1612249095.833196) can0 3A0#41800100000000E1
(1612249095.841177) can0 340#0004000000000000
(1612249095.841183) can0 360#0000000000240043
(1612249095.849164) can0 316#81500AF07A9D0200
(1612249095.849171) can0 350#01FFB00700007F00
(1612249095.857148) can0 360#0000000000240052
(1612249095.857158) can0 316#81500AF07A840200
(1612249095.857161) can0 350#01FFAFFB00007F00
(1612249095.865116) can0 360#0000000000240061
(1612249095.865126) can0 316#81500AF07A840200
(1612249095.865129) can0 3C0#00000BCC7FFF4401
(1612249095.873132) can0 39A#20FC000B0A000000
(1612249095.873137) can0 3CA#800F800F0CED8074
(1612249095.873140) can0 450#0000001000000000
(1612249095.873142) can0 3A0#41800100000000F0
(1612249095.880935) can0 340#0004000000000000
(1612249095.880940) can0 34A#0000000000000000
(1612249095.880952) can0 360#000000000024008F
(1612249095.889117) can0 316#81500AF07A840200
(1612249095.889124) can0 350#01FFB00700007F00
(1612249095.896977) can0 360#000000000024009E
(1612249095.896986) can0 316#81500AF07A840200
(1612249095.896989) can0 433#0000000000000000
(1612249095.905092) can0 436#0080000000000000
(1612249095.905096) can0 440#0200000000000000
(1612249095.905099) can0 445#FF00030000000000
(1612249095.905106) can0 3BA#0000000000000000
(1612249095.912947) can0 39A#20FC000B4E000000
(1612249095.912954) can0 3A0#418001000000000F
(1612249095.921070) can0 340#0004000000000000
(1612249095.921074) can0 650#A000000000000000
(1612249095.921077) can0 34A#0000000000000000
(1612249095.921079) can0 360#00000000002400CB
(1612249095.929066) can0 316#81500AF07A840200
(1612249095.929073) can0 350#01FFB00700007F00
(1612249095.937046) can0 360#00000000002400DA
(1612249095.937055) can0 316#81500AF07A9D0200
(1612249095.944930) can0 3C0#00000BCC7FFF4401
(1612249095.952888) can0 39A#20FC000B82000000
(1612249095.952905) can0 3C5#96D0000000000000
(1612249095.952908) can0 3C9#FFFFFFFFFFFFFFFF
(1612249095.952911) can0 3A0#418001000000001E
(1612249095.961021) can0 340#0004000000000000
(1612249095.961025) can0 34A#0000000000000000
(1612249095.961028) can0 354#50CD000000000000
(1612249095.961031) can0 350#01FFB01300007F00
(1612249095.969012) can0 316#81500AF07A9D0200
(1612249095.984999) can0 39A#20FC000BC6000000
(1612249095.992995) can0 3C0#00000BCC7FFF4401
(1612249095.992999) can0 3CA#801380130CF2806B
(1612249095.993007) can0 39E#05817F0000000000
(1612249096.000970) can0 340#0004000000000000
(1612249096.000975) can0 3A0#418001000000002D
(1612249096.000978) can0 34A#0000000000000000
(1612249096.000981) can0 350#01FFB01300007F00
(1612249096.008962) can0 316#81500AF07A6A0200
(1612249096.024957) can0 39A#20FC000B0A000000
(1612249096.032934) can0 3C0#00000BCC7FFF4401
(1612249096.032938) can0 3CA#800C800C0CF2806B
(1612249096.032941) can0 5E1#1C000EAB0EB00EAE
(1612249096.032944) can0 39E#05817F0000000000
(1612249096.040923) can0 340#0004000000000000
(1612249096.040927) can0 3A0#418001000000003C
(1612249096.040930) can0 34A#0000000000000000
(1612249096.048907) can0 360#000000000024008F
(1612249096.048917) can0 316#81500AF07A6A0200
(1612249096.064882) can0 3C0#00000BCC7FFF4401
(1612249096.072881) can0 39A#20FC000B4E000000
(1612249096.072885) can0 3CA#800C800C0CDC806B
(1612249096.072887) can0 450#0000001000000000
(1612249096.072890) can0 3A0#418001000000004B
(1612249096.080694) can0 340#0004000000000000
(1612249096.080703) can0 34A#0000000000000000
(1612249096.080707) can0 354#50CD000000000000
(1612249096.080711) can0 350#01FFB01300007F00
(1612249096.088677) can0 316#81500AF07A9C0200
(1612249096.096750) can0 433#0000000000000000
(1612249096.104817) can0 436#0080000000000000
(1612249096.104820) can0 440#0200000000000000
(1612249096.104824) can0 445#FF00030000000000
(1612249096.104827) can0 39A#20FC000B82000000
(1612249096.112644) can0 3BA#0000000000000000
(1612249096.112648) can0 3C0#00000BCC7FFF4401
(1612249096.112651) can0 525#0000000000258380
(1612249096.112654) can0 340#0004000000000000
(1612249096.120830) can0 3A0#418001000000005A
(1612249096.120834) can0 34A#0000000000000000
(1612249096.120837) can0 650#A000000000000000
(1612249096.128703) can0 360#0000000000240007
(1612249096.128712) can0 316#81500AF07A9D0200
(1612249096.128715) can0 350#01FFB00700007F00
(1612249096.136796) can0 360#0000000000240016
(1612249096.144799) can0 350#01FFAFFB00007F00
(1612249096.144806) can0 39A#20FC000BC6000000
(1612249096.152790) can0 3C0#00000BCC7FFF4401
(1612249096.152794) can0 3C5#96D0000000000000
(1612249096.152797) can0 3C9#FFFFFFFFFFFFFFFF
(1612249096.152800) can0 3A0#4180010000000069
(1612249096.160673) can0 340#0004000000000000
(1612249096.168762) can0 360#0000000000240043
(1612249096.168772) can0 316#81500AF07A6A0200
(1612249096.176763) can0 350#01FFB00700007F00
(1612249096.184759) can0 39A#20FC000B0A000000
(1612249096.192735) can0 3C0#00000BCC7FFF4401
(1612249096.192739) can0 3CA#800C800C0CED806B
(1612249096.200734) can0 340#0004000000000000
(1612249096.200743) can0 3A0#4180010000000078
(1612249096.200746) can0 350#01FFB01300007F00
(1612249096.208717) can0 316#81500AF07A6A0200
(1612249096.216602) can0 350#01FFB00700007F00
(1612249096.216614) can0 350#01FFAFFB00007F00
(1612249096.224695) can0 316#81500AF07A9D0200
(1612249096.224701) can0 39A#20FC000B4E000000
(1612249096.232683) can0 3C0#00000BCC7FFF4401
(1612249096.232687) can0 3CA#801380130CED806B
(1612249096.232690) can0 5E1#04000EA20EA00E9F
(1612249096.240670) can0 340#0004000000000000
(1612249096.240679) can0 3A0#4180010000000087
(1612249096.240694) can0 350#01FFB01300007F00
(1612249096.248676) can0 316#81500AF07A9D0200
(1612249096.248682) can0 350#01FFB00700007F00
(1612249096.256662) can0 316#81500AF07A9D0200
(1612249096.256669) can0 350#01FFAFFB00007F00
(1612249096.264642) can0 316#81500AF07A9D0200
(1612249096.264649) can0 39A#20FC000B82000000
(1612249096.272632) can0 3C0#00000BCC7FFF4401
(1612249096.272636) can0 450#0000001000000000
(1612249096.272639) can0 3CA#801380130CF6806B
(1612249096.272641) can0 39E#05817F0000000000
(1612249096.280466) can0 340#0004000000000000
(1612249096.280474) can0 350#01FFB01300007F00
(1612249096.288624) can0 316#81500AF07A9D0200
(1612249096.288630) can0 350#01FFB00700007F00
(1612249096.296509) can0 316#81500AF07A510200
(1612249096.296516) can0 433#0000000000000000
(1612249096.304421) can0 436#0080000000000000
(1612249096.304427) can0 39A#20FC000BC6000000
(1612249096.312409) can0 3BA#0000000000000000
(1612249096.312414) can0 3C0#00000BCC7FFF4401
(1612249096.312418) can0 525#0000000000258380
(1612249096.312422) can0 39E#05817F0000000000
(1612249096.320590) can0 340#0004000000000000
(1612249096.320594) can0 350#01FFB01300007F00
(1612249096.328473) can0 316#81500AF07A510200
(1612249096.328480) can0 350#01FFB00700007F00
(1612249096.336563) can0 316#81500AF07A510200
(1612249096.336570) can0 350#01FFAFFB00007F00
(1612249096.344464) can0 316#81500AF07A510200
(1612249096.344470) can0 39A#20FC000B0A000000
(1612249096.352548) can0 3C0#00000BCC7FFF4401
(1612249096.352552) can0 3C5#96D0000000000000
(1612249096.352555) can0 3C9#FFFFFFFFFFFFFFFF
(1612249096.352558) can0 39E#05817F0000000000
(1612249096.360537) can0 340#0004000000000000
(1612249096.360543) can0 350#01FFB01300007F00
(1612249096.368507) can0 316#81500AF07A840200
(1612249096.368514) can0 350#01FFB00700007F00
(1612249096.376513) can0 316#81500AF07A840200
(1612249096.376519) can0 350#01FFAFFB00007F00
(1612249096.384511) can0 316#81500AF07A840200
(1612249096.384517) can0 3BA#0000000000000000
(1612249096.392487) can0 39A#20FC000B4E000000
(1612249096.392491) can0 3C0#00000BD67FFF4401
(1612249096.392494) can0 3CA#800F800F0CF2806B
(1612249096.392497) can0 39E#05817F0000000000
(1612249096.400492) can0 340#0004000000000000
(1612249096.400499) can0 350#01FFB01300007F00
(1612249096.408497) can0 316#81500AF07A840200
(1612249096.408504) can0 350#01FFB00700007F00
(1612249096.416473) can0 316#81500AF07A840200
(1612249096.424465) can0 39A#20FC000B82000000
(1612249096.432443) can0 3C0#00000BD67FFF4401
(1612249096.432447) can0 3CA#800F800F0CED806B
(1612249096.432450) can0 5E1#0C000EA90EA40EA6
(1612249096.432452) can0 39E#05817F0000000000
(1612249096.440436) can0 340#0004000000000000
(1612249096.440442) can0 350#01FFB01300007F00
(1612249096.448434) can0 316#81500AF07A840200
(1612249096.448441) can0 350#01FFB00700007F00
(1612249096.456423) can0 316#81500AF07A840200
(1612249096.456429) can0 350#01FFAFFB00007F00
(1612249096.464405) can0 316#81500AF07A840200
(1612249096.464412) can0 3BA#0000000000000000
(1612249096.472291) can0 39A#20FC000BC6000000
(1612249096.472295) can0 3C0#00000BD67FFF4401
(1612249096.472298) can0 450#0000001000000000
(1612249096.480260) can0 39E#05817F0000000000
(1612249096.480269) can0 340#0004000000000000
(1612249096.480272) can0 350#01FFB01300007F00
(1612249096.488378) can0 316#81500AF07A830200
(1612249096.488384) can0 350#01FFB00700007F00
(1612249096.496244) can0 316#81500AF07A510200
(1612249096.496251) can0 433#0000000000000000
(1612249096.504353) can0 436#0080000000000000
(1612249096.504357) can0 440#0200000000000000
(1612249096.504360) can0 445#FF00030000000000
(1612249096.504363) can0 39F#0004000400000032
(1612249096.512196) can0 39A#20FC000B0A000000
(1612249096.512201) can0 3BA#0000000000000000
(1612249096.512204) can0 3C0#00000BD67FFF4401
(1612249096.512208) can0 39E#05817F0000000000
(1612249096.520339) can0 340#0004000000000000
(1612249096.520346) can0 350#01FFB01300007F00
(1612249096.528229) can0 316#81500AF07A510200
(1612249096.528235) can0 350#01FFB00700007F00
(1612249096.536318) can0 316#81500AF07A510200
(1612249096.544317) can0 3BA#0000000000000000
(1612249096.552290) can0 39A#20FC000B4E000000
(1612249096.552294) can0 3C0#00000BD67FFF4401
(1612249096.552297) can0 3C5#96D0000000000000
(1612249096.552300) can0 39E#05817F0000000000
(1612249096.560287) can0 340#0004000000000000
(1612249096.560291) can0 3A0#418001000000000F
(1612249096.560294) can0 34A#0000000000000000
(1612249096.560297) can0 350#01FFB01300007F00
(1612249096.568279) can0 316#81500AF07A510200
(1612249096.576267) can0 316#81500AF07A510200
(1612249096.576277) can0 350#01FFB00700007F00
(1612249096.584254) can0 316#81500AF07A510200
(1612249096.584264) can0 350#01FFAFFB00007F00
(1612249096.584267) can0 39A#20FC000B82000000
(1612249096.592254) can0 3BA#0000000000000000
(1612249096.592260) can0 39E#05817F0000000000
(1612249096.600236) can0 340#0004000000000000
(1612249096.600240) can0 3A0#418001000000001E
(1612249096.600243) can0 34A#0000000000000000
(1612249096.600245) can0 350#01FFB01300007F00
(1612249096.608234) can0 316#81500AF07A510200
(1612249096.616216) can0 350#01FFB00700007F00
(1612249096.616225) can0 316#81500AF07A510200
(1612249096.616228) can0 397#0F0CDB7FFF3F3E00
(1612249096.624210) can0 39B#80027FFE88980000
(1612249096.624214) can0 39C#800080007FF87FFE
(1612249096.624217) can0 39D#0F008282983D8000
(1612249096.624219) can0 39A#20FC000BC6000000
(1612249096.632203) can0 3BA#0000000000000000
(1612249096.632209) can0 39E#05817F0000000000
(1612249096.640186) can0 340#0004000000000000
(1612249096.640190) can0 3A0#418001000000002D
(1612249096.640193) can0 34A#0000000000000000
(1612249096.648183) can0 350#01FFB01300007F00
(1612249096.648193) can0 316#81500AF07A510200
(1612249096.656174) can0 316#81500AF07A510200
(1612249096.656183) can0 350#01FFB00700007F00
(1612249096.672144) can0 39A#20FC000B0A000000
(1612249096.672154) can0 3BA#0000000000000000
(1612249096.672157) can0 340#0004000000000000
(1612249096.680029) can0 39E#05817F0000000000
(1612249096.680033) can0 34A#0000000000000000
(1612249096.680051) can0 3A0#418001000000003C
(1612249096.688124) can0 316#81500AF07A510200
(1612249096.688133) can0 350#01FFB01300007F00
(1612249096.696049) can0 316#81500AF07A510200
(1612249096.696059) can0 350#01FFB00700007F00
(1612249096.696062) can0 433#0000000000000000
(1612249096.704024) can0 436#0080000000000000
(1612249096.704029) can0 440#0200000000000000
(1612249096.704031) can0 445#FF00030000000000
(1612249096.711989) can0 39A#20FC000B4E000000
(1612249096.711998) can0 39F#00040004000000D8
(1612249096.712001) can0 340#0004000000000000
(1612249096.720096) can0 39E#05817F0000000000
(1612249096.720100) can0 34A#0000000000000000
(1612249096.720103) can0 3A0#418001000000004B
(1612249096.727993) can0 316#81500AF07A6A0200
(1612249096.728002) can0 350#01FFB01300007F00
(1612249096.736070) can0 316#81500AF07A6A0200
(1612249096.736079) can0 350#01FFB00700007F00
(1612249096.744057) can0 316#81500AF07A6A0200
(1612249096.744067) can0 350#01FFAFFB00007F00
(1612249096.752052) can0 39A#20FC000B82000000
(1612249096.752061) can0 3BA#0000000000000000
(1612249096.752064) can0 340#0004000000000000
(1612249096.760041) can0 39E#05817F0000000000
(1612249096.760046) can0 34A#0000000000000000
(1612249096.760048) can0 3A0#418001000000005A
(1612249096.768033) can0 316#81500AF07A6B0200
(1612249096.768043) can0 350#01FFB01300007F00
(1612249096.776022) can0 316#81500AF07AB60200
(1612249096.776031) can0 350#01FFB00700007F00
(1612249096.784051) can0 39A#20FC000BC6000000
(1612249096.792006) can0 39F#0004000400000014
(1612249096.792012) can0 340#0004000000000000
(1612249096.800025) can0 39E#05817F0000000000
(1612249096.800029) can0 34A#0000000000000000
(1612249096.800031) can0 3A0#4180010000000069
(1612249096.807983) can0 316#81500AF07AB60200
(1612249096.807992) can0 350#01FFB01300007F00
(1612249096.815980) can0 316#81500AF07AB60200
(1612249096.815990) can0 350#01FFB00700007F00
(1612249096.824018) can0 3BA#0000000000000000
(1612249096.824027) can0 316#81500AF07AB60200
(1612249096.824042) can0 39A#20FC000B0A000000
(1612249096.831958) can0 39F#0004000400000032
(1612249096.831964) can0 340#0004000000000000
(1612249096.839950) can0 39E#05817F0000000000
(1612249096.839954) can0 34A#0000000000000000
(1612249096.839957) can0 3A0#4180010000000078
(1612249096.847937) can0 316#81500AF07AB60200
(1612249096.847947) can0 350#01FFB01300007F00
(1612249096.847950) can0 401#00007F0620000000
(1612249096.855992) can0 316#81500AF07A840200
(1612249096.855999) can0 3BA#0000000000000000
(1612249096.863931) can0 316#81500AF07A840200
(1612249096.871826) can0 39A#20FC000B4E000000
(1612249096.871836) can0 3C0#00000BD67FFF4401
(1612249096.871838) can0 340#0004000000000000
(1612249096.879818) can0 39E#05817F0000000000
(1612249096.879823) can0 34A#0000000000000000
(1612249096.879826) can0 3A0#4180010000000087
(1612249096.879829) can0 3BA#0000000000000000
(1612249096.887809) can0 316#81500AF07A840200
(1612249096.887816) can0 3C5#96D0000000000000
(1612249096.895738) can0 316#81500AF07A840200
(1612249096.895745) can0 433#0000000000000000
(1612249096.903749) can0 436#0080000000000000
(1612249096.903755) can0 39E#05817F0000000000
(1612249096.911698) can0 39A#20FC000B82000000
(1612249096.911704) can0 340#0004000000000000
(1612249096.919700) can0 38A#00000000000000FE
(1612249096.919705) can0 34A#0000000000000000
(1612249096.919707) can0 3A0#4180010000000096
(1612249096.927678) can0 316#81500AF07A510200
(1612249096.927688) can0 350#01FFB01300007F00
(1612249096.935676) can0 316#81500AF07A510200
(1612249096.935685) can0 39E#05817F0000000000
(1612249096.935688) can0 3BA#0000000000000000
(1612249096.943669) can0 316#81500AF07A510200
(1612249096.943675) can0 39A#20FC000BC6000000
(1612249096.951675) can0 3C0#00000BD67FFF4401
(1612249096.951679) can0 340#0004000000000000
(1612249096.959640) can0 39E#05817F0000000000
(1612249096.959644) can0 34A#0000000000000000
(1612249096.959647) can0 3A0#41800100000000A5
(1612249096.967631) can0 316#81500AF07A510200
(1612249096.967641) can0 350#01FFB01300007F00
(1612249096.975634) can0 316#81500AF07A510200
(1612249096.975643) can0 350#01FFB00700007F00
(1612249096.975646) can0 3BA#0000000000000000
(1612249096.983679) can0 316#81500AF07A510200
(1612249096.991613) can0 39A#20FC000B0A000000
(1612249096.991625) can0 3C0#00000BD67FFF4401
(1612249096.991628) can0 340#0004000000000000
(1612249096.999611) can0 39E#05817F0000000000
(1612249096.999616) can0 34A#0000000000000000
(1612249096.999620) can0 3A0#41800100000000B4
(1612249097.007624) can0 316#81500AF07A830200
(1612249097.007633) can0 350#01FFB01300007F00
(1612249097.015704) can0 316#81500AF07A830200
(1612249097.015713) can0 350#01FFB00700007F00
(1612249097.023619) can0 3BA#0000000000000000
(1612249097.031599) can0 39A#20FC000B4E000000
(1612249097.031609) can0 3C0#00000BD67FFF4401
(1612249097.031612) can0 340#0004000000000000
(1612249097.039595) can0 39E#05817F0000000000
(1612249097.039599) can0 34A#0000000000000000
(1612249097.039602) can0 3A0#41800100000000C3
(1612249097.039605) can0 3C5#96D0000000000000
(1612249097.047629) can0 316#81500AF07A840200
(1612249097.047636) can0 401#00007F0620000000
(1612249097.055617) can0 316#81500AF07A840200
(1612249097.055623) can0 3BA#0000000000000000
(1612249097.063607) can0 316#81500AF07A840200
(1612249097.063614) can0 39A#20FC000B82000000
(1612249097.071584) can0 3C0#00000BD67FFF4401
(1612249097.071592) can0 340#0004000000000000
(1612249097.079590) can0 38A#00000000000000FE
(1612249097.079594) can0 34A#0000000000000000
(1612249097.079597) can0 3A0#41800100000000D2
(1612249097.087524) can0 316#81500AF07A840200
(1612249097.087532) can0 350#01FFB01300007F00
(1612249097.087535) can0 3C5#96D0000000000000
(1612249097.095476) can0 3C9#FFFFFFFFFFFFFFFF
(1612249097.095488) can0 316#81500AF07A830200
(1612249097.095492) can0 433#0000000000000000
(1612249097.103465) can0 436#0080000000000000
(1612249097.103470) can0 440#0200000000000000
(1612249097.103474) can0 445#FF00030000000000
(1612249097.111511) can0 39F#0004000400000014
(1612249097.111520) can0 3C0#00000BD67FFF4401
(1612249097.111522) can0 340#0004000000000000
(1612249097.119445) can0 39E#05817F0000000000
(1612249097.119461) can0 34A#0000000000000000
(1612249097.119465) can0 3A0#41800100000000E1
(1612249097.127449) can0 316#81500AF07A830200
(1612249097.127459) can0 350#01FFB01300007F00
(1612249097.135434) can0 316#81500AF07A510200
(1612249097.135446) can0 350#01FFB00700007F00
(1612249097.143449) can0 39A#20FC000B0A000000
(1612249097.151416) can0 39F#0004000400000032
(1612249097.151425) can0 340#0004000000000000
(1612249097.159427) can0 39E#05817F0000000000
(1612249097.159432) can0 34A#0000000000000000
(1612249097.159436) can0 3A0#41800100000000F0
(1612249097.167430) can0 316#81500AF07A510200
(1612249097.167441) can0 350#01FFB01300007F00
(1612249097.175453) can0 316#81500AF07A510200
(1612249097.175465) can0 39E#05817F0000000000
(1612249097.175468) can0 3BA#0000000000000000
(1612249097.183466) can0 316#81500AF07A510200
(1612249097.183475) can0 39A#20FC000B4E000000
(1612249097.191462) can0 3C0#00000BD67FFF4401
(1612249097.191471) can0 340#0004000000000000
(1612249097.199363) can0 38A#00000000000000B2
(1612249097.199368) can0 34A#0000000000000000
(1612249097.199371) can0 3A0#418001000000000F
(1612249097.207449) can0 316#81500AF07A6A0200
(1612249097.207461) can0 350#01FFB01300007F00
(1612249097.215341) can0 316#81500AF07A6A0200
(1612249097.215353) can0 39E#05817F0000000000
(1612249097.215357) can0 3BA#0000000000000000
(1612249097.223338) can0 316#81500AF07A6A0200
(1612249097.223347) can0 39A#20FC000B82000000
(1612249097.231325) can0 3C0#00000BD67FFF4401
(1612249097.231331) can0 3CA#800C800C0CEF806B
(1612249097.231336) can0 5E1#0C000EA60EA70EA7
(1612249097.231342) can0 340#0004000000000000
(1612249097.239355) can0 38A#00000000000000FE
(1612249097.239360) can0 34A#0000000000000000
(1612249097.239363) can0 3A0#418001000000001E
(1612249097.247332) can0 316#81500AF07A6B0200
(1612249097.247344) can0 39E#05817F0000000000
(1612249097.255298) can0 316#81500AF07A6B0200
(1612249097.255309) can0 39E#05817F0000000000
(1612249097.263347) can0 39A#20FC000BC6000000
(1612249097.271272) can0 3C0#00000BD67FFF4401
(1612249097.271277) can0 450#0000001000000000
(1612249097.271279) can0 3CA#800C800C0CF4806B
(1612249097.271283) can0 340#0004000000000000
(1612249097.279317) can0 38A#000000000000003A
(1612249097.279321) can0 34A#0000000000000000
(1612249097.279324) can0 3A0#418001000000002D
(1612249097.287254) can0 316#81500AF07A840200
(1612249097.287263) can0 39E#05817F0000000000
(1612249097.295264) can0 3C5#96D0000000000000
(1612249097.295268) can0 3C9#FFFFFFFFFFFFFFFF
(1612249097.295272) can0 433#0000000000000000
(1612249097.303234) can0 436#0080000000000000
(1612249097.303239) can0 440#0200000000000000
(1612249097.303241) can0 445#FF00030000000000
(1612249097.303244) can0 39A#20FC000B0A000000
(1612249097.311326) can0 39F#00040004000000BA
(1612249097.311330) can0 3C0#00000BD67FFF4401
(1612249097.311333) can0 525#0000000000258380
(1612249097.311336) can0 340#0004000000000000
(1612249097.319322) can0 38A#0000000000000076
(1612249097.319326) can0 34A#0000000000000000
(1612249097.319330) can0 3A0#418001000000003C
(1612249097.327353) can0 316#81500AF07A840200
(1612249097.327365) can0 39E#05817F0000000000
(1612249097.343334) can0 39A#20FC000B4E000000
(1612249097.351458) can0 3C0#00000BD67FFF4401
(1612249097.351462) can0 3CA#801380130CEF806B
(1612249097.351471) can0 340#0004000000000000
(1612249097.359281) can0 38A#00000000000000B2
(1612249097.359285) can0 34A#0000000000000000
(1612249097.359288) can0 3A0#418001000000004B
(1612249097.367290) can0 316#81500AF07A9D0200
(1612249097.367299) can0 39E#05817F0000000000
(1612249097.383228) can0 3BA#0000000000000000
(1612249097.383232) can0 39A#20FC000B82000000
(1612249097.391195) can0 3C0#00000BD67FFF4401
(1612249097.391199) can0 3CA#801380130CF98074
(1612249097.391203) can0 3C5#96D0000000000000
(1612249097.391206) can0 340#0004000000000000
(1612249097.399167) can0 38A#00000000000000FE
(1612249097.399171) can0 34A#0000000000000000
(1612249097.399174) can0 3A0#418001000000005A
(1612249097.399177) can0 316#81500AF07A9D0200
(1612249097.407134) can0 39E#05817F0000000000
(1612249097.415359) can0 3BA#0000000000000000
(1612249097.423189) can0 39A#20FC000BC6000000
(1612249097.431309) can0 3C0#00000BD67FFF4401
(1612249097.431313) can0 3CA#800F800F0CF98074
(1612249097.431316) can0 5E1#14000EA90EB20EB0
(1612249097.431319) can0 340#0004000000000000
(1612249097.439093) can0 38A#000000000000003A
(1612249097.439097) can0 34A#0000000000000000
(1612249097.447080) can0 316#81500AF07A840200
(1612249097.447094) can0 39E#05817F0000000000
(1612249097.455079) can0 3BA#0000000000000000
(1612249097.463078) can0 39A#20FC000B0A000000
(1612249097.471070) can0 3C0#00000BD67FFF4401
(1612249097.471076) can0 450#0000001000000000
(1612249097.471079) can0 3CA#800F800F0D038074
(1612249097.479042) can0 340#0004000000000000
(1612249097.479047) can0 38A#0000000000000076
(1612249097.479051) can0 34A#0000000000000000
(1612249097.487032) can0 316#81500AF07A840200
(1612249097.487044) can0 39E#05817F0000000000
(1612249097.487048) can0 3C5#96D0000000000000
(1612249097.495013) can0 3C9#FFFFFFFFFFFFFFFF
(1612249097.495021) can0 316#81500AF07A510200
(1612249097.495023) can0 433#0000000000000000
(1612249097.502997) can0 436#0080000000000000
(1612249097.502999) can0 39A#20FC000B4E000000
(1612249097.510986) can0 39F#0004000400000050
(1612249097.510987) can0 3C0#00000BD67FFF4401
(1612249097.510989) can0 525#0000000000258380
(1612249097.519037) can0 340#0004000000000000
(1612249097.519040) can0 38A#00000000000000B2
(1612249097.526965) can0 316#81500AF07A510200
(1612249097.526969) can0 39E#05817F0000000000
(1612249097.535028) can0 316#81500AF07A510200
(1612249097.535039) can0 39E#05817F0000000000
(1612249097.535043) can0 3BA#0000000000000000
(1612249097.543023) can0 3C5#96D0000000000000
(1612249097.543027) can0 3C9#FFFFFFFFFFFFFFFF
(1612249097.543030) can0 5CF#0001000000060000
(1612249097.543033) can0 39A#20FC000B82000000
(1612249097.551002) can0 3C0#00000BD67FFF4401
(1612249097.551006) can0 3CA#800880080CF4806B
(1612249097.551009) can0 401#00007F0620000000
(1612249097.558999) can0 340#0004000000000000
(1612249097.559009) can0 38A#00000000000000FE
(1612249097.566985) can0 316#81500AF07A510200
(1612249097.566994) can0 39E#05817F0000000000
(1612249097.575002) can0 316#81500AF07A840200
(1612249097.575011) can0 39E#05817F0000000000
(1612249097.575014) can0 3BA#0000000000000000
(1612249097.583154) can0 316#81500AF07A840200
(1612249097.583161) can0 39A#20FC000BC6000000
(1612249097.590910) can0 3C0#00000BD67FFF4401
(1612249097.590917) can0 340#0004000000000000
(1612249097.598897) can0 38A#000000000000003A
(1612249097.598901) can0 34A#0000000000000000
(1612249097.598904) can0 3A0#41800100000000A5
(1612249097.606966) can0 316#81500AF07A840200
(1612249097.606975) can0 39E#05817F0000000000
(1612249097.614959) can0 316#81500AF07A830200
(1612249097.614968) can0 39E#05817F0000000000
(1612249097.614971) can0 397#000CDB7FFF3E3E00
(1612249097.622956) can0 39B#80007FFE88980000
(1612249097.622963) can0 39A#20FC000B0A000000
(1612249097.631106) can0 3C0#00000BD67FFF4401
(1612249097.631110) can0 3CA#800F800F0CE8806B
(1612249097.631113) can0 5E1#1C000EAA0EB00EAF
(1612249097.631116) can0 340#0004000000000000
(1612249097.639090) can0 38A#0000000000000076
(1612249097.639094) can0 34A#0000000000000000
(1612249097.639097) can0 3A0#41800100000000B4
(1612249097.647046) can0 316#81500AF07A6A0200
(1612249097.647056) can0 39E#05817F0000000000
(1612249097.655084) can0 316#81500AF07A6A0200
(1612249097.662912) can0 39A#20FC000B4E000000
(1612249097.671039) can0 3C0#00000BD67FFF4401
(1612249097.671043) can0 450#0000001000000000
(1612249097.671047) can0 3CA#800C800C0CE8806B
(1612249097.671050) can0 340#0004000000000000
(1612249097.678968) can0 38A#00000000000000B2
(1612249097.678972) can0 34A#0000000000000000
(1612249097.678975) can0 3A0#41800100000000C3
(1612249097.687028) can0 316#81500AF07A6A0200
(1612249097.687038) can0 39E#05817F0000000000
(1612249097.687041) can0 3C5#96D0000000000000
(1612249097.694801) can0 3C9#FFFFFFFFFFFFFFFF
(1612249097.694813) can0 316#81500AF07A6A0200
(1612249097.703002) can0 433#0000000000000000
(1612249097.703024) can0 436#0080000000000000
(1612249097.703027) can0 39A#20FC000B82000000
(1612249097.710852) can0 39F#00040004000000F6
(1612249097.710856) can0 3C0#00000BD67FFF4401
(1612249097.710859) can0 525#0000000000258380
(1612249097.710861) can0 340#0004000000000000
(1612249097.718997) can0 38A#00000000000000FE
(1612249097.719001) can0 34A#0000000000000000
(1612249097.719004) can0 3A0#41800100000000D2
(1612249097.726752) can0 316#81500AF07A6A0200
(1612249097.726762) can0 39E#05817F0000000000
(1612249097.734973) can0 316#81500AF07A6A0200
(1612249097.734983) can0 39E#05817F0000000000
(1612249097.742973) can0 39A#20FC000BC6000000
(1612249097.750961) can0 3C0#00000BD67FFF4401
(1612249097.750965) can0 3CA#800C800C0CED806B
(1612249097.750968) can0 401#00007F0620000000
(1612249097.750971) can0 340#0004000000000000
(1612249097.758948) can0 38A#000000000000003A
(1612249097.758952) can0 34A#0000000000000000
(1612249097.758954) can0 3A0#41800100000000E1
(1612249097.766948) can0 316#81500AF07A6A0200
(1612249097.766958) can0 39E#05817F0000000000
(1612249097.782937) can0 39A#20FC000B0A000000
(1612249097.790913) can0 3C0#00000BD67FFF4401
(1612249097.790917) can0 3CA#801380130CED806B
(1612249097.790925) can0 340#0004000000000000
(1612249097.798892) can0 38A#0000000000000076
(1612249097.798897) can0 34A#0000000000000000
(1612249097.798900) can0 3A0#41800100000000F0
(1612249097.806888) can0 316#81500AF07A9D0200
(1612249097.806897) can0 39E#05817F0000000000
(1612249097.814859) can0 316#81500AF07A9D0200
(1612249097.814868) can0 39E#05817F0000000000
(1612249097.822876) can0 3BA#0000000000000000
(1612249097.822879) can0 39A#20FC000B4E000000
(1612249097.830859) can0 3C0#00000BD67FFF4401
(1612249097.830863) can0 3CA#801380130CF9806B
(1612249097.830866) can0 5E1#04000EA10EA00E9F
(1612249097.830869) can0 340#0004000000000000
(1612249097.838806) can0 38A#00000000000000B2
(1612249097.838810) can0 34A#0000000000000000
(1612249097.838814) can0 3A0#418001000000000F
(1612249097.838817) can0 316#81500AF07A9D0200
(1612249097.846832) can0 39E#05817F0000000000
(1612249097.862799) can0 3BA#0000000000000000
(1612249097.862802) can0 39A#20FC000B82000000
(1612249097.870808) can0 3C0#00000BD67FFF4401
(1612249097.870812) can0 450#0000001000000000
(1612249097.870815) can0 3CA#800C800C0CF9806B
(1612249097.870818) can0 340#0004000000000000
(1612249097.878739) can0 38A#00000000000000FE
(1612249097.878743) can0 34A#0000000000000000
(1612249097.878746) can0 3A0#418001000000001E
(1612249097.878749) can0 316#81500AF07A6B0200
(1612249097.886808) can0 39E#05817F0000000000
(1612249097.886814) can0 3C5#96D0000000000000
(1612249097.894568) can0 3C9#FFFFFFFFFFFFFFFF
(1612249097.894586) can0 433#0000000000000000
(1612249097.902769) can0 436#0080000000000000
(1612249097.902773) can0 440#0200000000000000
(1612249097.902776) can0 445#FF00030000000000
(1612249097.902779) can0 39A#20FC000BC6000000
(1612249097.910617) can0 39F#000400040000009C
(1612249097.910620) can0 3C0#00000BD67FFF4401
(1612249097.910623) can0 525#0000000000108100
(1612249097.910627) can0 340#0004000000000000
(1612249097.918611) can0 380#80727E03EDFFFF7F
(1612249097.918614) can0 34A#0000000000000000
(1612249097.918617) can0 38A#000000000000003A
(1612249097.926574) can0 316#81500AF07A9D0200
(1612249097.926584) can0 39E#05817F0000000000
(1612249097.934749) can0 3BA#0000000000000000
(1612249097.942724) can0 3C5#96D0000000000000
(1612249097.942728) can0 3C9#FFFFFFFFFFFFFFFF
(1612249097.942736) can0 39A#20FC000B0A000000
(1612249097.950713) can0 3C0#00000BD67FFF4401
(1612249097.950717) can0 401#00007F0620000000
(1612249097.950721) can0 3CA#801380130CED806B
(1612249097.950724) can0 340#0004000000000000
(1612249097.958686) can0 38A#0000000000000076
(1612249097.958689) can0 34A#0000000000000000
(1612249097.958692) can0 316#81500AF07A9D0200
(1612249097.966711) can0 39E#05817F0000000000
(1612249097.974535) can0 316#81500AF07A9D0200
(1612249097.982692) can0 39A#20FC000B4E000000
(1612249097.990668) can0 3C0#00000BD67FFF4401
(1612249097.990672) can0 3CA#801380130CE8806B
(1612249097.990675) can0 3C5#96D0000000000000
(1612249097.990691) can0 380#80727E03E8FFFF7F
(1612249097.998666) can0 340#0004000000000000
(1612249098.006631) can0 316#81500AF07A9D0200
(1612249098.006640) can0 39E#05817F0000000000
(1612249098.014644) can0 316#81500AF07A9D0200
(1612249098.014654) can0 39E#05817F0000000000
(1612249098.014657) can0 3BA#0000000000000000
(1612249098.022615) can0 316#81500AF07A9D0200
(1612249098.022621) can0 39A#20FC000B82000000
(1612249098.030624) can0 3C0#00000BD67FFF4401
(1612249098.030628) can0 3CA#801380130CE8806B
(1612249098.030631) can0 5E1#0C000EA90EA40EA5
(1612249098.030634) can0 380#80737E03E8FFFF7F
(1612249098.038612) can0 340#0004000000000000
(1612249098.038616) can0 38A#00000000000000FE
(1612249098.038619) can0 34A#0000000000000000
(1612249098.046439) can0 316#81500AF07A9D0200
(1612249098.046448) can0 39E#05817F0000000000
(1612249098.054430) can0 316#81500AF07A9D0200
(1612249098.054439) can0 39E#05817F0000000000
(1612249098.054442) can0 3BA#0000000000000000
(1612249098.062572) can0 316#81500AF07A9D0200
(1612249098.070605) can0 39A#20FC000BC6000000
(1612249098.070614) can0 3C0#00000BD67FFF4401
(1612249098.070617) can0 340#0004000000000000
(1612249098.078526) can0 380#80727E03EDFFFF7F
(1612249098.078529) can0 34A#0000000000000000
(1612249098.078532) can0 38A#000000000000003A
(1612249098.086563) can0 316#81500AF07A9D0200
(1612249098.086572) can0 39E#05817F0000000000
(1612249098.086576) can0 3C9#FFFFFFFFFFFFFFFF
(1612249098.094339) can0 316#81500AF07A9D0200
(1612249098.094345) can0 433#0000000000000000
(1612249098.102548) can0 436#0080000000000000
(1612249098.110397) can0 39F#0004000400000032
(1612249098.110409) can0 3C0#00000BD67FFF4401
(1612249098.110413) can0 340#0004000000000000
(1612249098.118529) can0 38A#0000000000000076
(1612249098.118533) can0 34A#0000000000000000
(1612249098.118536) can0 3A0#4180010000000078
(1612249098.126351) can0 316#81500AF07A9D0200
(1612249098.126360) can0 39E#05817F0000000000
(1612249098.134503) can0 316#81500AF07A9D0200
(1612249098.134513) can0 39E#05817F0000000000
(1612249098.134515) can0 3BA#0000000000000000
(1612249098.142501) can0 3C5#96D0000000000000
(1612249098.142505) can0 3C9#FFFFFFFFFFFFFFFF
(1612249098.142513) can0 39A#20FC000B4E000000
(1612249098.150493) can0 3C0#00000BD67FFF4401
(1612249098.150499) can0 340#0004000000000000
(1612249098.158485) can0 38A#00000000000000B2
(1612249098.158489) can0 34A#0000000000000000
(1612249098.158493) can0 354#50CD000000000000
(1612249098.166468) can0 316#81500AF07A9D0200
(1612249098.166478) can0 39E#05817F0000000000
(1612249098.174462) can0 316#81500AF07A9D0200
(1612249098.174472) can0 39E#05817F0000000000
(1612249098.182468) can0 39A#20FC000B82000000
(1612249098.190446) can0 3C0#00000BD67FFF4401
(1612249098.190450) can0 3CA#801380130CED806B
(1612249098.190459) can0 340#0004000000000000
(1612249098.198434) can0 38A#00000000000000FE
(1612249098.198438) can0 34A#0000000000000000
(1612249098.198441) can0 354#50CD000000000000
(1612249098.206427) can0 316#81500AF07A9D0200
(1612249098.206437) can0 39E#05817F0000000000
(1612249098.222421) can0 3BA#0000000000000000
(1612249098.222424) can0 39A#20FC000BC6000000
(1612249098.230366) can0 3C0#00000BD67FFF4401
(1612249098.230370) can0 3CA#801380130CEA806B
(1612249098.230373) can0 5E1#14000EAA0EB20EAE
(1612249098.230376) can0 340#0004000000000000
(1612249098.238391) can0 38A#000000000000003A
(1612249098.238394) can0 34A#0000000000000000
(1612249098.238397) can0 354#50CD000000000000
(1612249098.246393) can0 316#81500AF07A9D0200
(1612249098.246403) can0 39E#05817F0000000000
(1612249098.262335) can0 3BA#0000000000000000
(1612249098.262348) can0 39A#20FC000B0A000000
(1612249098.270348) can0 3C0#00000BD67FFF4401
(1612249098.270352) can0 450#0000001000000000
(1612249098.270355) can0 3CA#801380130CED806B
(1612249098.270358) can0 340#0004000000000000
(1612249098.278300) can0 38A#0000000000000076
(1612249098.278304) can0 34A#0000000000000000
(1612249098.278307) can0 354#50CD000000000000
(1612249098.286329) can0 316#81500AF07A9D0200
(1612249098.286351) can0 39E#05817F0000000000
(1612249098.294135) can0 433#0000000000000000
(1612249098.302323) can0 436#0080000000000000
(1612249098.302327) can0 440#0200000000000000
(1612249098.302330) can0 445#FF00030000000000
(1612249098.302334) can0 39A#20FC000B4E000000
(1612249098.310121) can0 39F#00040004000000D8
(1612249098.310127) can0 3C0#00000BD67FFF4401
(1612249098.310131) can0 525#0000000000108100
(1612249098.310136) can0 340#0004000000000000
(1612249098.318296) can0 38A#00000000000000B2
(1612249098.318300) can0 34A#0000000000000000
(1612249098.318302) can0 650#A000000000000000
(1612249098.326085) can0 316#81500AF07A9D0200
(1612249098.326095) can0 39E#05817F0000000000
(1612249098.334283) can0 316#81500AF07A9D0200
(1612249098.334293) can0 39E#05817F0000000000
(1612249098.342292) can0 3BA#0000000000000000
(1612249098.342296) can0 39A#20FC000B82000000
(1612249098.350265) can0 3C0#00000BD67FFF4401
(1612249098.350269) can0 401#00007F0620000000
(1612249098.350272) can0 3CA#801380130CF6806B
(1612249098.350275) can0 380#80727E03E8FFFF7F
(1612249098.358245) can0 34A#0000000000000000
(1612249098.358249) can0 38A#00000000000000FE
(1612249098.358252) can0 354#50CD000000000000
(1612249098.366249) can0 316#81500AF07A9D0200
(1612249098.366259) can0 39E#05817F0000000000
(1612249098.374231) can0 316#81500AF07A9D0200
(1612249098.374240) can0 39E#05817F0000000000
(1612249098.374244) can0 3BA#0000000000000000
(1612249098.382233) can0 316#81500AF07A9D0200
(1612249098.382239) can0 39A#20FC000BC6000000
(1612249098.390209) can0 3C0#00000BD67FFF4401
(1612249098.390218) can0 3CA#801380130CF6806B
(1612249098.390221) can0 380#80707E03E8FFFF7F
(1612249098.398199) can0 34A#0000000000000000
(1612249098.398203) can0 38A#000000000000003A
(1612249098.398206) can0 354#50CD000000000000
(1612249098.406188) can0 316#81500AF07A9D0200
(1612249098.406196) can0 39E#05817F0000000000
(1612249098.414154) can0 316#81500AF07A9C0200
(1612249098.414163) can0 39E#05817F0000000000
(1612249098.414167) can0 3BA#0000000000000000
(1612249098.422186) can0 316#81500AF07A9C0200
(1612249098.422192) can0 39A#20FC000B0A000000
(1612249098.430176) can0 3C0#00000BD67FFF4401
(1612249098.430196) can0 380#80737E03E8FFFF7F
(1612249098.438164) can0 34A#0000000000000000
(1612249098.438168) can0 38A#0000000000000076
(1612249098.438171) can0 354#50CD000000000000
(1612249098.446139) can0 316#81500AF07A9C0200
(1612249098.446149) can0 39E#05817F0000000000
(1612249098.454140) can0 316#81500AF07A9C0200
(1612249098.454149) can0 39E#05817F0000000000
(1612249098.462124) can0 39A#20FC000B4E000000
(1612249098.470130) can0 3C0#00000BD67FFF4401
(1612249098.470136) can0 380#80727E03E8FFFF7F
(1612249098.477979) can0 34A#0000000000000000
(1612249098.477983) can0 38A#00000000000000B2
(1612249098.477986) can0 354#50CD000000000000
(1612249098.486115) can0 316#81500AF07A9D0200
(1612249098.486124) can0 39E#05817F0000000000
(1612249098.493963) can0 316#81500AF07AB60200
(1612249098.493972) can0 39E#05817F0000000000
(1612249098.502093) can0 433#0000000000000000
(1612249098.502097) can0 436#0080000000000000
(1612249098.502106) can0 39A#20FC000B82000000
(1612249098.509863) can0 39F#000400040000007E
(1612249098.509867) can0 3C0#00000BD67FFF4401
(1612249098.509871) can0 525#0000000000108100
(1612249098.509874) can0 380#80727E03E8FFFF7F
(1612249098.518067) can0 34A#0000000000000000
(1612249098.518071) can0 38A#00000000000000FE
(1612249098.518074) can0 354#50CD000000000000
(1612249098.525895) can0 316#81500AF07AB60200
(1612249098.525904) can0 39E#05817F0000000000
(1612249098.534050) can0 316#81500AF07AB60200
(1612249098.534059) can0 39E#05817F0000000000
(1612249098.542070) can0 3BA#0000000000000000
(1612249098.542074) can0 3C5#96D0000000000000
(1612249098.542077) can0 3C9#FFFFFFFFFFFFFFFF
(1612249098.542080) can0 39F#000400040000009C
(1612249098.550022) can0 3C0#00000BD67FFF4401
(1612249098.550026) can0 3CA#801780170CE8806B
(1612249098.550035) can0 380#80727E03E8FFFF7F
(1612249098.557803) can0 34A#0000000000000000
(1612249098.557807) can0 38A#000000000000003A
(1612249098.557810) can0 354#50CD000000000000
(1612249098.565837) can0 316#81500AF07AB60200
(1612249098.565846) can0 39E#05817F0000000000
(1612249098.573797) can0 316#81500AF07A830200
(1612249098.573808) can0 39E#05817F0000000000
(1612249098.581856) can0 39A#20FC000B0A000000
(1612249098.589855) can0 3C0#00000BD67FFF4401
(1612249098.589860) can0 3CA#800F800F0CE8806B
(1612249098.589871) can0 380#80727E03E8FFFF7F
(1612249098.597812) can0 34A#0000000000000000
(1612249098.597816) can0 38A#0000000000000076
(1612249098.597819) can0 354#50CD000000000000
(1612249098.605955) can0 316#81500AF07A830200
(1612249098.605964) can0 39E#05817F0000000000
(1612249098.613763) can0 316#81500AF07A830200
(1612249098.621957) can0 39B#80037FFE88980000
(1612249098.621966) can0 39C#800080007FF97FFE
(1612249098.621969) can0 39A#20FC000B4E000000
(1612249098.629725) can0 3C0#00000BD67FFF4401
(1612249098.629728) can0 3CA#800F800F0CE3806B
(1612249098.629733) can0 5E1#04000E9C0E9F0EA2
(1612249098.629735) can0 380#80727E03E8FFFF7F
(1612249098.637797) can0 34A#0000000000000000
(1612249098.637801) can0 38A#00000000000000B2
(1612249098.637803) can0 354#50CD000000000000
(1612249098.645715) can0 316#81500AF07A830200
(1612249098.645724) can0 39E#05817F0000000000
(1612249098.653771) can0 316#81500AF07A510200
(1612249098.653780) can0 39E#05817F0000000000
(1612249098.661771) can0 3BA#0000000000000000
(1612249098.661777) can0 39A#20FC000B82000000
(1612249098.669740) can0 3C0#00000BD67FFF4401
(1612249098.669744) can0 450#0000001000000000
(1612249098.669748) can0 3CA#800880080CE38074
(1612249098.669751) can0 380#80727E03E8FFFF7F
(1612249098.677800) can0 34A#0000000000000000
(1612249098.677805) can0 38A#00000000000000FE
(1612249098.677810) can0 354#50CD000000000000
(1612249098.685805) can0 316#81500AF07A510200
(1612249098.685818) can0 39E#05817F0000000000
(1612249098.693817) can0 433#0000000000000000
(1612249098.701944) can0 436#0080000000000000
(1612249098.701953) can0 39A#20FC000BC6000000
(1612249098.709706) can0 39F#0004000400000014
(1612249098.709711) can0 3C0#00000BD67FFF4401
(1612249098.709715) can0 525#0000000000108100
(1612249098.709719) can0 380#80727E03E8FFFF7F
(1612249098.717729) can0 34A#0000000000000000
(1612249098.717734) can0 38A#000000000000003A
(1612249098.717739) can0 354#50CD000000000000
(1612249098.725776) can0 316#81500AF07A9D0200
(1612249098.725788) can0 39E#05817F0000000000
(1612249098.733855) can0 316#81500AF07A9D0200
(1612249098.733861) can0 3BA#0000000000000000
(1612249098.741743) can0 3C5#96D0000000000000
(1612249098.741750) can0 3C9#FFFFFFFFFFFFFFFF
(1612249098.741759) can0 39A#20FC000B0A000000
(1612249098.749690) can0 3C0#00000BD67FFF4401
(1612249098.749699) can0 3CA#801380130CED8074
(1612249098.749709) can0 380#80727E03E8FFFF7F
(1612249098.757588) can0 34A#0000000000000000
(1612249098.757593) can0 38A#0000000000000076
(1612249098.757596) can0 354#50CD000000000000
(1612249098.765624) can0 316#81500AF07A9D0200
(1612249098.765633) can0 39E#05817F0000000000
(1612249098.773620) can0 3BA#0000000000000000
(1612249098.781577) can0 39A#20FC000B4E000000
(1612249098.789617) can0 3C0#00000BD67FFF4401
(1612249098.789621) can0 3CA#801380130CEF8074
(1612249098.789629) can0 380#80727E03E8FFFF7F
(1612249098.797603) can0 34A#0000000000000000
(1612249098.797607) can0 38A#00000000000000B2
(1612249098.797610) can0 354#50CD000000000000
(1612249098.805538) can0 316#81500AF07A840200
(1612249098.805549) can0 39E#05817F0000000000
(1612249098.821575) can0 3BA#0000000000000000
(1612249098.821579) can0 39A#20FC000B82000000
(1612249098.829577) can0 3C0#00000BD67FFF4401
(1612249098.829579) can0 3CA#800F800F0CEF8074
(1612249098.829581) can0 5E1#0C000EA90EA30EA7
(1612249098.829583) can0 380#80737E03E8FFFF7F
(1612249098.837706) can0 34A#0000000000000000
(1612249098.837708) can0 38A#00000000000000FE
(1612249098.837710) can0 354#50CD000000000000
(1612249098.845532) can0 316#81500AF07A830200
(1612249098.845538) can0 39E#05817F0000000000
(1612249098.853539) can0 3BA#0000000000000000
(1612249098.861499) can0 39A#20FC000BC6000000
(1612249098.869513) can0 39F#000400040000009C
(1612249098.869522) can0 3C0#00000BD67FFF4401
(1612249098.869524) can0 45E#0000100000100000
(1612249098.869525) can0 34A#0000000000000000
(1612249098.877474) can0 380#80727E03EDFFFF7F
(1612249098.877476) can0 354#50CD000000000000
(1612249098.877478) can0 38A#000000000000003A
(1612249098.877480) can0 316#81500AF07A830200
(1612249098.885500) can0 39E#05817F0000000000
(1612249098.893487) can0 433#0000000000000000
(1612249098.901475) can0 436#0080000000000000
(1612249098.901478) can0 440#0200000000000000
(1612249098.901479) can0 3BA#0000000000000000
(1612249098.901481) can0 39A#20FC000B0A000000
(1612249098.909396) can0 39F#00040004000000BA
(1612249098.909399) can0 3C0#00000BD67FFF4401
(1612249098.909401) can0 525#0000000000108100
(1612249098.909403) can0 34A#0000000000000000
(1612249098.917460) can0 380#80727E03E8FFFF7F
(1612249098.917462) can0 354#50CD000000000000
(1612249098.917465) can0 38A#0000000000000076
(1612249098.925451) can0 316#81500AF07A840200
(1612249098.925456) can0 39E#05817F0000000000
(1612249098.941367) can0 3BA#0000000000000000
(1612249098.941372) can0 39A#20FC000B4E000000
(1612249098.949355) can0 3C0#00000BD67FFF4401
(1612249098.949357) can0 3CA#800F800F0CF9806B
(1612249098.949361) can0 34A#0000000000000000
(1612249098.957557) can0 380#80717E03E8FFFF7F
(1612249098.957560) can0 354#50CD000000000000
(1612249098.957562) can0 38A#00000000000000B2
(1612249098.957565) can0 316#81500AF07A840200
(1612249098.965401) can0 39E#05817F0000000000
(1612249098.973612) can0 3BA#0000000000000000
(1612249098.981483) can0 39A#20FC000B82000000
(1612249098.989567) can0 3C0#00000BD67FFF4401
(1612249098.989573) can0 3CA#800F800F0CF28074
(1612249098.989576) can0 3C5#96D0000000000000
(1612249098.989580) can0 34A#0000000000000000
(1612249098.997410) can0 380#80727E03EDFFFF7F
(1612249098.997416) can0 354#50CD000000000000
(1612249098.997419) can0 38A#00000000000000FE
(1612249099.005549) can0 316#81500AF07A9D0200
(1612249099.005562) can0 39E#05817F0000000000
(1612249099.013403) can0 3BA#0000000000000000
(1612249099.021431) can0 39A#20FC000BC6000000
(1612249099.029384) can0 3C0#00000BD67FFF4401
(1612249099.029389) can0 3CA#801380130CF28074
(1612249099.029392) can0 5E1#14000EAA0EB10EB0
(1612249099.029396) can0 34A#0000000000000000
(1612249099.037511) can0 380#80727E03E8FFFF7F
(1612249099.037514) can0 354#50CD000000000000
(1612249099.045333) can0 316#81500AF07A9D0200
(1612249099.045344) can0 39E#05817F0000000000
(1612249099.053318) can0 316#81500AF07A9D0200
(1612249099.053326) can0 39E#05817F0000000000
(1612249099.061246) can0 3BA#0000000000000000
(1612249099.061258) can0 39A#20FC000B0A000000
(1612249099.069226) can0 39F#0004000400000032
(1612249099.069229) can0 3C0#00000BD67FFF4401
(1612249099.069232) can0 45E#0000100000100000
(1612249099.077231) can0 34A#0000000000000000
(1612249099.077241) can0 380#80727E03E3FFFF7F
(1612249099.085288) can0 316#81500AF07A9D0200
(1612249099.085295) can0 39E#05817F0000000000
(1612249099.093269) can0 316#81500AF07A9D0200
(1612249099.093276) can0 39E#05817F0000000000
(1612249099.093279) can0 433#0000000000000000
(1612249099.101194) can0 436#0080000000000000
(1612249099.101197) can0 3BA#0000000000000000
(1612249099.101199) can0 440#0200000000000000
(1612249099.101202) can0 396#00040004AD000059
(1612249099.109190) can0 39F#0004000400000050
(1612249099.109196) can0 3C0#00000BD67FFF4401
(1612249099.109198) can0 525#0000000000108100
(1612249099.117188) can0 340#0004000000000000
(1612249099.117198) can0 380#80727E03E3FFFF7F
(1612249099.125217) can0 316#81500AF07A9E0200
(1612249099.125225) can0 39E#05817F0000000000
(1612249099.133159) can0 316#81500AF07A9E0200
(1612249099.133166) can0 39E#05817F0000000000
(1612249099.133169) can0 3BA#0000000000000000
(1612249099.141146) can0 3C5#96D0000000000000
(1612249099.141150) can0 3C9#FFFFFFFFFFFFFFFF
(1612249099.141152) can0 401#00007F0620000000
(1612249099.141154) can0 39A#20FC000B82000000
(1612249099.149153) can0 3C0#00000BD67FFF4401
(1612249099.149158) can0 3CA#801380130D038074
(1612249099.149167) can0 34A#0000000000000000
(1612249099.157207) can0 380#80727E03E8FFFF7F
(1612249099.165171) can0 316#81500AF07AB70200
(1612249099.165178) can0 39E#05817F0000000000
(1612249099.173298) can0 316#81500AF07AB70200
(1612249099.173306) can0 39E#05817F0000000000
(1612249099.173308) can0 3BA#0000000000000000
(1612249099.181133) can0 39A#20FC000BC6000000
(1612249099.189307) can0 3C0#00000BD67FFF4401
(1612249099.189311) can0 3CA#801780170D038074
(1612249099.189313) can0 3C5#96D0000000000000
(1612249099.189315) can0 34A#0000000000000000
(1612249099.197107) can0 380#80737E03E8FFFF7F
(1612249099.205152) can0 316#81500AF07AB60200
(1612249099.205160) can0 39E#05817F0000000000
(1612249099.213121) can0 316#81500AF07A9D0200
(1612249099.213131) can0 39E#05817F0000000000
(1612249099.213134) can0 3BA#0000000000000000
(1612249099.221269) can0 316#81500AF07A9D0200
(1612249099.221275) can0 39A#20FC000B0A000000
(1612249099.229062) can0 3C0#00000BD67FFF4401
(1612249099.229067) can0 3CA#801380130CF2806B
(1612249099.229070) can0 5E1#1C000EAC0EB00EAE
(1612249099.229073) can0 34A#0000000000000000
(1612249099.237123) can0 380#80727E03E8FFFF7F
(1612249099.245047) can0 316#81500AF07A9D0200
(1612249099.245054) can0 39E#05817F0000000000
(1612249099.253100) can0 316#81500AF07A9D0200
(1612249099.253108) can0 39E#05817F0000000000
(1612249099.261227) can0 316#81500AF07A9D0200
(1612249099.261235) can0 39E#05817F0000000000
(1612249099.261238) can0 39F#00040004000000D8
(1612249099.269083) can0 3C0#00000BD67FFF4401
(1612249099.269086) can0 45E#0000100000100000
(1612249099.269088) can0 3CA#801380130CF9806B
(1612249099.269091) can0 360#00000000002400BC
(1612249099.277197) can0 354#50CD000000000000
(1612249099.284993) can0 316#81500AF07A9D0200
(1612249099.285001) can0 39E#05817F0000000000
(1612249099.292987) can0 316#81500AF07A6B0200
(1612249099.292996) can0 39E#05817F0000000000
(1612249099.292999) can0 3BA#0000000000000000
(1612249099.300986) can0 433#0000000000000000
(1612249099.300994) can0 39A#20FC000B82000000
(1612249099.308970) can0 39F#00040004000000F6
(1612249099.308973) can0 3C0#00000BD67FFF4401
(1612249099.308976) can0 525#0000000000108100
(1612249099.308978) can0 34A#0000000000000000
(1612249099.316954) can0 380#80727E03E8FFFF7F
(1612249099.324936) can0 316#81500AF07A6B0200
(1612249099.324939) can0 39E#05817F0000000000
(1612249099.332926) can0 316#81500AF07A6A0200
(1612249099.332929) can0 39E#05817F0000000000
(1612249099.332930) can0 3C5#96D0000000000000
(1612249099.340972) can0 3C9#FFFFFFFFFFFFFFFF
(1612249099.340978) can0 316#81500AF07A6A0200
(1612249099.340979) can0 39A#20FC000BC6000000
(1612249099.348927) can0 3C0#00000BD67FFF4401
(1612249099.348930) can0 3CA#800C800C0CE8806B
(1612249099.348934) can0 3A0#4180010000000069
(1612249099.348937) can0 34A#0000000000000000
(1612249099.356927) can0 380#80727E03EDFFFF7F
(1612249099.364920) can0 316#81500AF07B010200
(1612249099.364930) can0 39E#05817F0000000000
(1612249099.372936) can0 316#81500AF07B010200
(1612249099.372942) can0 39E#05817F0000000000
(1612249099.380926) can0 316#81500AF07B010200
(1612249099.380928) can0 39A#20FC000B0A000000
(1612249099.388916) can0 3C0#00000BD67FFF4401
(1612249099.388920) can0 34A#0000000000000000
(1612249099.396934) can0 380#80727E03E8FFFF7F
(1612249099.396936) can0 354#50CD000000000000
(1612249099.396938) can0 38A#0000000000000076
(1612249099.404857) can0 316#81500AF07B020200
(1612249099.404863) can0 39E#05817F0000000000
(1612249099.412917) can0 316#81500AF07B020200
(1612249099.412922) can0 39E#05817F0000000000
(1612249099.420846) can0 39A#20FC000B4E000000
(1612249099.428899) can0 3C0#00000BD67FFF4401
(1612249099.428901) can0 3CA#802280220CF4806B
(1612249099.428902) can0 5E1#04000EA20EA00E9F
(1612249099.428904) can0 360#00000000002400BC
(1612249099.436898) can0 354#50CD000000000000
(1612249099.436901) can0 380#80727E03E8FFFF7F
(1612249099.436902) can0 38A#00000000000000B2
(1612249099.444883) can0 316#81500AF07A840200
(1612249099.444890) can0 39E#05817F0000000000
(1612249099.453000) can0 316#81500AF07A840200
(1612249099.453013) can0 39E#05817F0000000000
(1612249099.460964) can0 39F#000400040000007E
(1612249099.468982) can0 3C0#00000BD67FFF4401
(1612249099.468985) can0 45E#0000100000100000
(1612249099.468987) can0 3CA#800F800F0CF4806B
(1612249099.468990) can0 360#00000000002400F8
(1612249099.476985) can0 354#50CD000000000000
(1612249099.476989) can0 380#80737E03EDFFFF7F
(1612249099.476992) can0 38A#00000000000000FE
(1612249099.484973) can0 316#81500AF07A840200
(1612249099.484983) can0 39E#05817F0000000000
(1612249099.492945) can0 316#81500AF07AEA0200
(1612249099.492955) can0 39E#05817F0000000000
(1612249099.492958) can0 431#33FCE301004293B1
(1612249099.500965) can0 433#0000000000000000
(1612249099.500971) can0 39A#20FC000BC6000000
(1612249099.508814) can0 39F#000400040000009C
(1612249099.508818) can0 3C0#00000BD67FFF4401
(1612249099.508820) can0 525#0000000000108100
(1612249099.508823) can0 360#0000000000240034
(1612249099.516756) can0 354#50CD000000000000
(1612249099.516761) can0 380#80737E03EDFFFF7F
(1612249099.516764) can0 38A#000000000000003A
(1612249099.524841) can0 316#81500AF07AEA0200
(1612249099.524851) can0 39E#05817F0000000000
(1612249099.532915) can0 316#81500AF07AE80200
(1612249099.532925) can0 39E#05817F0000000000
(1612249099.540720) can0 5CF#0001000000060000
(1612249099.540732) can0 39A#20FC000B0A000000
(1612249099.548897) can0 3C0#00000BD67FFF4401
(1612249099.548901) can0 3CA#801E801E0CE8806B
(1612249099.548909) can0 360#0000000000240070
(1612249099.556892) can0 354#50CD000000000000
(1612249099.556896) can0 380#80727E03EDFFFF7F
(1612249099.556899) can0 38A#0000000000000076
(1612249099.564882) can0 316#81500AF07AE80200
(1612249099.564892) can0 39E#05817F0000000000
(1612249099.572880) can0 316#81500AF07AE80200
(1612249099.580694) can0 39A#20FC000B4E000000
(1612249099.588853) can0 3C0#00000BD67FFF4401
(1612249099.588858) can0 3CA#801E801E0CE88074
(1612249099.588862) can0 3C5#96D0000000000000
(1612249099.588864) can0 360#00000000002400BC
(1612249099.596845) can0 354#50CD000000000000
(1612249099.596849) can0 380#80727E03E8FFFF7F
(1612249099.596864) can0 38A#00000000000000B2
(1612249099.604847) can0 316#81500AF07AE80200
(1612249099.604856) can0 39E#05817F0000000000
(1612249099.612830) can0 316#81500AF07AE80200
(1612249099.612840) can0 39E#05817F0000000000
(1612249099.620817) can0 39B#80027FFB88980000
(1612249099.620827) can0 39C#800080007FF87FFE
(1612249099.620830) can0 39A#20FC000B82000000
(1612249099.628813) can0 3C0#00000BD67FFF4401
(1612249099.628818) can0 3CA#801E801E0CE58074
(1612249099.628821) can0 5E1#0C000EA90EA40EA6
(1612249099.628824) can0 360#00000000002400F8
(1612249099.636811) can0 354#50CD000000000000
(1612249099.636815) can0 380#80727E03E8FFFF7F
(1612249099.636818) can0 38A#00000000000000FE
(1612249099.644803) can0 316#81500AF07AE80200
(1612249099.644812) can0 39E#05817F0000000000
(1612249099.652782) can0 316#81500AF07AE80200
(1612249099.652792) can0 39E#05817F0000000000
(1612249099.660684) can0 39F#0004000400000014
(1612249099.668774) can0 3C0#00000BD67FFF4401
(1612249099.668778) can0 45E#0000100000100000
(1612249099.668781) can0 3CA#801E801E0CE58074
(1612249099.668783) can0 360#0000000000240034
(1612249099.676761) can0 354#50CD000000000000
(1612249099.676765) can0 380#80737E03E8FFFF7F
(1612249099.676768) can0 38A#000000000000003A
(1612249099.684753) can0 316#81500AF07AE80200
(1612249099.684763) can0 39E#05817F0000000000
(1612249099.692609) can0 431#33FCE301004293B1
(1612249099.700595) can0 433#0000000000000000
(1612249099.700601) can0 39A#20FC000B0A000000
(1612249099.708610) can0 39F#0004000400000032
(1612249099.708614) can0 3C0#00000BD67FFF4401
(1612249099.708618) can0 525#0000000000108100
(1612249099.708621) can0 360#0000000000240070
(1612249099.716605) can0 354#50CD000000000000
(1612249099.716610) can0 380#80727E03E8FFFF7F
(1612249099.716613) can0 38A#0000000000000076
(1612249099.724548) can0 316#81500AF07B010200
(1612249099.724557) can0 39E#05817F0000000000
(1612249099.732515) can0 316#81500AF07B010200
(1612249099.732524) can0 39E#05817F0000000000
(1612249099.740610) can0 39F#000400040000006F
(1612249099.748660) can0 3C0#00000BD67FFF4401
(1612249099.748664) can0 45E#0000100000100000
(1612249099.748667) can0 3CA#802280220CED806B
(1612249099.748671) can0 360#00000000002400DA
(1612249099.756556) can0 354#50CD000000000000
(1612249099.756559) can0 380#80737E03E8FFFF7F
(1612249099.756562) can0 38A#00000000000000D0
(1612249099.764652) can0 316#81500AF07AB60200
(1612249099.764662) can0 39E#05817F0000000000
(1612249099.764665) can0 3A0#418001000000001E
(1612249099.772658) can0 316#81500AF07AB60200
(1612249099.780640) can0 519#0000000000000000
(1612249099.780652) can0 39A#20FC000BA0000000
(1612249099.788527) can0 39F#000400040000008D
(1612249099.788531) can0 3C0#00000BD67FFF4401
(1612249099.788535) can0 52C#006EB000FE00A400
(1612249099.788538) can0 360#0000000000240016
(1612249099.796622) can0 354#50CD000000000000
(1612249099.796626) can0 380#80727E03E8FFFF7F
(1612249099.796629) can0 38A#000000000000001C
(1612249099.804616) can0 316#81500AF07AB60200
(1612249099.804625) can0 39E#05817F0000000000
(1612249099.804628) can0 3A0#418001000000002D
(1612249099.812623) can0 316#81500AF07AB60200
(1612249099.820611) can0 3C0#00000BD67FFF4401
(1612249099.828585) can0 3CA#801780170CF4806B
(1612249099.828598) can0 360#0000000000240052
(1612249099.836578) can0 354#50CD000000000000
(1612249099.836583) can0 380#80727E03E8FFFF7F
(1612249099.836586) can0 38A#0000000000000058
(1612249099.844572) can0 316#81500AF07B020200
(1612249099.844582) can0 39E#05817F0000000000
(1612249099.852575) can0 3A0#418001000000003C
(1612249099.860563) can0 3C0#00000BD67FFF4401
(1612249099.868547) can0 3CA#802280220CF4806B
(1612249099.868551) can0 3C5#96D0000000000000
(1612249099.868554) can0 3C9#FFFFFFFFFFFFFFFF
(1612249099.868557) can0 360#000000000024009E
(1612249099.876535) can0 354#50CD000000000000
(1612249099.876539) can0 380#80737E03E8FFFF7F
(1612249099.876543) can0 38A#0000000000000094
(1612249099.884530) can0 316#81500AF07B020200
(1612249099.884540) can0 39E#05817F0000000000
(1612249099.892523) can0 3A0#418001000000004B
(1612249099.892532) can0 316#81500AF07B1C0200
(1612249099.892535) can0 567#090D44473032444D
(1612249099.900519) can0 576#00078D980A61635C
(1612249099.900525) can0 39A#20FC000B6C000000
(1612249099.908481) can0 3C0#00000BD67FFF4401
(1612249099.908486) can0 3CA#802580250CF4806B
(1612249099.908488) can0 5D1#01043F4E204E203E
(1612249099.908491) can0 360#00000000002400DA
(1612249099.916493) can0 354#50CD000000000000
(1612249099.916497) can0 380#80737E03E8FFFF7F
(1612249099.916500) can0 38A#00000000000000D0
(1612249099.916502) can0 316#81500AF07B1C0200
(1612249099.924451) can0 39E#05817F0000000000
(1612249099.924464) can0 3A0#418001000000005A
(1612249099.932531) can0 316#81500AF07B1B0200
(1612249099.940444) can0 39A#20FC000BA0000000
(1612249099.948508) can0 39F#0004000400000005
(1612249099.948512) can0 3C0#00000BD67FFF4401
(1612249099.948515) can0 4F2#0000000000000000
(1612249099.948518) can0 354#50CD000000000000
(1612249099.956409) can0 360#0000000000240016
(1612249099.956416) can0 380#80707E03E8FFFF7F
(1612249099.956419) can0 38A#000000000000001C
(1612249099.964320) can0 316#81500AF07B1B0200
(1612249099.964329) can0 39E#05817F0000000000
(1612249099.972354) can0 3A0#4180010000000069
(1612249099.980326) can0 39F#0004000400000023
(1612249099.988285) can0 3C0#00000BD67FFF4401
(1612249099.988289) can0 52C#006EB000FE00A400
(1612249099.988292) can0 3CA#802280220CE8806B
(1612249099.988295) can0 354#50CD000000000000
(1612249099.996296) can0 360#0000000000240052
(1612249099.996300) can0 380#80717E03E8FFFF7F
(1612249099.996303) can0 38A#0000000000000058
(1612249100.004389) can0 316#81500AF07B010200
(1612249100.004399) can0 39E#05817F0000000000
(1612249100.004402) can0 3A0#4180010000000078
(1612249100.012385) can0 316#81500AF07B020200
(1612249100.020287) can0 39A#20FC000B28000000
(1612249100.028361) can0 3C0#00000BD67FFF4401
(1612249100.028365) can0 3CA#802280220CF48074
(1612249100.028373) can0 354#50CD000000000000
(1612249100.036351) can0 360#000000000024009E
(1612249100.036368) can0 380#80737E03E8FFFF7F
(1612249100.036371) can0 38A#0000000000000094
(1612249100.036374) can0 316#81500AF07B020200
(1612249100.044408) can0 39E#05817F0000000000
(1612249100.052398) can0 3A0#4180010000000087
(1612249100.060288) can0 39A#20FC000B6C000000
(1612249100.068228) can0 3C0#00000BD67FFF4401
(1612249100.068233) can0 3CA#800F800F0CF48074
(1612249100.068237) can0 3C5#96D0000000000000
(1612249100.068240) can0 354#50CD000000000000
(1612249100.076218) can0 360#00000000002400DA
(1612249100.076222) can0 380#80727E03E8FFFF7F
(1612249100.076225) can0 38A#00000000000000D0
(1612249100.084376) can0 700#0306EFAD04000000
(1612249100.084386) can0 316#81500AF07A840200
(1612249100.092348) can0 70D#0306000000000000
(1612249100.092359) can0 39A#20FC000B82000000
(1612249100.100356) can0 39A#20FC000BA0000000
(1612249100.108348) can0 3C0#00000BD67FFF4401
(1612249100.108353) can0 3CA#800F800F0CDE8074
(1612249100.108356) can0 5E1#20000EB10EB00EA9
(1612249100.108360) can0 34A#0000000000000000
(1612249100.116188) can0 360#0000000000240016
(1612249100.116191) can0 354#50CD000000000000
(1612249100.116194) can0 380#80727E03E8FFFF7F
(1612249100.116197) can0 316#81500AF07A830200
(1612249100.124101) can0 39E#05817F0000000000
(1612249100.132251) can0 3A0#41800100000000A5
(1612249100.140127) can0 39F#00040004000000AB
(1612249100.148240) can0 3C0#00000BD67FFF4401
(1612249100.148246) can0 45E#0000100000100000
(1612249100.148249) can0 3CA#800F800F0CDE806B
(1612249100.148252) can0 354#50CD000000000000
(1612249100.156116) can0 360#0000000000240052
(1612249100.156121) can0 380#80727E03E8FFFF7F
(1612249100.156124) can0 38A#0000000000000058
(1612249100.156127) can0 316#81500AF07A840200
(1612249100.164218) can0 39E#05817F0000000000
(1612249100.172116) can0 3A0#41800100000000B4
(1612249100.180211) can0 39F#00040004000000C9
(1612249100.188099) can0 3C0#00000BD67FFF4401
(1612249100.188103) can0 52C#006EB000FE00A400
(1612249100.188105) can0 3CA#800F800F0CF4806B
(1612249100.188108) can0 354#50CD000000000000
(1612249100.196091) can0 360#000000000024009E
(1612249100.196095) can0 380#80727E03EDFFFF7F
(1612249100.196098) can0 38A#0000000000000094
(1612249100.196100) can0 316#81500AF07A9D0200
(1612249100.204105) can0 39E#05817F0000000000
(1612249100.204112) can0 3A0#41800100000000C3
(1612249100.220250) can0 3C0#00000BD67FFF4401
(1612249100.228055) can0 3CA#801380130CF4806B
(1612249100.228068) can0 354#50CD000000000000
(1612249100.236141) can0 360#00000000002400DA
(1612249100.236144) can0 380#80737E03E8FFFF7F
(1612249100.236147) can0 38A#00000000000000D0
(1612249100.236150) can0 316#81500AF07A9E0200
(1612249100.243971) can0 39E#05817F0000000000
(1612249100.243980) can0 3A0#41800100000000D2
(1612249100.260009) can0 39A#20FC000BA0000000
(1612249100.268099) can0 3C0#00000BD67FFF4401
(1612249100.268103) can0 3C5#96D0000000000000
(1612249100.268106) can0 3C9#FFFFFFFFFFFFFFFF
(1612249100.268110) can0 354#50CD000000000000
(1612249100.276090) can0 360#0000000000240016
(1612249100.276094) can0 380#80737E03E3FFFF7F
(1612249100.276097) can0 38A#000000000000001C
(1612249100.276100) can0 316#81500AF07A6B0200
(1612249100.284014) can0 39E#05817F0000000000
(1612249100.284021) can0 3A0#41800100000000E1
(1612249100.300079) can0 3C0#00000BD67FFF4401
(1612249100.308053) can0 3CA#800C800C0CEA806B
(1612249100.308057) can0 5E1#08000EA50EA20EB0
(1612249100.308059) can0 5E2#08000EA40E500EB1
(1612249100.308062) can0 354#50CD000000000000
(1612249100.316044) can0 360#0000000000240052
(1612249100.316048) can0 380#80727E03E8FFFF7F
(1612249100.316051) can0 38A#0000000000000058
(1612249100.316054) can0 316#81500AF07A6A0200
(1612249100.323938) can0 39E#05817F0000000000
(1612249100.323957) can0 3A0#41800100000000F0
(1612249100.339960) can0 39F#0004000400000041
(1612249100.348038) can0 3C0#00000BD67FFF4401
(1612249100.348042) can0 45E#0000100000100000
(1612249100.348044) can0 3CA#800C800C0CEA806B
(1612249100.355840) can0 354#50CD000000000000
(1612249100.355850) can0 360#000000000024009E
(1612249100.355853) can0 316#81500AF07A6A0200
(1612249100.364039) can0 39E#05817F0000000000
(1612249100.364045) can0 3A0#418001000000000F
(1612249100.371909) can0 316#81500AF07A6A0200
(1612249100.379999) can0 316#81500AF07A6A0200
(1612249100.380009) can0 39E#05817F0000000000
(1612249100.380012) can0 39F#000400040000006F
(1612249100.387938) can0 3C0#00000BD67FFF4401
(1612249100.387942) can0 52C#006EB000FE00A400
(1612249100.387945) can0 3CA#800C800C0CED806B
(1612249100.387948) can0 350#01FFB00700007F00
(1612249100.395934) can0 354#50CD000000000000
(1612249100.395940) can0 316#81500AF07A6A0200
(1612249100.403927) can0 39E#05817F0000000000
(1612249100.403934) can0 3A0#418001000000001E
(1612249100.411837) can0 401#00007F0620000000
(1612249100.411846) can0 316#81500AF07A9D0200
(1612249100.419838) can0 3C0#00000BD67FFF4401
(1612249100.427811) can0 3CA#801380130CED806B
(1612249100.427820) can0 316#81500AF07A9D0200
(1612249100.427823) can0 354#50CD000000000000
(1612249100.435803) can0 360#0000000000240016
(1612249100.435807) can0 380#80737E03E8FFFF7F
(1612249100.435810) can0 38A#000000000000001C
(1612249100.435813) can0 316#81500AF07A9D0200
(1612249100.443807) can0 39E#05817F0000000000
(1612249100.443814) can0 3A0#418001000000002D
(1612249100.451798) can0 316#81500AF07A9D0200
(1612249100.459782) can0 316#81500AF07A9D0200
(1612249100.459791) can0 39E#05817F0000000000
(1612249100.459794) can0 3C0#00000BD67FFF4401
(1612249100.467775) can0 3C5#96D0000000000000
(1612249100.467779) can0 3C9#FFFFFFFFFFFFFFFF
(1612249100.467788) can0 354#50CD000000000000
(1612249100.475793) can0 360#0000000000240052
(1612249100.475797) can0 380#80727E03EDFFFF7F
(1612249100.475800) can0 38A#0000000000000058
(1612249100.475803) can0 316#81500AF07A9D0200
(1612249100.483790) can0 39E#05817F0000000000
(1612249100.491704) can0 3A0#418001000000003C
(1612249100.499748) can0 3C0#00000BD67FFF4401
(1612249100.507723) can0 3CA#801380130CF28074
(1612249100.507727) can0 5E1#10000EAF0EA10EAD
(1612249100.507730) can0 5E2#10000EB10EA60EB1
(1612249100.507733) can0 354#50CD000000000000
(1612249100.515688) can0 360#000000000024009E
(1612249100.515694) can0 380#80727E03E8FFFF7F
(1612249100.515698) can0 38A#0000000000000094
(1612249100.523735) can0 39E#05817F0000000000
(1612249100.523745) can0 329#00420000000021A2
(1612249100.523748) can0 3A0#418001000000004B
(1612249100.531646) can0 316#81500AF07A9D0200
(1612249100.539708) can0 39A#20FC000B6C000000
(1612249100.547648) can0 39F#00040004000000E7
(1612249100.547650) can0 3C0#00000BD67FFF4401
(1612249100.547652) can0 4F2#0000000000000000
(1612249100.547654) can0 350#01FFB00700007F00
(1612249100.555660) can0 360#00000000002400DA
(1612249100.555662) can0 380#80737E03E8FFFF7F
(1612249100.555664) can0 38A#00000000000000D0
(1612249100.555666) can0 316#81500AF07A510200
(1612249100.563655) can0 39E#05817F0000000000
(1612249100.579637) can0 39A#20FC000BA0000000
(1612249100.587608) can0 39F#0004000400000005
(1612249100.587612) can0 3C0#00000BD67FFF4401
(1612249100.587616) can0 52D#4D0000003D6E0000
(1612249100.587620) can0 350#01FFB00700007F00
(1612249100.595637) can0 354#50CD000000000000
(1612249100.595642) can0 360#0000000000240016
(1612249100.595646) can0 380#80717E03EDFFFF7F
(1612249100.595650) can0 316#81500AF07A510200
(1612249100.603631) can0 39E#05817F0000000000
(1612249100.611612) can0 401#00007F0620000000
(1612249100.619640) can0 3C0#00000BD67FFF4401
(1612249100.627612) can0 3CA#800880080CEA806B
(1612249100.627629) can0 350#01FFB00700007F00
(1612249100.635613) can0 360#0000000000240052
(1612249100.635619) can0 380#80707E03EDFFFF7F
(1612249100.635624) can0 38A#0000000000000058
(1612249100.643604) can0 39E#05817F0000000000
(1612249100.643617) can0 329#00420000000021A2
(1612249100.651630) can0 3A0#4180010000000078
(1612249100.659608) can0 3C0#00000BD67FFF4401
(1612249100.667577) can0 3C5#96D0000000000000
(1612249100.667582) can0 3C9#FFFFFFFFFFFFFFFF
(1612249100.667586) can0 3CA#800880080CEA806B
(1612249100.667590) can0 350#01FFB00700007F00
(1612249100.675591) can0 360#000000000024009E
(1612249100.675595) can0 380#80727E03EDFFFF7F
(1612249100.675599) can0 38A#0000000000000094
(1612249100.675603) can0 316#81500AF07A510200
(1612249100.683504) can0 39E#05817F0000000000
(1612249100.683513) can0 3A0#4180010000000087
(1612249100.699497) can0 3C0#00000BD67FFF4401
(1612249100.707479) can0 3CA#800F800F0CED806B
(1612249100.707484) can0 5E1#18000EAC0EB10EB0
(1612249100.707487) can0 5E2#18000EAF0EB10EAB
(1612249100.707491) can0 350#01FFAFEF00007F00
(1612249100.715603) can0 360#00000000002400F8
(1612249100.715610) can0 380#80727E03E8FFFF7F
(1612249100.715614) can0 38A#00000000000000FE
(1612249100.723464) can0 39E#05817F0000000000
(1612249100.723476) can0 329#00420000000021A2
(1612249100.739481) can0 316#81500AF07A510200
(1612249100.739491) can0 3C0#00000BD67FFF4401
(1612249100.747421) can0 3C5#96D0000000000000
(1612249100.747425) can0 3C9#FFFFFFFFFFFFFFFF
(1612249100.747428) can0 3CA#800880080CE0806B
(1612249100.747431) can0 350#01FFAFEF00007F00
(1612249100.755441) can0 360#0000000000240034
(1612249100.755446) can0 316#81500AF07A510200
(1612249100.763622) can0 39E#05817F0000000000
(1612249100.771421) can0 316#81500AF07A510200
(1612249100.779644) can0 316#81500AF07A510200
(1612249100.779647) can0 3C0#00000BD67FFF4401
(1612249100.787616) can0 3CA#800880080CE0806B
(1612249100.787620) can0 5E1#1C000EA50EB10EB1
(1612249100.787623) can0 5E2#1C000E910E8D0E75
(1612249100.787626) can0 350#01FFAFEF00007F00
(1612249100.795619) can0 360#0000000000240070
(1612249100.795623) can0 380#80727E03E8FFFF7F
(1612249100.795626) can0 38A#0000000000000076
(1612249100.803616) can0 39E#05817F0000000000
(1612249100.803629) can0 329#00420000000021A2
(1612249100.811633) can0 316#81500AF07A9C0200
(1612249100.819612) can0 39A#20FC000B4E000000
(1612249100.827596) can0 39F#00040004000000D8
(1612249100.827601) can0 3C0#00000BD67FFF4401
(1612249100.827605) can0 505#6B0BA00000001000
(1612249100.827609) can0 350#01FFAFEF00007F00
(1612249100.835590) can0 360#00000000002400BC
(1612249100.843566) can0 39E#05817F0000000000
(1612249100.843578) can0 329#00420000000021A2
(1612249100.851591) can0 316#81500AF07A9C0200
(1612249100.851603) can0 39E#05817F0000000000
(1612249100.851606) can0 436#0080000000000000
(1612249100.859303) can0 440#0200000000000000
(1612249100.859307) can0 445#FF00030000000000
(1612249100.859310) can0 410#0800080000000000
(1612249100.867296) can0 39A#20FC000B82000000
(1612249100.867305) can0 39F#00040004000000F6
(1612249100.867308) can0 350#01FFAFEF00007F00
(1612249100.875284) can0 354#50CD000000000000
(1612249100.875289) can0 360#00000000002400F8
(1612249100.875292) can0 380#80717E03E8FFFF7F
(1612249100.883296) can0 39E#05817F0000000000
(1612249100.883310) can0 329#00420000000021A2
(1612249100.891271) can0 316#81500AF07A840200
(1612249100.891280) can0 39E#05817F0000000000
(1612249100.899266) can0 316#81500AF07A840200
(1612249100.899278) can0 39E#05817F0000000000
(1612249100.907274) can0 3C0#00000BD67FFF4401
(1612249100.907285) can0 3CA#800F800F0CF28074
(1612249100.907303) can0 350#01FFAFEF00007F00
(1612249100.915259) can0 360#0000000000240034
(1612249100.915266) can0 380#80727E03E8FFFF7F
(1612249100.915270) can0 38A#000000000000003A
(1612249100.923241) can0 39E#05817F0000000000
(1612249100.923253) can0 329#00420000000021A2
(1612249100.931243) can0 316#81500AF07A840200
(1612249100.931251) can0 39E#05817F0000000000
(1612249100.947198) can0 3C0#00000BD67FFF4401
(1612249100.947202) can0 3C5#96D0000000000000
(1612249100.947204) can0 350#01FFAFEF00007F00
(1612249100.955190) can0 360#0000000000240070
(1612249100.955191) can0 380#80727E03E8FFFF7F
(1612249100.955193) can0 38A#0000000000000076
(1612249100.963177) can0 39E#05817F0000000000
(1612249100.963181) can0 329#00420000000021A2
(1612249100.971169) can0 316#81500AF07A840200
(1612249100.971172) can0 39E#05817F0000000000
(1612249100.979204) can0 316#81500AF07A840200
(1612249100.979218) can0 39E#05817F0000000000
(1612249100.987151) can0 3C0#00000BD67FFF4401
(1612249100.987155) can0 3CA#800F800F0CED8074
(1612249100.987156) can0 350#01FFAFEF00007F00
(1612249100.995142) can0 360#00000000002400BC
(1612249100.995144) can0 380#80727E03E8FFFF7F
(1612249100.995145) can0 38A#00000000000000B2
(1612249101.003132) can0 39E#05817F0000000000
(1612249101.003134) can0 329#00420000000021A2
(1612249101.011184) can0 316#81500AF07A840200
(1612249101.011188) can0 39E#05817F0000000000
(1612249101.019117) can0 316#81500AF07A840200
(1612249101.019120) can0 39E#05817F0000000000
(1612249101.027139) can0 39A#20FC000B82000000
(1612249101.027145) can0 39F#000400040000007E
(1612249101.027147) can0 3C0#00000BD67FFF4401
(1612249101.035111) can0 350#01FFAFEF00007E00
(1612249101.035113) can0 360#00000000002400F8
(1612249101.035114) can0 380#80727E03EDFFFF7F
(1612249101.043088) can0 39E#05817F0000000000
(1612249101.043091) can0 329#00420000000021A2
(1612249101.051081) can0 316#81500AF07A6B0200
(1612249101.051083) can0 39E#05817F0000000000
(1612249101.059073) can0 436#0080000000000000
(1612249101.059075) can0 440#0200000000000000
(1612249101.059075) can0 38F#7F7F279900000000
(1612249101.067066) can0 396#00040004AD000095
(1612249101.067068) can0 350#01FFAFEF00007F00
(1612249101.075086) can0 34A#0000000000000000
(1612249101.075086) can0 360#0000000000240034
(1612249101.075087) can0 354#50CD000000000000
(1612249101.083045) can0 39E#05817F0000000000
(1612249101.083047) can0 329#00420000000021A2
(1612249101.091038) can0 316#81500AF07A6A0200
(1612249101.091040) can0 39E#05817F0000000000
(1612249101.099036) can0 316#81500AF07A6A0200
(1612249101.099037) can0 3C0#00000BD67FFF4401
(1612249101.107050) can0 3CA#800C800C0CEA8074
(1612249101.107053) can0 3C0#00000BD67FFF4401
(1612249101.115049) can0 350#01FFAFEF00007F00
(1612249101.115050) can0 360#0000000000240070
(1612249101.115050) can0 380#80727E03E8FFFF7F
(1612249101.123035) can0 39E#05817F0000000000
(1612249101.123037) can0 329#00420000000021A2
(1612249101.130997) can0 316#81500AF07A510200
(1612249101.130999) can0 39E#05817F0000000000
(1612249101.138988) can0 39F#00040004000000D8
(1612249101.147016) can0 3C5#96D0000000000000
(1612249101.147017) can0 3C9#FFFFFFFFFFFFFFFF
(1612249101.147018) can0 3CA#800880080CEA806B
(1612249101.147018) can0 3C0#00000BD67FFF4401
(1612249101.155007) can0 350#01FFAFEF00007F00
(1612249101.155008) can0 360#00000000002400BC
(1612249101.155009) can0 380#80727E03E8FFFF7F
(1612249101.162999) can0 39E#05817F0000000000
(1612249101.163002) can0 329#00420000000021A2
(1612249101.170961) can0 316#81500AF07A9D0200
(1612249101.170963) can0 39E#05817F0000000000
(1612249101.178949) can0 39F#00040004000000F6
(1612249101.186975) can0 3CA#801380130CEA806B
(1612249101.186975) can0 401#00007F0620000000
(1612249101.186976) can0 5E1#0C000EA90EA40EA7
(1612249101.186976) can0 3C0#00000BD67FFF4401
(1612249101.194933) can0 350#01FFAFEF00007F00
(1612249101.194935) can0 360#00000000002400F8
(1612249101.194935) can0 380#80717E03E8FFFF7F
(1612249101.202924) can0 39E#05817F0000000000
(1612249101.202928) can0 329#00400000000021A2
(1612249101.210951) can0 316#81500AF07A9C0200
(1612249101.218942) can0 39A#20FC000BC6000000
(1612249101.226902) can0 39F#0004000400000014
(1612249101.226903) can0 3C0#00000BD67FFF4401
(1612249101.226904) can0 505#6B0BA00000001000
(1612249101.226905) can0 3C0#00000BD67FFF4401
(1612249101.235094) can0 350#01FFAFEF00007E00
(1612249101.235095) can0 360#0000000000240034
(1612249101.235095) can0 380#80727E03E8FFFF7F
(1612249101.243239) can0 39E#05817F0000000000
(1612249101.243241) can0 329#00400000000021A2
(1612249101.250998) can0 316#81500AF07AB60200
(1612249101.251000) can0 39E#05817F0000000000
(1612249101.259051) can0 436#0080000000000000
(1612249101.259052) can0 440#0200000000000000
(1612249101.259053) can0 39A#20FC000B0A000000
(1612249101.266995) can0 39F#0004000400000032
(1612249101.266996) can0 3C0#00000BD67FFF4401
(1612249101.266998) can0 52C#006EB000FE00A400
(1612249101.266998) can0 354#50CD000000000000
(1612249101.275184) can0 350#01FFAFEF00007F00
(1612249101.275185) can0 360#0000000000240070
(1612249101.275186) can0 380#80707E03E8FFFF7F
(1612249101.282905) can0 39E#05817F0000000000
(1612249101.282910) can0 329#00400000000021A2
(1612249101.291023) can0 316#81500AF07AB60200
(1612249101.291026) can0 39E#05817F0000000000
(1612249101.299030) can0 39F#0004000400000050
(1612249101.306964) can0 3CA#801780170CED806B
(1612249101.306969) can0 3C0#00000BD67FFF4401
(1612249101.315059) can0 350#01FFAFEF00007F00
(1612249101.315061) can0 360#00000000002400BC
(1612249101.315063) can0 380#80727E03E8FFFF7F
(1612249101.322833) can0 39E#05817F0000000000
(1612249101.322841) can0 329#00400000000021A2
(1612249101.330885) can0 316#81500AF07A840200
(1612249101.338820) can0 39F#000400040000007E
(1612249101.346852) can0 3C5#96D0000000000000
(1612249101.346856) can0 3C9#FFFFFFFFFFFFFFFF
(1612249101.346872) can0 3CA#800F800F0CED806B
(1612249101.346875) can0 3C0#00000BD67FFF4401
(1612249101.354835) can0 350#01FFAFEF00007F00
(1612249101.354839) can0 360#00000000002400F8
(1612249101.354843) can0 380#80737E03E8FFFF7F
(1612249101.362781) can0 39E#05817F0000000000
(1612249101.362790) can0 329#00400000000021A2
(1612249101.370793) can0 316#81500AF07A830200
(1612249101.370802) can0 39E#05817F0000000000
(1612249101.378779) can0 39F#000400040000009C
(1612249101.386981) can0 3CA#800F800F0CDE8074
(1612249101.386985) can0 401#00007F0620000000
(1612249101.386988) can0 5E1#14000EAA0EB20EAF
(1612249101.386990) can0 3C0#00000BE07FFF4401
(1612249101.394971) can0 350#01FFAFEF00007F00
(1612249101.394974) can0 360#0000000000240034
(1612249101.394977) can0 380#80717E03E8FFFF7F
(1612249101.402965) can0 39E#05817F0000000000
(1612249101.402974) can0 329#00400000000021A2
(1612249101.410935) can0 316#81500AF07ACE0200
(1612249101.410944) can0 39E#05817F0000000000
(1612249101.418961) can0 39A#20FC000B0A000000
(1612249101.426712) can0 39F#00040004000000BA
(1612249101.426716) can0 3C0#00000BE07FFF4401
(1612249101.426720) can0 505#6B0BA00000001000
(1612249101.426722) can0 3C0#00000BE07FFF4401
(1612249101.434939) can0 350#01FFAFEF00007F00
(1612249101.434942) can0 360#0000000000240070
(1612249101.434945) can0 380#80727E03E8FFFF7F
(1612249101.442924) can0 39E#05817F0000000000
(1612249101.442933) can0 329#00400000000021A2
(1612249101.450902) can0 436#0080000000000000
(1612249101.458923) can0 440#0200000000000000
(1612249101.458927) can0 445#FF00030000000000
(1612249101.458930) can0 410#0800080000000000
(1612249101.458933) can0 396#00040004AD0000D1
(1612249101.466898) can0 39A#20FC000B4E000000
(1612249101.466903) can0 39F#00040004000000D8
(1612249101.466906) can0 3C0#00000BE07FFF4401
(1612249101.466909) can0 350#01FFAFEF00007F00
(1612249101.474882) can0 360#00000000002400BC
(1612249101.474886) can0 380#80727E03E8FFFF7F
(1612249101.474889) can0 38A#00000000000000B2
(1612249101.482881) can0 39E#05817F0000000000
(1612249101.482891) can0 329#00400000000021A2
(1612249101.498873) can0 39F#00040004000000F6
(1612249101.506824) can0 3CA#801E801E0CE5806B
(1612249101.506837) can0 3BA#0000000000000000
(1612249101.514618) can0 350#01FFAFEF00007F00
(1612249101.514622) can0 360#00000000002400F8
(1612249101.514625) can0 380#80727E03E8FFFF7F
(1612249101.522776) can0 39E#05817F0000000000
(1612249101.522786) can0 329#00400000000021A2
(1612249101.538636) can0 39A#20FC000BC6000000
(1612249101.546671) can0 39F#0004000400000014
(1612249101.546675) can0 3C9#FFFFFFFFFFFFFFFF
(1612249101.546677) can0 3CA#800F800F0CF9806B
(1612249101.546680) can0 3BA#0000000000000000
(1612249101.554670) can0 3C0#00000BE07FFF4401
(1612249101.554673) can0 350#01FFAFEF00007F00
(1612249101.562759) can0 39E#05817F0000000000
(1612249101.562763) can0 329#00400000000021A2
(1612249101.570657) can0 39B#7FFC800088980000
(1612249101.578786) can0 39C#800080007FF97FFE
(1612249101.578790) can0 39D#0F008282983D8000
(1612249101.578798) can0 39A#20FC000B0A000000
(1612249101.586774) can0 39F#0004000400000032
(1612249101.586778) can0 401#00007F0620000000
(1612249101.586781) can0 5E1#1C000EAB0EB00EAE
(1612249101.586784) can0 3C0#00000BE07FFF4401
(1612249101.594762) can0 350#01FFAFEF00007F00
(1612249101.594766) can0 360#0000000000240070
(1612249101.594769) can0 380#80727E03E8FFFF7F
(1612249101.602756) can0 39E#05817F0000000000
(1612249101.602765) can0 329#00420000000021A2
(1612249101.618758) can0 396#00040004AD000059
(1612249101.626722) can0 39A#20FC000B4E000000
(1612249101.626728) can0 39F#0004000400000050
(1612249101.626731) can0 3C0#00000BE07FFF4401
(1612249101.626733) can0 3C0#00000BE07FFF4401
(1612249101.634721) can0 350#01FFAFEF00007F00
(1612249101.634725) can0 360#00000000002400BC
(1612249101.634728) can0 380#80737E03E8FFFF7F
(1612249101.642718) can0 39E#05817F0000000000
(1612249101.642728) can0 329#00420000000021A2
(1612249101.658707) can0 436#0080000000000000
(1612249101.658716) can0 440#0200000000000000
(1612249101.658719) can0 396#00040004AD000077
(1612249101.666688) can0 39A#20FC000B82000000
(1612249101.666691) can0 39F#000400040000007E
(1612249101.666694) can0 3C0#00000BE07FFF4401
(1612249101.666698) can0 650#A000000000000000
(1612249101.674678) can0 350#01FFAFEF00007F00
(1612249101.674681) can0 360#00000000002400F8
(1612249101.674684) can0 380#80727E03EDFFFF7F
(1612249101.682649) can0 39E#05817F0000000000
(1612249101.682658) can0 329#00420000000021A2
(1612249101.698665) can0 39A#20FC000BC6000000
(1612249101.706616) can0 39F#000400040000009C
(1612249101.706620) can0 3A0#418001000000002D
(1612249101.706630) can0 3C0#00000BE07FFF4401
(1612249101.714434) can0 350#01FFAFEF00007F00
(1612249101.714439) can0 360#0000000000240034
(1612249101.714444) can0 380#80707E03E8FFFF7F
(1612249101.714449) can0 39E#05817F0000000000
(1612249101.722588) can0 329#00420000000021A2
(1612249101.738406) can0 39A#20FC000B0A000000
(1612249101.746614) can0 39F#00040004000000BA
(1612249101.746618) can0 3C0#00000BE07FFF4401
(1612249101.746621) can0 3CA#801780170CFB806B
(1612249101.746624) can0 3C0#00000BE07FFF4401
(1612249101.754447) can0 350#01FFAFEF00007F00
(1612249101.754451) can0 360#0000000000240070
(1612249101.754454) can0 380#80737E03E3FFFF7F
(1612249101.762598) can0 39E#05817F0000000000
(1612249101.762607) can0 329#00420000000021A2
(1612249101.770368) can0 316#81500AF07AEA0200
(1612249101.778593) can0 39A#20FC000B4E000000
(1612249101.786569) can0 39F#00040004000000D8
(1612249101.786585) can0 3CA#801E801E0CFB806B
(1612249101.786588) can0 5E1#04000EA20E9F0E9E
(1612249101.786591) can0 3C5#96D0000000000000
(1612249101.794505) can0 350#01FFAFEF00007F00
(1612249101.794509) can0 360#00000000002400BC
(1612249101.794512) can0 380#80737E03E8FFFF7F
(1612249101.802550) can0 39E#05817F0000000000
(1612249101.802560) can0 329#00420000000021A2
(1612249101.810545) can0 316#81500AF07AD00200
(1612249101.810555) can0 39E#05817F0000000000
(1612249101.818536) can0 316#81500AF07AD00200
(1612249101.818545) can0 39E#05817F0000000000
(1612249101.818548) can0 396#00040004AD0000FF
(1612249101.826497) can0 39A#20FC000B82000000
(1612249101.826501) can0 39F#00040004000000F6
(1612249101.826503) can0 3C0#00000BE07FFF4401
(1612249101.834522) can0 3C0#00000BE07FFF4401
(1612249101.834532) can0 350#01FFAFEF00007F00
(1612249101.842522) can0 39E#05817F0000000000
(1612249101.842532) can0 329#00420000000021A2
(1612249101.850502) can0 316#81500AF07AD00200
(1612249101.850512) can0 39E#05817F0000000000
(1612249101.850515) can0 436#0080000000000000
(1612249101.858499) can0 440#0200000000000000
(1612249101.858503) can0 445#FF00030000000000
(1612249101.858505) can0 410#0800080000000000
(1612249101.858508) can0 396#00040004AD00001D
(1612249101.866482) can0 39A#20FC000BC6000000
(1612249101.866486) can0 39F#0004000400000014
(1612249101.866488) can0 3C0#00000BE07FFF4401
(1612249101.874471) can0 354#50CD000000000000
(1612249101.874481) can0 350#01FFAFEF00007F00
(1612249101.882471) can0 39E#05817F0000000000
(1612249101.882480) can0 329#00420000000021A2
(1612249101.890437) can0 316#81500AF07AE80200
(1612249101.890447) can0 39E#05817F0000000000
(1612249101.898462) can0 39A#20FC000B0A000000
(1612249101.906420) can0 39F#0004000400000032
(1612249101.906424) can0 3A0#4180010000000078
(1612249101.914381) can0 3C0#00000BE07FFF4401
(1612249101.914390) can0 350#01FFAFEF00007F00
(1612249101.922377) can0 39E#05817F0000000000
(1612249101.922386) can0 329#00400000000021A2
(1612249101.930409) can0 316#81500AF07AE80200
(1612249101.930430) can0 39E#05817F0000000000
(1612249101.938244) can0 316#81500AF07AE80200
(1612249101.938254) can0 39E#05817F0000000000
(1612249101.938257) can0 396#00040004AD000059
(1612249101.946403) can0 39A#20FC000B4E000000
(1612249101.946408) can0 39F#0004000400000050
(1612249101.946412) can0 3CA#801E801E0CEA806B
(1612249101.954269) can0 3C0#00000BE07FFF4401
(1612249101.954279) can0 3CA#801E801E0CEA806B
(1612249101.962385) can0 39E#05817F0000000000
(1612249101.962394) can0 329#00400000000021A2
(1612249101.970204) can0 316#81500AF07ACF0200
(1612249101.970213) can0 39E#05817F0000000000
(1612249101.978368) can0 401#00007F0620000000
(1612249101.978377) can0 316#81500AF07ACF0200
(1612249101.978380) can0 396#00040004AD000077
(1612249101.986358) can0 39A#20FC000B82000000
(1612249101.986362) can0 39F#000400040000007E
(1612249101.986365) can0 5E1#0C000EA90EA40EA6
(1612249101.986369) can0 3C9#FFFFFFFFFFFFFFFF
(1612249101.994331) can0 354#50CD000000000000
(1612249102.002330) can0 39E#05817F0000000000
(1612249102.002339) can0 329#00400000000021A2
(1612249102.010291) can0 316#81500AF07AD00200
(1612249102.010301) can0 39E#05817F0000000000
(1612249102.018334) can0 396#00040004AD000095
(1612249102.026175) can0 39A#20FC000BC6000000
(1612249102.026179) can0 39F#000400040000009C
(1612249102.026182) can0 3C0#00000BE07FFF4401
(1612249102.034310) can0 3C0#00000BE07FFF4401
(1612249102.034319) can0 350#01FFAFEF00007F00
(1612249102.042303) can0 39E#05817F0000000000
(1612249102.042313) can0 329#00400000000021A2
(1612249102.050287) can0 316#81500AF07AE90200
(1612249102.050296) can0 39E#05817F0000000000
(1612249102.050299) can0 436#0080000000000000
(1612249102.058277) can0 440#0200000000000000
(1612249102.058281) can0 445#FF00030000000000
(1612249102.058284) can0 410#0800080000000000
(1612249102.058287) can0 38C#00000000CBE37AAD
(1612249102.066248) can0 38F#7F7F2ACB00000000
(1612249102.066252) can0 396#00040004AD0000B3
(1612249102.066255) can0 39F#00040004000000BA
(1612249102.066257) can0 702#0006000000000000
(1612249102.074269) can0 34A#0000000000000000
(1612249102.074273) can0 350#01FFAFEF00007F00
(1612249102.074276) can0 354#50CD000000000000
(1612249102.082265) can0 39E#05817F0000000000
(1612249102.082274) can0 329#00400000000021A2
(1612249102.090245) can0 316#81500AF07AE90200
(1612249102.090255) can0 39E#05817F0000000000
(1612249102.098028) can0 316#81500AF07AE90200
(1612249102.098040) can0 39E#05817F0000000000
(1612249102.098044) can0 39A#20FC000B4E000000
(1612249102.106019) can0 39F#00040004000000D8
(1612249102.106026) can0 3C0#00000BE07FFF4401
(1612249102.114052) can0 350#01FFAFEF00007F00
(1612249102.114056) can0 360#00000000002400BC
(1612249102.114059) can0 380#80727E03E8FFFF7F
(1612249102.122049) can0 39E#05817F0000000000
(1612249102.122057) can0 329#00400000000021A2
(1612249102.129988) can0 316#81500AF07AB60200
(1612249102.129998) can0 39E#05817F0000000000
(1612249102.145978) can0 396#00040004AD0000FF
(1612249102.145990) can0 39A#20FC000B82000000
(1612249102.145994) can0 3C0#00000BE07FFF4401
(1612249102.153969) can0 350#01FFAFEF00007F00
(1612249102.153971) can0 360#00000000002400F8
(1612249102.153973) can0 380#80707E03E8FFFF7F
(1612249102.161970) can0 39E#05817F0000000000
(1612249102.161974) can0 329#00400000000021A2
(1612249102.169931) can0 316#81500AF07A9D0200
(1612249102.169935) can0 39E#05817F0000000000
(1612249102.169936) can0 401#00007F0620000000
(1612249102.177946) can0 316#81500AF07A9D0200
(1612249102.177948) can0 396#00040004AD00001D
(1612249102.185913) can0 39A#20FC000BC6000000
(1612249102.185916) can0 39F#0004000400000014
(1612249102.185917) can0 34A#0000000000000000
(1612249102.193905) can0 354#50CD000000000000
(1612249102.193906) can0 350#01FFAFEF00007F00
(1612249102.193907) can0 360#0000000000240034
(1612249102.201895) can0 39E#05817F0000000000
(1612249102.201897) can0 329#00400000000021A2
(1612249102.209886) can0 316#81500AF07A9D0200
(1612249102.209888) can0 39E#05817F0000000000
(1612249102.218216) can0 316#81500AF07A9D0200
(1612249102.218218) can0 39E#05817F0000000000
(1612249102.218218) can0 396#00040004AC00003C
(1612249102.225971) can0 39A#20FC000B0A000000
(1612249102.225978) can0 3C0#00000BE07FFF4401
(1612249102.234100) can0 3CA#801380130CF48074
(1612249102.234104) can0 350#01FFAFEF00007F00
(1612249102.234107) can0 360#0000000000240070
(1612249102.241927) can0 39E#05817F0000000000
(1612249102.241935) can0 329#00400000000021A2
(1612249102.249886) can0 316#81500AF07AB60200
(1612249102.249898) can0 39E#05817F0000000000
(1612249102.258073) can0 436#0080000000000000
(1612249102.258083) can0 440#0200000000000000
(1612249102.258085) can0 396#00040004AD000059
(1612249102.266073) can0 39A#20FC000B4E000000
(1612249102.266080) can0 354#50CD000000000000
(1612249102.273884) can0 3C0#00000BE07FFF4401
(1612249102.273888) can0 350#01FFAFEF00007F00
(1612249102.273891) can0 360#00000000002400BC
(1612249102.281875) can0 39E#05817F0000000000
(1612249102.281888) can0 329#00400000000021A2
(1612249102.290041) can0 316#81500AF07AB60200
(1612249102.290050) can0 39E#05817F0000000000
(1612249102.298044) can0 316#81500AF07AB60200
(1612249102.298053) can0 39E#05817F0000000000
(1612249102.298056) can0 39A#20FC000B82000000
(1612249102.306019) can0 39F#000400040000007E
(1612249102.306025) can0 3C0#00000BE07FFF4401
(1612249102.314022) can0 3CA#801780170CEA8074
(1612249102.314026) can0 350#01FFAFEF00007F00
(1612249102.314029) can0 360#00000000002400F8
(1612249102.321977) can0 39E#05817F0000000000
(1612249102.321986) can0 329#00420000000021A2
(1612249102.329999) can0 316#81500AF07AB60200
(1612249102.330008) can0 39E#05817F0000000000
(1612249102.337980) can0 316#81500AF07AB60200
(1612249102.337989) can0 39E#05817F0000000000
(1612249102.337992) can0 396#00040004AD000095
(1612249102.345780) can0 39A#20FC000BC6000000
(1612249102.345787) can0 3C0#00000BE07FFF4401
(1612249102.353766) can0 3CA#801780170CED8074
(1612249102.353770) can0 350#01FFAFEF00007F00
(1612249102.353772) can0 360#0000000000240034
(1612249102.361965) can0 39E#05817F0000000000
(1612249102.361974) can0 329#00420000000021A2
(1612249102.369750) can0 316#81500AF07AB60200
(1612249102.369769) can0 39E#05817F0000000000
(1612249102.377968) can0 396#00040004AD0000B3
(1612249102.385807) can0 39A#20FC000B0A000000
(1612249102.385810) can0 39F#00040004000000BA
(1612249102.385813) can0 5E2#1C000E920E8A0E72
(1612249102.385816) can0 34A#0000000000000000
(1612249102.393943) can0 354#50CD000000000000
(1612249102.393947) can0 350#01FFAFEF00007F00
(1612249102.393950) can0 360#0000000000240070
(1612249102.401784) can0 39E#05817F0000000000
(1612249102.401794) can0 329#00420000000021A2
(1612249102.409931) can0 316#81500AF07A840200
(1612249102.417765) can0 396#00040004AD0000D1
(1612249102.425771) can0 39A#20FC000B4E000000
(1612249102.425775) can0 39F#00040004000000D8
(1612249102.425778) can0 3C0#00000BE07FFF4401
(1612249102.425781) can0 3C0#00000BE07FFF4401
(1612249102.433896) can0 3CA#800F800F0D008074
