(1612343924.599877) can0 39A#20FB000BF2000000
(1612343924.599878) can0 3BA#0000000000000000
(1612343924.599879) can0 3C5#96D0000000000000
(1612343924.599880) can0 38A#0000000000000067
(1612343924.608022) can1 468#0000000000000000
(1612343924.608024) can0 38C#00000000E3407FAD
(1612343924.608025) can1 475#0000000000000000
(1612343924.608026) can0 3CA#800480040CC18043
(1612343924.615880) can0 350#01FFAFEF00007F00
(1612343924.615882) can0 360#0000000000240070
(1612343924.615884) can0 380#80727E03E8FFFF7D
(1612343924.615885) can0 316#81500AF07A370200
(1612343924.623881) can0 329#004500000000218C
(1612343924.623884) can0 335#0000000000000000
(1612343924.623888) can0 33A#0006000000000000
(1612343924.623890) can1 44B#6200000090660000
(1612343924.631901) can1 44D#0000000000000000
(1612343924.631903) can0 316#81500AF07A370200
(1612343924.631904) can0 329#004500000000218C
(1612343924.631905) can1 601#000A006A00000000
(1612343924.640016) can0 39A#20FB000B3E000000
(1612343924.640018) can0 3BA#0000000000000000
(1612343924.640019) can0 316#81500AF07A380200
(1612343924.640020) can0 38C#00000000E5587AAD
(1612343924.647908) can0 38F#7E7FBEE500000000
(1612343924.647910) can0 396#00040004AD000059
(1612343924.647917) can0 39E#05817F0000000000
(1612343924.647919) can0 3CA#800480040CD48043
(1612343924.656004) can0 350#01FFAFEF00007F00
(1612343924.656006) can0 360#00000000002400BC
(1612343924.656007) can0 380#80727E03E8FFFF7D
(1612343924.656009) can0 316#81500AF07A380200
(1612343924.663833) can0 329#004500000000218C
(1612343924.663836) can0 335#0000000000000000
(1612343924.663838) can0 33A#0006000000000000
(1612343924.663840) can0 316#81500AF07A380200
(1612343924.671880) can0 329#004500000000218C
(1612343924.671884) can0 335#0000000000000000
(1612343924.671887) can0 33A#0006000000000000
(1612343924.671890) can1 423#270F000FFFFFF000
(1612343924.680016) can1 424#3E5F5F0000000000
(1612343924.680020) can1 43A#00000000FF0FF000
(1612343924.680023) can1 43C#00000000000000F0
(1612343924.680027) can0 38C#00000000E7447AAD
(1612343924.688030) can0 38F#7E7FA2E700000000
(1612343924.688035) can0 396#00040004AD000077
(1612343924.688038) can0 39E#05817F0000000000
(1612343924.688041) can0 3C0#000005F07FFF4401
(1612343924.695865) can0 3CA#800480040CD48043
(1612343924.695869) can0 409#0000000000000000
(1612343924.695872) can0 470#0000000000000000
(1612343924.695875) can0 316#81500AF07A380200
(1612343924.703991) can0 329#004500000000218C
(1612343924.703996) can0 335#0000000000000000
(1612343924.703999) can0 33A#0006000000000000
(1612343924.704001) can0 316#81500AF07A380200
(1612343924.712029) can0 329#004500000000218C
(1612343924.712033) can0 335#0000000000000000
(1612343924.712036) can0 33A#0006000000000000
(1612343924.712040) can1 601#000A006A00000000
(1612343924.720015) can0 39A#20FB000BB6000000
(1612343924.720019) can0 3BA#0000000000000000
(1612343924.720022) can0 316#81500AF07A370200
(1612343924.720025) can0 38A#000000000000002B
(1612343924.728025) can1 396#0004000400000080
(1612343924.728030) can0 38C#00000000E9107AAD
(1612343924.728033) can1 39F#0004000400000080
(1612343924.728036) can0 3CA#800480040C978043
(1612343924.736000) can0 350#01FFAFEF00007F00
(1612343924.736004) can0 360#0000000000240034
(1612343924.736008) can0 380#80727E03E8FFFF7D
(1612343924.736010) can0 316#81500AF07A370200
(1612343924.744028) can0 329#004500000000218C
(1612343924.744032) can0 335#0000000000000000
(1612343924.744035) can0 33A#0006000000000000
(1612343924.744038) can0 511#000027B400000000
(1612343924.751829) can0 51A#0000000000000000
(1612343924.751835) can0 3C5#96D0000000000000
(1612343924.751840) can0 3C9#FFFFFFFFFFFFFFFF
(1612343924.751844) can1 601#000A006A00000000
(1612343924.760044) can0 39A#20FB000BF2000000
(1612343924.760048) can0 3BA#0000000000000000
(1612343924.760051) can0 316#81500AF07A370200
(1612343924.760054) can0 38C#00000000EB0C7AAD
(1612343924.767996) can0 38F#7E7FEAEB00000000
(1612343924.768013) can0 396#00040004AD0000B3
(1612343924.768020) can0 39E#05817F0000000000
(1612343924.768024) can0 3CA#800480040C978043
(1612343924.775991) can0 350#01FFAFEF00007F00
(1612343924.775995) can0 360#0000000000240070
(1612343924.775998) can0 380#80727E03E8FFFF7D
(1612343924.776001) can0 316#81500AF07A370200
(1612343924.783821) can1 48C#0000000000000000
(1612343924.783826) can0 329#004500000000218C
(1612343924.783830) can1 4F2#0000000000000000
(1612343924.783833) can0 316#81500AF07A370200
(1612343924.791819) can0 329#004500000000218C
(1612343924.791824) can0 335#0000000000000000
(1612343924.791829) can0 33A#0006000000000000
(1612343924.791848) can1 601#000A006A00000000
(1612343924.799817) can0 39A#20FB000B3E000000
(1612343924.799821) can0 3BA#0000000000000000
(1612343924.799824) can0 3C5#96D0000000000000
(1612343924.799828) can1 468#0000000000000000
(1612343924.807816) can0 38C#00000000ED287AAD
(1612343924.807819) can1 475#0000000000000000
(1612343924.807822) can0 38F#7E7FCEED00000000
(1612343924.807825) can0 3CA#800480040CB78043
(1612343924.815811) can0 350#01FFAFEF00007F00
(1612343924.815815) can0 360#00000000002400BC
(1612343924.815818) can0 380#80727E03E8FFFF7D
(1612343924.815821) can0 316#81500AF07A370200
(1612343924.823820) can0 329#004500000000218C
(1612343924.823824) can0 335#0000000000000000
(1612343924.823827) can0 33A#0006000000000000
(1612343924.823831) can1 44B#6200000090660000
(1612343924.831821) can1 44D#0000000000000000
(1612343924.831825) can1 44C#000A000A00000000
(1612343924.831828) can0 316#81500AF07A370200
(1612343924.831831) can1 601#000A006A00000000
(1612343924.839818) can0 39A#20FB000B7A000000
(1612343924.839822) can0 3BA#0000000000000000
(1612343924.839824) can0 316#81500AF07A370200
(1612343924.839826) can0 38A#00000000000000EF
(1612343924.847910) can0 38C#00000000EF347AAD
(1612343924.847911) can0 38F#7E7FD2EF00000000
(1612343924.847913) can0 396#00040004AD0000FF
(1612343924.847914) can0 3CA#800480040CB78043
(1612343924.855899) can1 519#0000000000000000
(1612343924.855902) can0 350#01FFAFEF00007F00
(1612343924.855903) can0 360#00000000002400F8
(1612343924.855904) can0 329#004500000000218C
(1612343924.863909) can0 335#0000000000000000
(1612343924.863911) can0 33A#0006000000000000
(1612343924.863912) can0 340#0004000000000000
(1612343924.863913) can0 316#81500AF07A370200
(1612343924.872053) can0 329#004500000000218C
(1612343924.872055) can0 335#0000000000000000
(1612343924.872056) can0 33A#0006000000000000
(1612343924.872057) can1 423#270F000FFFFFF000
(1612343924.880005) can1 424#3E5F5F0000000000
(1612343924.880007) can1 43A#00000000FF0FF000
(1612343924.880008) can1 43C#00000000000000F0
(1612343924.880009) can0 38A#000000000000002B
(1612343924.888053) can0 38C#00000000F1807AAD
(1612343924.888055) can0 38F#7E7F66F100000000
(1612343924.888057) can0 396#00040004AD00001D
(1612343924.888058) can0 3C0#000005F07FFF4401
(1612343924.896047) can0 3CA#800480040CB28043
(1612343924.896050) can0 409#0000000000000000
(1612343924.896052) can0 470#0000000000000000
(1612343924.896054) can0 316#81500AF07A370200
(1612343924.904049) can0 329#004500000000218C
(1612343924.904052) can0 703#0006000000000000
(1612343924.904055) can0 335#0000000000000000
(1612343924.904059) can0 71A#0006000000000000
(1612343924.911893) can0 709#0006000000000000
(1612343924.911897) can0 316#81500AF07A370200
(1612343924.911900) can0 329#004500000000218C
(1612343924.911904) can1 601#000A006A00000000
(1612343924.920038) can0 39A#20FB000BF2000000
(1612343924.920041) can0 316#81500AF07A370200
(1612343924.920044) can0 329#004500000000218C
(1612343924.920047) can0 38A#0000000000000067
(1612343924.928063) can1 396#0004000400000020
(1612343924.928068) can0 38C#00000000F39C7AAD
(1612343924.928071) can1 39F#0004000400000020
(1612343924.928074) can0 3CA#800480040CBE8043
(1612343924.936016) can0 350#01FFAFEF00007F00
(1612343924.936020) can0 360#0000000000240070
(1612343924.936023) can0 380#80727E03E8FFFF7D
(1612343924.936026) can0 329#004500000000218C
(1612343924.944068) can0 335#0000000000000000
(1612343924.944072) can0 33A#0006000000000000
(1612343924.944075) can0 340#0004000000000000
(1612343924.944078) can0 3C5#96D0000000000000
(1612343924.952011) can0 3C9#FFFFFFFFFFFFFFFF
(1612343924.952015) can0 511#000027B400000000
(1612343924.952018) can0 51A#0000000000000000
(1612343924.952022) can1 601#000A006A00000000
(1612343924.959918) can0 39A#20FB000B3E000000
(1612343924.959922) can0 3BA#0000000000000000
(1612343924.959925) can0 316#81500AF07A370200
(1612343924.959929) can0 38A#00000000000000A3
(1612343924.967883) can0 38C#00000000F5B87AAD
(1612343924.967889) can0 38F#7E7F5EF500000000
(1612343924.967892) can0 396#00040004AD000059
(1612343924.967896) can0 3CA#800480040CBE8043
(1612343924.976063) can0 350#01FFAFEF00007F00
(1612343924.976068) can0 360#00000000002400BC
(1612343924.976071) can0 380#80727E03E8FFFF7D
(1612343924.976075) can1 48C#0000000000000000
(1612343924.983924) can0 329#004500000000218C
(1612343924.983929) can1 4F2#0000000000000000
(1612343924.983931) can0 335#0000000000000000
(1612343924.983934) can0 316#81500AF07A370200
(1612343924.992071) can0 329#004500000000218C
(1612343924.992075) can0 335#0000000000000000
(1612343924.992078) can0 33A#0006000000000000
(1612343924.992081) can1 601#000A006A00000000
(1612343924.999854) can0 39A#20FB000B7A000000
(1612343924.999859) can0 3BA#0000000000000000
(1612343924.999864) can0 3C5#96D0000000000000
(1612343924.999869) can1 468#0000000000000000
(1612343925.008065) can0 38A#00000000000000EF
(1612343925.008070) can1 475#0000000000000000
(1612343925.008073) can0 38C#00000000F7A47AAD
(1612343925.008076) can0 3CA#800480040CBC8043
(1612343925.016064) can0 350#01FFAFEF00007F00
(1612343925.016068) can0 360#00000000002400F8
(1612343925.016071) can0 380#80737E03E8FFFF7D
(1612343925.016074) can0 329#004500000000218C
(1612343925.024067) can0 335#0000000000000000
(1612343925.024071) can0 33A#0006000000000000
(1612343925.024075) can1 600#0400000000000000
(1612343925.024078) can1 44B#6200000090660000
(1612343925.032068) can1 44D#0000000000000000
(1612343925.032073) can0 316#81500AF07A370200
(1612343925.032076) can0 329#004500000000218C
(1612343925.032079) can1 601#000A006A00000000
(1612343925.040075) can0 39A#20FB000BB6000000
(1612343925.040079) can0 3BA#0000000000000000
(1612343925.040082) can0 316#81500AF07A370200
(1612343925.040085) can0 38A#000000000000002B
(1612343925.047932) can0 38C#00000000F9F07AAD
(1612343925.047936) can0 38F#7E7F16F900000000
(1612343925.047939) can0 396#00040004AD000095
(1612343925.047942) can0 3CA#800480040CBC8043
(1612343925.055894) can0 350#01FFAFEF00007F00
(1612343925.055898) can0 360#0000000000240034
(1612343925.055901) can0 380#80727E03E8FFFF7D
(1612343925.055903) can0 329#004500000000218C
(1612343925.063894) can0 335#0000000000000000
(1612343925.063897) can0 33A#0006000000000000
(1612343925.063900) can0 340#0004000000000000
(1612343925.063903) can0 316#81500AF07A370200
(1612343925.072076) can0 329#004500000000218C
(1612343925.072081) can0 335#0000000000000000
(1612343925.072084) can0 33A#0006000000000000
(1612343925.072087) can1 423#270F000FFFFFF000
(1612343925.080073) can1 424#3E5F5F0000000000
(1612343925.080077) can1 43A#00000000FF0FF000
(1612343925.080080) can1 43C#00000000000000F0
(1612343925.080083) can0 38A#0000000000000067
(1612343925.088027) can0 38C#00000000FBEC7AAD
(1612343925.088043) can0 38F#7E7F0AFB00000000
(1612343925.088046) can0 396#00040004AD0000B3
(1612343925.088049) can0 3C0#000005F07FFF4401
(1612343925.095905) can0 3CA#800480040CAB8043
(1612343925.095910) can0 409#0000000000000000
(1612343925.095913) can0 470#0000000000000000
(1612343925.095916) can0 316#81500AF07A1E0200
(1612343925.103874) can0 329#004500000000218C
(1612343925.103879) can0 335#0000000000000000
(1612343925.103883) can0 33A#0006000000000000
(1612343925.103887) can0 316#81500AF07A1E0200
(1612343925.112082) can0 329#004500000000218C
(1612343925.112087) can0 335#0000000000000000
(1612343925.112090) can0 33A#0006000000000000
(1612343925.112094) can1 601#000A006A00000000
(1612343925.120075) can0 39A#20FB000B3E000000
(1612343925.120079) can0 3BA#0000000000000000
(1612343925.120082) can0 316#81500AF07A1E0200
(1612343925.120085) can0 380#80727E03E8FFFF7D
(1612343925.128077) can1 396#00040004000000C0
(1612343925.128082) can0 38A#00000000000000A3
(1612343925.128085) can1 39F#00040004000000C0
(1612343925.128088) can0 3CA#800180010CAB8043
(1612343925.136071) can0 350#01FFAFEF00007F00
(1612343925.136075) can0 360#00000000002400BC
(1612343925.136078) can0 380#80727E03E8FFFF7D
(1612343925.136081) can0 329#004500000000218C
(1612343925.143877) can0 335#0000000000000000
(1612343925.143883) can0 33A#0006000000000000
(1612343925.143887) can0 340#0004000000000000
(1612343925.143891) can0 50C#155C080000000000
(1612343925.151911) can0 510#00000000270F0000
(1612343925.151914) can0 511#000027B400000000
(1612343925.151917) can0 51A#0000000000000000
(1612343925.151921) can1 601#000A006A00000000
(1612343925.159879) can0 39A#20FB000B7A000000
(1612343925.159885) can0 3BA#0000000000000000
(1612343925.159888) can0 316#81500AF07A1E0200
(1612343925.159894) can0 38A#00000000000000EF
(1612343925.167947) can0 38C#00000000FFA57AAE
(1612343925.167951) can0 38F#7E7F32FF00000000
(1612343925.167954) can0 396#00040004AE0000FE
(1612343925.167957) can0 3CA#800180010CB78043
(1612343925.175917) can0 350#01FFAFEF00007F00
(1612343925.175921) can0 360#00000000002400F8
(1612343925.175924) can0 380#80727E03E8FFFF7D
(1612343925.175928) can1 48C#0000000000000000
(1612343925.184031) can0 329#004500000000218C
(1612343925.184036) can1 4F2#0000000000000000
(1612343925.184040) can0 335#0000000000000000
(1612343925.184044) can1 457#01FF01FF01FF01FF
(1612343925.191920) can0 316#81500AF07A370200
(1612343925.191925) can0 329#004500000000218C
(1612343925.191928) can0 335#0000000000000000
(1612343925.191932) can1 601#000A006A00000000
(1612343925.199913) can0 39A#20FB000BB6000000
(1612343925.199917) can0 3BA#0000000000000000
(1612343925.199920) can0 3C5#96D0000000000000
(1612343925.199923) can1 468#0000000000000000
(1612343925.208083) can0 38A#000000000000002B
(1612343925.208087) can1 475#0000000000000000
(1612343925.208090) can0 38C#0000000001B37AAD
(1612343925.208093) can0 3CA#800480040CB78043
(1612343925.215952) can0 350#01FFAFEF00007F00
(1612343925.215956) can0 360#0000000000240034
(1612343925.215959) can0 380#80737E03E8FFFF7D
(1612343925.215962) can0 329#004500000000218C
(1612343925.224109) can0 335#0000000000000000
(1612343925.224113) can0 33A#0006000000000000
(1612343925.224117) can1 461#07F86B013EC00000
(1612343925.224120) can1 44B#6200000090660000
(1612343925.232109) can1 44D#0000000000000000
(1612343925.232113) can0 316#81500AF07A370200
(1612343925.232128) can0 329#004500000000218C
(1612343925.232131) can1 601#000A006A00000000
(1612343925.240048) can0 39A#20FB000BF2000000
(1612343925.240053) can0 3BA#0000000000000000
(1612343925.240056) can0 316#81500AF07A370200
(1612343925.240059) can0 380#80727E03E8FFFF7D
(1612343925.248097) can0 38A#0000000000000067
(1612343925.248102) can0 38C#0000000003AF7AAD
(1612343925.248106) can0 38F#7E7F490300000000
(1612343925.248109) can0 3CA#800480040CB78043
(1612343925.256107) can0 350#01FFAFEF00007F00
(1612343925.256111) can0 360#0000000000240070
(1612343925.256114) can0 380#80737E03E8FFFF7D
(1612343925.256117) can0 329#004500000000218C
(1612343925.264116) can0 335#0000000000000000
(1612343925.264120) can0 33A#0006000000000000
(1612343925.264123) can0 340#0004000000000000
(1612343925.264126) can0 316#81500AF07A1E0200
(1612343925.271904) can0 329#004500000000218C
(1612343925.271908) can0 335#0000000000000000
(1612343925.271911) can0 33A#0006000000000000
(1612343925.271914) can1 423#270F000FFFFFF000
(1612343925.280111) can1 424#3E5F5F0000000000
(1612343925.280115) can1 43A#00000000FF0FF000
(1612343925.280118) can1 43C#00000000000000F0
(1612343925.280122) can0 38A#00000000000000A3
(1612343925.288106) can0 38C#00000000058B7AAD
(1612343925.288110) can0 38F#7E7F6D0500000000
(1612343925.288113) can0 396#00040004AD000059
(1612343925.288116) can0 3C0#000005F07FFF4401
(1612343925.296113) can0 3CA#800180010CB78043
(1612343925.296117) can0 409#0000000000000000
(1612343925.296120) can0 470#0000000000000000
(1612343925.296123) can0 329#004500000000218C
(1612343925.303932) can0 335#0000000000000000
(1612343925.303936) can0 33A#0006000000000000
(1612343925.303939) can0 340#0004000000000000
(1612343925.303942) can0 316#81500AF07A1E0200
(1612343925.311930) can0 329#004500000000218C
(1612343925.311934) can0 335#0000000000000000
(1612343925.311937) can0 33A#0006000000000000
(1612343925.311940) can1 601#000A006A00000000
(1612343925.319942) can0 39A#20FB000B7A000000
(1612343925.319946) can0 3BA#0000000000000000
(1612343925.319949) can0 316#81500AF07A370200
(1612343925.319952) can0 380#80727E03E8FFFF7D
(1612343925.327884) can1 396#0004000400000060
(1612343925.327888) can0 38A#00000000000000EF
(1612343925.327892) can1 39F#0004000400000060
(1612343925.327895) can0 3CA#800480040CB98043
(1612343925.335877) can0 350#01FFAFEF00007F00
(1612343925.335879) can0 360#00000000002400F8
(1612343925.335881) can0 380#80737E03E8FFFF7D
(1612343925.335882) can0 329#004500000000218C
(1612343925.344021) can0 335#0000000000000000
(1612343925.344022) can0 33A#0006000000000000
(1612343925.344023) can0 340#0004000000000000
(1612343925.344024) can0 4F2#0000000000000000
(1612343925.352118) can0 505#6B0BA00000001000
(1612343925.352120) can0 50C#155C080000000000
(1612343925.352121) can0 510#00000000270F0000
(1612343925.352122) can1 601#000A006A00000000
(1612343925.360144) can0 39A#20FB000BB6000000
(1612343925.360146) can1 519#0000000000000000
(1612343925.360147) can0 3BA#0000000000000000
(1612343925.360148) can0 38A#000000000000002B
(1612343925.368039) can0 38C#0000000009C37AAD
(1612343925.368041) can0 38F#7E7F250900000000
(1612343925.368042) can0 396#00040004AD000095
(1612343925.368044) can0 3CA#800480040CB98043
(1612343925.376144) can0 350#01FFAFEF00007F00
(1612343925.376146) can0 360#0000000000240034
(1612343925.376147) can1 360#0000000000200000
(1612343925.376155) can1 53F#4E2A32E4630C0000
(1612343925.383919) can0 329#004500000000218C
(1612343925.383921) can1 55C#0000000000000000
(1612343925.383922) can0 335#0000000000000000
(1612343925.383924) can1 456#0FFF0FFF0FFF0FFF
(1612343925.391984) can1 457#01FF01FF01FF01FF
(1612343925.391991) can0 316#81500AF07A370200
(1612343925.391995) can0 329#004500000000218C
(1612343925.391996) can1 601#000A006A00000000
(1612343925.399964) can0 39A#20FB000BF2000000
(1612343925.399969) can0 3BA#0000000000000000
(1612343925.399973) can0 3C5#96D0000000000000
(1612343925.399979) can1 468#0000000000000000
(1612343925.407981) can0 38A#0000000000000067
(1612343925.407986) can1 475#0000000000000000
(1612343925.407990) can0 38C#000000000BDF7AAD
(1612343925.407994) can0 3CA#800480040CBC8043
(1612343925.416013) can0 350#01FFAFEF00007F00
(1612343925.416020) can0 360#0000000000240070
(1612343925.416023) can0 380#80727E03E8FFFF7D
(1612343925.416027) can0 329#004500000000218C
(1612343925.424009) can0 335#0000000000000000
(1612343925.424015) can0 33A#0006000000000000
(1612343925.424019) can1 461#07F86B013EC00000
(1612343925.424023) can1 44B#6200000090660000
(1612343925.431980) can1 44D#0000000000000000
(1612343925.431984) can0 316#81500AF07A370200
(1612343925.431987) can0 329#004500000000218C
(1612343925.431990) can1 601#000A006A00000000
(1612343925.439904) can0 39A#20FB000B3E000000
(1612343925.439908) can0 3BA#0000000000000000
(1612343925.439911) can0 316#81500AF07A370200
(1612343925.439914) can0 38A#00000000000000A3
(1612343925.447916) can0 38C#000000000DFB7AAD
(1612343925.447922) can0 38F#7E7F1D0D00000000
(1612343925.447926) can0 396#00040004AD0000D1
(1612343925.447931) can0 3CA#800480040CC68043
(1612343925.455959) can0 350#01FFAFEF00007F00
(1612343925.455963) can0 360#00000000002400BC
(1612343925.455966) can0 380#80727E03E8FFFF7D
(1612343925.455969) can0 329#004500000000218C
(1612343925.463981) can0 335#0000000000000000
(1612343925.463985) can0 33A#0006000000000000
(1612343925.463988) can0 340#0004000000000000
(1612343925.463991) can0 316#81500AF07A370200
(1612343925.471915) can0 329#004500000000218C
(1612343925.471920) can0 335#0000000000000000
(1612343925.471924) can0 33A#0006000000000000
(1612343925.471929) can1 423#270F000FFFFFF000
(1612343925.480027) can1 424#3E5F5F0000000000
(1612343925.480031) can1 43A#00000000FF0FF000
(1612343925.480034) can0 39A#20FB000B7A000000
(1612343925.480038) can0 380#80727E03E8FFFF7D
(1612343925.487953) can0 38A#00000000000000EF
(1612343925.487957) can0 38C#000000000FE77AAD
(1612343925.487960) can0 38F#7E7F010F00000000
(1612343925.487963) can0 3C0#000005F07FFF4401
(1612343925.495991) can0 3CA#800480040CC68043
(1612343925.495995) can0 409#0000000000000000
(1612343925.495998) can0 470#0000000000000000
(1612343925.496001) can0 316#81500AF07A370200
(1612343925.503918) can0 329#004500000000218C
(1612343925.503923) can0 335#0000000000000000
(1612343925.503927) can0 33A#0006000000000000
(1612343925.503931) can0 316#81500AF07A370200
(1612343925.511919) can0 329#004500000000218C
(1612343925.511924) can0 335#0000000000000000
(1612343925.511928) can0 33A#0006000000000000
(1612343925.511932) can1 601#000A006A00000000
(1612343925.519961) can0 39A#20FB000BB6000000
(1612343925.519965) can0 3BA#0000000000000000
(1612343925.519968) can0 316#81500AF07A370200
(1612343925.519971) can0 380#80727E03E8FFFF7D
(1612343925.527934) can1 396#0004000400000000
(1612343925.527936) can0 38A#000000000000002B
(1612343925.527938) can1 39F#0004000400000000
(1612343925.527940) can0 3CA#800480040CB08043
(1612343925.535935) can0 350#01FFAFEF00007F00
(1612343925.535936) can0 360#0000000000240034
(1612343925.535937) can0 380#80727E03E8FFFF7D
(1612343925.535938) can0 329#004500000000218C
(1612343925.543903) can0 335#0000000000000000
(1612343925.543905) can0 33A#0006000000000000
(1612343925.543906) can0 340#0004000000000000
(1612343925.543907) can0 50C#155C080000000000
(1612343925.551930) can0 510#00000000270F0000
(1612343925.551935) can0 511#000027B400000000
(1612343925.551939) can0 51A#0000000000000000
(1612343925.551943) can1 601#000A006A00000000
(1612343925.560119) can0 3BA#0000000000000000
(1612343925.560120) can0 39A#20FB000BF2000000
(1612343925.560121) can0 316#81500AF07A1E0200
(1612343925.560122) can0 380#80717E03E8FFFF7D
(1612343925.568101) can0 38A#0000000000000067
(1612343925.568102) can0 38C#00000000134F7AAD
(1612343925.568103) can0 38F#7E7FA91300000000
(1612343925.568103) can0 3CA#800180010CB08043
(1612343925.575904) can0 350#01FFAFEF00007F00
(1612343925.575905) can0 360#0000000000240070
(1612343925.575906) can1 360#0000000000200000
(1612343925.575907) can1 48C#0000000000000000
(1612343925.584099) can0 329#004500000000218C
(1612343925.584101) can1 4F2#0000000000000000
(1612343925.584101) can0 335#0000000000000000
(1612343925.584102) can1 459#4100410041004100
(1612343925.591929) can1 456#0FFF0FFF0FFF0FFF
(1612343925.591930) can1 457#01FF01FF01FF01FF
(1612343925.591931) can1 458#68B668B6C960C960
(1612343925.591931) can1 601#000A006A00000000
(1612343925.599951) can0 3BA#0000000000000000
(1612343925.599952) can0 39A#20FB000B3E000000
(1612343925.599953) can0 3C5#96D0000000000000
(1612343925.599953) can0 380#80737E03E8FFFF7D
(1612343925.607911) can1 475#0000000000000000
(1612343925.607914) can0 38A#00000000000000A3
(1612343925.607915) can0 38C#00000000156B7AAD
(1612343925.607916) can0 3CA#800180010CC38043
(1612343925.616097) can0 350#01FFAFEF00007F00
(1612343925.616099) can0 360#00000000002400BC
(1612343925.616100) can0 380#80727E03E8FFFF7D
(1612343925.616102) can0 329#004500000000218C
(1612343925.623974) can0 335#0000000000000000
(1612343925.623978) can0 33A#0006000000000000
(1612343925.623980) can1 461#07F86B013EC00000
(1612343925.623983) can1 44B#6200000090660000
(1612343925.631973) can1 44D#0000000000000000
(1612343925.631977) can0 316#81500AF07A370200
(1612343925.631980) can0 329#004500000000218C
(1612343925.631983) can1 601#000A006A00000000
(1612343925.640203) can0 3BA#0000000000000000
(1612343925.640208) can0 39A#20FB000B7A000000
(1612343925.640211) can0 316#81500AF07A370200
(1612343925.640214) can0 380#80737E03E8FFFF7D
(1612343925.648019) can0 38A#00000000000000EF
(1612343925.648023) can0 38C#0000000017777AAD
(1612343925.648026) can0 38F#7E7F911700000000
(1612343925.648029) can0 3CA#800480040CC38043
(1612343925.656208) can0 350#01FFAFEF00007F00
(1612343925.656213) can0 360#00000000002400F8
(1612343925.656216) can0 380#80727E03EDFFFF7D
(1612343925.656219) can0 329#004500000000218C
(1612343925.664025) can0 335#0000000000000000
(1612343925.664030) can0 33A#0006000000000000
(1612343925.664033) can0 340#0004000000000000
(1612343925.664036) can0 316#81500AF07A370200
(1612343925.672215) can0 329#004500000000218C
(1612343925.672232) can0 335#0000000000000000
(1612343925.672236) can0 33A#0006000000000000
(1612343925.672239) can1 423#270F000FFFFFF000
(1612343925.680005) can1 424#3E5F5F0000000000
(1612343925.680011) can1 43A#00000000FF0FF000
(1612343925.680015) can0 3BA#0000000000000000
(1612343925.680019) can0 360#0000000000240025
(1612343925.688182) can0 380#80727E03E8FFFF7D
(1612343925.688187) can0 38A#000000000000002B
(1612343925.688190) can0 38C#0000000019237AAD
(1612343925.688192) can0 3C0#000005F07FFF4401
(1612343925.695946) can0 3CA#800480040CB7804D
(1612343925.695953) can0 409#0000000000000000
(1612343925.695957) can0 470#0000000000000000
(1612343925.695961) can0 316#81500AF07A370200
(1612343925.703994) can0 329#004500000000218C
(1612343925.703998) can0 335#0000000000000000
(1612343925.704001) can0 33A#0006000000000000
(1612343925.704003) can0 316#81500AF07A370200
(1612343925.711944) can0 329#004500000000218C
(1612343925.711949) can0 335#0000000000000000
(1612343925.711953) can0 33A#0006000000000000
(1612343925.711957) can1 601#000A006A00000000
(1612343925.719988) can0 3BA#0000000000000000
(1612343925.719992) can0 39A#20FB000BF2000000
(1612343925.719995) can0 316#81500AF07A380200
(1612343925.719998) can0 360#0000000000240061
(1612343925.727933) can1 396#00040004000000A0
(1612343925.727936) can0 380#80737E03E8FFFF7D
(1612343925.727937) can1 39F#00040004000000A0
(1612343925.727939) can0 3CA#800480040CD7804D
(1612343925.735932) can0 350#01FFAFEF00007F00
(1612343925.735934) can0 360#0000000000240070
(1612343925.735935) can0 380#80727E03E3FFFF7D
(1612343925.735937) can0 329#004500000000218C
(1612343925.743962) can0 335#0000000000000000
(1612343925.743963) can0 33A#0006000000000000
(1612343925.743964) can0 340#0004000000000000
(1612343925.743965) can0 50C#155C080000000000
(1612343925.752143) can0 510#00000000270F0000
(1612343925.752144) can0 511#000027B400000000
(1612343925.752145) can0 51A#0000000000000000
(1612343925.752147) can1 601#000A006A00000000
(1612343925.760003) can0 3BA#0000000000000000
(1612343925.760004) can0 39A#20FB000B3E000000
(1612343925.760004) can0 316#81500AF07A1E0200
(1612343925.760005) can0 380#80727E03E3FFFF7D
(1612343925.768139) can0 38A#00000000000000A3
(1612343925.768140) can0 38C#000000001D277FAD
(1612343925.768141) can0 38F#7E7FFD1D00000000
(1612343925.768142) can0 3CA#800180010CD7804D
(1612343925.775958) can0 3F0#0000000000000000
(1612343925.775959) can1 360#0000000000200000
(1612343925.775960) can0 350#01FFAFEF00007F00
(1612343925.775961) can1 48C#0000000000000000
(1612343925.784144) can0 329#004500000000218C
(1612343925.784146) can1 4F2#0000000000000000
(1612343925.784147) can0 335#0000000000000000
(1612343925.784147) can1 455#3F3F3F3FFFFFFFFF
(1612343925.792238) can1 459#4100410041004100
(1612343925.792239) can1 456#0FFF0FFF0FFF0FFF
(1612343925.792240) can1 457#01FF01FF01FF01FF
(1612343925.792240) can1 601#000A006A00000000
(1612343925.800093) can0 3BA#0000000000000000
(1612343925.800094) can0 3C5#96D0000000000000
(1612343925.800095) can0 39A#20FB000B7A000000
(1612343925.800096) can1 475#0000000000000000
(1612343925.808200) can0 380#80717E03E3FFFF7D
(1612343925.808202) can0 38A#00000000000000EF
(1612343925.808202) can0 38C#000000001F3B7FAD
(1612343925.808203) can0 3CA#800180010CC18043
(1612343925.816039) can0 3F0#0000000000000000
(1612343925.816041) can0 350#01FFAFEF00007F00
(1612343925.816049) can0 360#00000000002400F8
(1612343925.816050) can0 329#004500000000218C
(1612343925.823952) can0 335#0000000000000000
(1612343925.823955) can0 33A#0006000000000000
(1612343925.823957) can1 461#07F86B013EC00000
(1612343925.823959) can1 44B#6200000090660000
(1612343925.832030) can1 44D#0000000000000000
(1612343925.832036) can0 316#81500AF07A370200
(1612343925.832039) can1 44C#000A000A00000000
(1612343925.832041) can1 601#000A006A00000000
(1612343925.840222) can0 3BA#0000000000000000
(1612343925.840227) can0 39A#20FB000BB6000000
(1612343925.840230) can0 316#81500AF07A370200
(1612343925.840234) can0 380#80737E03E3FFFF7D
(1612343925.848030) can0 38A#000000000000002B
(1612343925.848035) can0 38C#0000000021607FAD
(1612343925.848039) can0 38F#7E7FBA2100000000
(1612343925.848043) can0 3CA#800480040CC18043
(1612343925.856012) can1 519#0000000000000000
(1612343925.856017) can0 3F0#0000000000000000
(1612343925.856020) can0 350#01FFAFEF00007F00
(1612343925.856023) can0 329#004500000000218C
(1612343925.863981) can0 335#0000000000000000
(1612343925.863986) can0 33A#0006000000000000
(1612343925.863989) can0 340#0004000000000000
(1612343925.863992) can0 316#81500AF07A370200
(1612343925.872012) can0 329#004500000000218C
(1612343925.872016) can0 335#0000000000000000
(1612343925.872019) can0 33A#0006000000000000
(1612343925.872023) can1 423#270F000FFFFFF000
(1612343925.879962) can0 401#00007F0620000000
(1612343925.879967) can1 424#3E5F5F0000000000
(1612343925.879970) can0 3BA#0000000000000000
(1612343925.879973) can0 360#0000000000240061
(1612343925.887981) can0 380#80727E03E3FFFF7D
(1612343925.887983) can0 38A#0000000000000067
(1612343925.887984) can0 38C#00000000237C7FAD
(1612343925.887986) can0 3C0#000005F07FFF4401
(1612343925.895994) can0 3CA#800480040CB28043
(1612343925.895995) can0 409#0000000000000000
(1612343925.895996) can0 470#0000000000000000
(1612343925.895997) can0 316#81500AF07A1E0200
(1612343925.903950) can0 519#0000000000000000
(1612343925.903952) can0 329#004500000000218C
(1612343925.903953) can0 700#0306EBAD04000000
(1612343925.903955) can0 71A#0006000000000000
(1612343925.912051) can0 709#0006000000000000
(1612343925.912053) can0 316#81500AF07A1E0200
(1612343925.912054) can0 329#004500000000218C
(1612343925.912055) can1 601#000A006A00000000
(1612343925.919958) can0 39A#20FB000B3E000000
(1612343925.919960) can0 316#81500AF07A1E0200
(1612343925.919962) can0 329#004500000000218C
(1612343925.919964) can0 360#00000000002400AD
(1612343925.928018) can1 396#0004000400000040
(1612343925.928020) can0 380#80737E03E8FFFF7D
(1612343925.928021) can1 39F#0004000400000040
(1612343925.928022) can0 3CA#800180010CB28043
(1612343925.935965) can0 350#01FFAFEF00007F00
(1612343925.935967) can0 360#00000000002400BC
(1612343925.935969) can0 380#80737E03E8FFFF7D
(1612343925.935970) can0 329#004500000000218C
(1612343925.943960) can0 335#0000000000000000
(1612343925.943962) can0 33A#0006000000000000
(1612343925.943963) can0 340#0004000000000000
(1612343925.943964) can0 510#00000000270F0000
(1612343925.952011) can0 511#000027B400000000
(1612343925.952013) can0 51A#0000000000000000
(1612343925.952014) can0 316#81500AF07A1E0200
(1612343925.952016) can1 601#000A006A00000000
(1612343925.959989) can0 3BA#0000000000000000
(1612343925.959992) can0 39A#20FB000B7A000000
(1612343925.959994) can0 316#81500AF07A1E0200
(1612343925.960015) can0 380#80727E03E8FFFF7D
(1612343925.967996) can0 38A#00000000000000EF
(1612343925.967998) can0 38C#0000000027787AAD
(1612343925.967999) can0 38F#7E7F9E2700000000
(1612343925.968000) can0 3CA#800180010CB78043
(1612343925.975997) can0 350#01FFAFEF00007F00
(1612343925.975999) can1 360#0000000000200000
(1612343925.976000) can0 360#00000000002400F8
(1612343925.976001) can1 48C#0000000000000000
(1612343925.983999) can0 329#004500000000218C
(1612343925.984001) can1 4F2#0000000000000000
(1612343925.984002) can0 335#0000000000000000
(1612343925.984003) can1 445#FF000B0000040001
(1612343925.992001) can1 455#3F3F3F3FFFFFFFFF
(1612343925.992003) can1 459#4100410041004100
(1612343925.992004) can1 456#0FFF0FFF0FFF0FFF
(1612343925.992005) can1 601#000A006A00000000
(1612343925.999968) can0 3BA#0000000000000000
(1612343925.999971) can0 3C5#96D0000000000000
(1612343925.999972) can0 3C9#FFFFFFFFFFFFFFFF
(1612343925.999974) can0 380#80737E03E8FFFF7D
(1612343926.008003) can1 475#0000000000000000
(1612343926.008005) can0 38A#000000000000002B
(1612343926.008006) can0 38C#00000000292C7AAD
(1612343926.008007) can0 3CA#800480040CB78043
(1612343926.015983) can0 350#01FFAFEF00007F00
(1612343926.015985) can0 360#0000000000240034
(1612343926.015987) can0 380#80727E03E8FFFF7D
(1612343926.015988) can0 329#004500000000218C
(1612343926.024200) can0 335#0000000000000000
(1612343926.024202) can0 33A#0006000000000000
(1612343926.024203) can1 600#0400000000000000
(1612343926.024204) can1 44B#6200000090660000
(1612343926.032061) can1 44D#0000000000000000
(1612343926.032063) can0 316#81500AF07A370200
(1612343926.032064) can0 329#004500000000218C
(1612343926.032065) can1 601#000A006A00000000
(1612343926.040199) can0 39A#20FB000BF2000000
(1612343926.040201) can0 316#81500AF07A370200
(1612343926.040202) can0 329#004500000000218C
(1612343926.040203) can0 380#80737E03E8FFFF7D
(1612343926.047968) can0 38A#0000000000000067
(1612343926.047969) can0 38C#000000002B307AAD
(1612343926.047971) can0 38F#7E7FD62B00000000
(1612343926.047972) can0 3CA#800480040CB08043
(1612343926.056006) can0 3F0#0000000000000000
(1612343926.056010) can0 350#01FFAFEF00007F00
(1612343926.056013) can0 360#0000000000240070
(1612343926.056016) can0 329#004500000000218C
(1612343926.064054) can0 335#0000000000000000
(1612343926.064058) can0 33A#0006000000000000
(1612343926.064061) can0 340#0004000000000000
(1612343926.064063) can0 316#81500AF07A370200
(1612343926.072069) can0 329#004500000000218C
(1612343926.072073) can0 335#0000000000000000
(1612343926.072076) can0 33A#0006000000000000
(1612343926.072080) can1 423#270F000FFFFFF000
(1612343926.080204) can1 424#3E5F5F0000000000
(1612343926.080208) can1 43A#00000000FF0FF000
(1612343926.080212) can0 39A#20FB000B3E000000
(1612343926.080214) can0 380#80737E03E8FFFF7D
(1612343926.088198) can0 38A#00000000000000A3
(1612343926.088202) can0 38C#000000002D147AAD
(1612343926.088205) can0 38F#7E7FF22D00000000
(1612343926.088208) can0 3C0#000005F07FFF4401
(1612343926.096213) can0 3CA#800480040CC68043
(1612343926.096217) can0 409#0000000000000000
(1612343926.096220) can0 470#0000000000000000
(1612343926.096223) can0 316#81500AF07A370200
(1612343926.104199) can0 329#004500000000218C
(1612343926.104207) can0 335#0000000000000000
(1612343926.104210) can0 33A#0006000000000000
(1612343926.104213) can0 316#81500AF07A370200
(1612343926.112196) can0 329#004500000000218C
(1612343926.112200) can0 335#0000000000000000
(1612343926.112203) can0 33A#0006000000000000
(1612343926.112206) can1 601#000A006A00000000
(1612343926.120229) can0 39A#20FB000B7A000000
(1612343926.120233) can0 316#81500AF07A1E0200
(1612343926.120236) can0 329#004500000000218C
(1612343926.120239) can1 396#00040004000000E0
(1612343926.128228) can0 380#80737E03E8FFFF7D
(1612343926.128233) can1 39F#00040004000000E0
(1612343926.128236) can0 38A#00000000000000EF
(1612343926.128239) can0 3CA#800180010CC68043
(1612343926.136231) can0 3F0#0000000000000000
(1612343926.136235) can0 350#01FFAFEF00007F00
(1612343926.136238) can0 360#00000000002400F8
(1612343926.136241) can0 329#004500000000218C
(1612343926.144227) can0 335#0000000000000000
(1612343926.144231) can0 33A#0006000000000000
(1612343926.144234) can0 340#0004000000000000
(1612343926.144237) can0 510#00000000270F0000
(1612343926.152222) can0 511#000027B400000000
(1612343926.152226) can0 51A#0000000000000000
(1612343926.152229) can0 316#81500AF07A1E0200
(1612343926.152232) can1 601#000A006A00000000
(1612343926.160225) can0 39A#20FB000BB6000000
(1612343926.160229) can0 316#81500AF07A1E0200
(1612343926.160232) can0 329#004500000000218C
(1612343926.160235) can0 360#0000000000240025
(1612343926.168214) can0 380#80727E03E8FFFF7D
(1612343926.168218) can0 38A#000000000000002B
(1612343926.168221) can0 38C#0000000031BC7AAD
(1612343926.168223) can0 3CA#800180010CD2804D
(1612343926.176051) can0 3F0#0000000000000000
(1612343926.176056) can1 360#0000000000200000
(1612343926.176059) can0 350#01FFAFEF00007F00
(1612343926.176062) can1 48C#0000000000000000
(1612343926.184186) can0 329#004500000000218C
(1612343926.184190) can1 4F2#0000000000000000
(1612343926.184193) can0 335#0000000000000000
(1612343926.184196) can1 445#FF000B0000040001
(1612343926.192236) can1 455#3F3F3F3FFFFFFFFF
(1612343926.192240) can1 459#4100410041004100
(1612343926.192243) can1 456#0FFF0FFF0FFF0FFF
(1612343926.192246) can1 601#000A006A00000000
(1612343926.200176) can0 3C9#FFFFFFFFFFFFFFFF
(1612343926.200180) can0 46B#6371000000001500
(1612343926.200183) can0 519#0000000000000000
(1612343926.200186) can0 360#0000000000240061
(1612343926.208232) can1 475#0000000000000000
(1612343926.208236) can0 380#80727E03E8FFFF7D
(1612343926.208239) can0 38A#0000000000000067
(1612343926.208242) can0 3CA#800180010CD2804D
(1612343926.216025) can0 3F0#0000000000000000
(1612343926.216030) can0 350#01FFAFEF00007F00
(1612343926.216034) can0 360#0000000000240070
(1612343926.216038) can0 329#004500000000218C
(1612343926.224238) can0 335#0000000000000000
(1612343926.224243) can0 33A#0006000000000000
(1612343926.224246) can1 461#07F86B013EC00000
(1612343926.224249) can1 44B#6200000090660000
(1612343926.232241) can0 316#81500AF07A1E0200
(1612343926.232246) can1 44D#0000000000000000
(1612343926.232249) can0 329#004500000000218C
(1612343926.232252) can1 601#000A006A00000000
(1612343926.240243) can0 39A#20FB000B3E000000
(1612343926.240247) can0 316#81500AF07A1E0200
(1612343926.240250) can0 329#004500000000218C
(1612343926.240253) can0 360#00000000002400AD
(1612343926.248236) can0 380#80727E03E8FFFF7D
(1612343926.248240) can0 38A#00000000000000A3
(1612343926.248243) can0 38C#0000000035F57AAE
(1612343926.248246) can0 3CA#800180010CBC804D
(1612343926.256215) can0 3F0#0000000000000000
(1612343926.256232) can0 350#01FFAFEF00007F00
(1612343926.256235) can0 360#00000000002400BC
(1612343926.256238) can0 329#004500000000218C
(1612343926.264237) can0 335#0000000000000000
(1612343926.264241) can0 33A#0006000000000000
(1612343926.264244) can0 340#0004000000000000
(1612343926.264247) can0 316#81500AF07A1E0200
(1612343926.272020) can0 329#004500000000218C
(1612343926.272025) can0 335#0000000000000000
(1612343926.272028) can0 33A#0006000000000000
(1612343926.272031) can1 423#270F000FFFFFF000
(1612343926.280251) can1 424#3E5F5F0000000000
(1612343926.280255) can1 43A#00000000FF0FF000
(1612343926.280259) can0 39A#20FB000B7A000000
(1612343926.280262) can0 360#00000000002400E9
(1612343926.288244) can0 380#80737E03E8FFFF7D
(1612343926.288249) can0 38A#00000000000000EF
(1612343926.288252) can0 38C#0000000037E97AAE
(1612343926.288255) can0 3C0#000005F07FFF4401
(1612343926.296246) can0 3CA#800180010CBC8043
(1612343926.296250) can0 409#0000000000000000
(1612343926.296253) can0 470#0000000000000000
(1612343926.296256) can0 316#81500AF07A1E0200
(1612343926.304233) can0 329#004500000000218C
(1612343926.304238) can0 335#0000000000000000
(1612343926.304241) can0 33A#0006000000000000
(1612343926.304243) can0 316#81500AF07A1E0200
(1612343926.312251) can0 329#004500000000218C
(1612343926.312255) can0 335#0000000000000000
(1612343926.312258) can0 33A#0006000000000000
(1612343926.312261) can1 601#000A006A00000000
(1612343926.320251) can0 39A#20FB000BB6000000
(1612343926.320255) can0 316#81500AF07A1E0200
(1612343926.320258) can0 329#004500000000218C
(1612343926.320261) can0 360#0000000000240025
(1612343926.328203) can1 396#0004000400000080
(1612343926.328207) can0 380#80737E03E3FFFF7D
(1612343926.328210) can1 39F#0004000400000080
(1612343926.328213) can0 3CA#800180010CBC8043
(1612343926.336270) can0 3F0#0000000000000000
(1612343926.336274) can0 350#01FFAFEF00007F00
(1612343926.336277) can0 360#0000000000240034
(1612343926.336280) can0 329#004500000000218C
(1612343926.344249) can0 335#0000000000000000
(1612343926.344253) can0 33A#0006000000000000
(1612343926.344256) can0 340#0004000000000000
(1612343926.344259) can0 450#0000001000000000
(1612343926.352257) can0 45E#0000100000100000
(1612343926.352261) can0 4F2#0000000000000000
(1612343926.352264) can0 505#6B0BA00000001000
(1612343926.352268) can1 601#000A006A00000000
(1612343926.360035) can0 39A#20FB000BF2000000
(1612343926.360041) can1 519#0000000000000000
(1612343926.360046) can0 316#81500AF07A370200
(1612343926.360051) can0 360#0000000000240061
(1612343926.368036) can0 380#80737E03E3FFFF7D
(1612343926.368041) can0 38A#0000000000000067
(1612343926.368046) can0 38C#000000003BEC7FAD
(1612343926.368051) can0 3CA#800480040CBC8043
(1612343926.376026) can0 401#00007F0620000000
(1612343926.376031) can0 3F0#0000000000000000
(1612343926.376036) can1 360#0000000000200000
(1612343926.376040) can1 53F#4E2A32E8630C0000
(1612343926.384028) can0 329#004500000000218C
(1612343926.384033) can1 55C#0000000000000000
(1612343926.384038) can0 335#0000000000000000
(1612343926.384042) can1 445#FF000B0000040001
(1612343926.392071) can1 455#3F3F3F3FFFFFFFFF
(1612343926.392075) can1 459#4100410041004100
(1612343926.392078) can0 316#81500AF07A370200
(1612343926.392081) can1 601#000A006A00000000
(1612343926.400069) can0 462#07F8600000000000
(1612343926.400072) can0 46B#6371000000001500
(1612343926.400087) can0 519#0000000000000000
(1612343926.400091) can1 475#0000000000000000
(1612343926.408044) can0 360#00000000002400AD
(1612343926.408049) can1 5C1#00CB006500000000
(1612343926.408052) can0 380#80737E03E3FFFF7D
(1612343926.408055) can0 3CA#800480040CC38043
(1612343926.416076) can0 3F0#0000000000000000
(1612343926.416081) can0 350#01FFAFEF00007F00
(1612343926.416084) can0 360#00000000002400BC
(1612343926.416087) can0 329#004500000000218C
(1612343926.424032) can0 335#0000000000000000
(1612343926.424037) can0 33A#0006000000000000
(1612343926.424040) can1 461#07F86B013EC00000
(1612343926.424043) can1 44B#6200000090660000
(1612343926.432060) can0 316#81500AF07A1E0200
(1612343926.432065) can1 44D#0000000000000000
(1612343926.432069) can0 329#004500000000218C
(1612343926.432073) can1 601#000A006A00000000
(1612343926.440259) can0 39A#20FB000B7A000000
(1612343926.440264) can0 316#81500AF07A1E0200
(1612343926.440266) can0 329#004500000000218C
(1612343926.440270) can0 360#00000000002400E9
(1612343926.448257) can0 380#80737E03E8FFFF7D
(1612343926.448261) can0 38A#00000000000000EF
(1612343926.448264) can0 38C#000000003FE87AAD
(1612343926.448266) can0 3CA#800180010CC38043
(1612343926.456254) can0 3F0#0000000000000000
(1612343926.456258) can0 350#01FFAFEF00007F00
(1612343926.456261) can0 360#00000000002400F8
(1612343926.456264) can0 329#004500000000218C
(1612343926.464170) can0 335#0000000000000000
(1612343926.464174) can0 33A#0006000000000000
(1612343926.464177) can0 340#0004000000000000
(1612343926.464180) can0 316#81500AF07A1E0200
(1612343926.472270) can0 329#004500000000218C
(1612343926.472274) can0 335#0000000000000000
(1612343926.472277) can0 33A#0006000000000000
(1612343926.472281) can1 423#270F000FFFFFF000
(1612343926.480276) can1 424#3E5F5F0000000000
(1612343926.480281) can1 43A#00000000FF0FF000
(1612343926.480284) can0 39A#20FB000BB6000000
(1612343926.480287) can0 360#0000000000240025
(1612343926.488267) can0 380#80727E03E8FFFF7D
(1612343926.488271) can0 38A#000000000000002B
(1612343926.488274) can0 38C#0000000041427AAD
(1612343926.488276) can0 3C0#000005F07FFF4401
(1612343926.496274) can0 3CA#800480040CBC8043
(1612343926.496279) can0 409#0000000000000000
(1612343926.496282) can0 470#0000000000000000
(1612343926.496285) can0 316#81500AF07A370200
(1612343926.504056) can0 5CF#0001000000060000
(1612343926.504062) can0 329#004500000000218C
(1612343926.504065) can0 335#0000000000000000
(1612343926.504070) can0 316#81500AF07A370200
(1612343926.512277) can0 329#004500000000218C
(1612343926.512281) can0 335#0000000000000000
(1612343926.512284) can0 33A#0006000000000000
(1612343926.512288) can1 601#000A006A00000000
(1612343926.520051) can0 39A#20FB000BF2000000
(1612343926.520055) can0 316#81500AF07A370200
(1612343926.520058) can0 329#004500000000218C
(1612343926.520062) can1 396#0004000400000020
(1612343926.528091) can0 360#0000000000240061
(1612343926.528095) can1 39F#0004000400000020
(1612343926.528098) can0 380#80737E03E8FFFF7D
(1612343926.528101) can0 3CA#800480040CB08043
(1612343926.536275) can0 3F0#0000000000000000
(1612343926.536279) can0 350#01FFAFEF00007F00
(1612343926.536282) can0 360#0000000000240070
(1612343926.536285) can0 329#004500000000218C
(1612343926.544133) can0 335#0000000000000000
(1612343926.544137) can0 33A#0006000000000000
(1612343926.544140) can0 340#0004000000000000
(1612343926.544155) can0 510#00000000270F0000
(1612343926.552280) can0 511#000027B400000000
(1612343926.552284) can0 51A#0000000000000000
(1612343926.552287) can0 316#81500AF07A370200
(1612343926.552291) can1 601#000A006A00000000
(1612343926.560055) can0 39A#20FB000B3E000000
(1612343926.560058) can0 316#81500AF07A370200
(1612343926.560061) can0 329#004500000000218C
(1612343926.560064) can0 360#00000000002400AD
(1612343926.568278) can0 380#80737E03E8FFFF7D
(1612343926.568282) can0 38A#00000000000000A3
(1612343926.568285) can0 38C#00000000457A7AAD
(1612343926.568288) can0 401#00007F0620000000
(1612343926.576276) can0 3F0#0000000000000000
(1612343926.576281) can1 360#0000000000200000
(1612343926.576284) can0 350#01FFAFEF00007F00
(1612343926.576287) can1 48C#0000000000000000
(1612343926.584270) can0 329#004500000000218C
(1612343926.584275) can1 4F2#0000000000000000
(1612343926.584278) can0 335#0000000000000000
(1612343926.584281) can1 445#FF000B0000040001
(1612343926.592287) can1 455#3F3F3F3FFFFFFFFF
(1612343926.592291) can0 316#81500AF07A370200
(1612343926.592295) can1 459#4100410041004100
(1612343926.592298) can1 601#000A006A00000000
(1612343926.600249) can0 462#07F8600000000000
(1612343926.600253) can0 46B#6371000000001500
(1612343926.600256) can0 519#0000000000000000
(1612343926.600260) can1 475#0000000000000000
(1612343926.608288) can0 360#00000000002400E9
(1612343926.608292) can0 380#80737E03E8FFFF7D
(1612343926.608295) can0 38A#00000000000000EF
(1612343926.608298) can0 3F0#0000000000000000
(1612343926.616233) can0 350#01FFAFEF00007F00
(1612343926.616237) can0 360#00000000002400F8
(1612343926.616240) can0 380#80727E03E8FFFF7D
(1612343926.616243) can0 329#004500000000218C
(1612343926.624231) can0 335#0000000000000000
(1612343926.624235) can0 33A#0006000000000000
(1612343926.624238) can1 461#07F86B013EC00000
(1612343926.624241) can1 44B#6200000090660000
(1612343926.632109) can0 316#81500AF07A370200
(1612343926.632113) can0 329#004500000000218C
(1612343926.632117) can1 44D#0000000000000000
(1612343926.632120) can1 601#000A006A00000000
(1612343926.640298) can0 39A#20FB000BB6000000
(1612343926.640302) can0 316#81500AF07A370200
(1612343926.640305) can0 329#004500000000218C
(1612343926.640308) can0 360#0000000000240025
(1612343926.648301) can0 380#80727E03E8FFFF7D
(1612343926.648305) can0 38A#000000000000002B
(1612343926.648308) can0 38C#0000000049327AAD
(1612343926.648311) can0 3CA#800480040CAD8043
(1612343926.656297) can0 3F0#0000000000000000
(1612343926.656302) can0 350#01FFAFEF00007F00
(1612343926.656305) can0 360#0000000000240034
(1612343926.656309) can0 329#004500000000218C
(1612343926.664116) can0 335#0000000000000000
(1612343926.664120) can0 33A#0006000000000000
(1612343926.664123) can0 340#0004000000000000
(1612343926.664126) can0 316#81500AF07A370200
(1612343926.672270) can0 329#004500000000218C
(1612343926.672274) can0 335#0000000000000000
(1612343926.672276) can0 33A#0006000000000000
(1612343926.672280) can1 423#270F000FFFFFF000
(1612343926.680297) can1 424#3E5F5F0000000000
(1612343926.680301) can1 43A#00000000FF0FF000
(1612343926.680305) can0 39A#20FB000BF2000000
(1612343926.680308) can0 360#0000000000240061
(1612343926.688303) can0 380#80727E03E8FFFF7D
(1612343926.688307) can0 38A#0000000000000067
(1612343926.688310) can0 38C#000000004B2E7AAD
(1612343926.688313) can0 3CA#800480040CC38043
(1612343926.696295) can0 409#0000000000000000
(1612343926.696299) can0 470#0000000000000000
(1612343926.696302) can0 47C#0000000000000000
(1612343926.696305) can0 316#81500AF07A1E0200
(1612343926.704298) can0 329#004500000000218C
(1612343926.704302) can0 335#0000000000000000
(1612343926.704305) can0 33A#0006000000000000
(1612343926.704308) can0 316#81500AF07A1E0200
(1612343926.712302) can0 329#004500000000218C
(1612343926.712306) can0 335#0000000000000000
(1612343926.712309) can0 33A#0006000000000000
(1612343926.712312) can1 601#000A006A00000000
(1612343926.720303) can0 39A#20FB000B3E000000
(1612343926.720307) can0 316#81500AF07A1E0200
(1612343926.720310) can0 329#004500000000218C
(1612343926.720313) can1 396#00040004000000C0
(1612343926.728309) can0 360#00000000002400AD
(1612343926.728314) can1 39F#00040004000000C0
(1612343926.728316) can0 380#80727E03E8FFFF7D
(1612343926.728319) can0 3F0#0000000000000000
(1612343926.736303) can0 350#01FFAFEF00007F00
(1612343926.736307) can0 360#00000000002400BC
(1612343926.736310) can0 380#80727E03EDFFFF7D
(1612343926.736313) can0 329#004500000000218C
(1612343926.744122) can0 335#0000000000000000
(1612343926.744126) can0 33A#0006000000000000
(1612343926.744129) can0 340#0004000000000000
(1612343926.744132) can0 510#00000000270F0000
(1612343926.752304) can0 511#000027B400000000
(1612343926.752308) can0 51A#0000000000000000
(1612343926.752311) can0 316#81500AF07A1E0200
(1612343926.752314) can1 601#000A006A00000000
(1612343926.760282) can0 39A#20FB000B7A000000
(1612343926.760286) can0 316#81500AF07A1E0200
(1612343926.760289) can0 329#004500000000218C
(1612343926.760292) can0 350#01FFAFFB00007F00
(1612343926.768311) can0 360#00000000002400E9
(1612343926.768315) can0 380#80737E03E8FFFF7D
(1612343926.768318) can0 38A#00000000000000EF
(1612343926.768321) can0 3CA#800180010CCD804D
(1612343926.776316) can0 3F0#0000000000000000
(1612343926.776320) can1 360#0000000000200000
(1612343926.776323) can0 350#01FFAFEF00007F00
(1612343926.776326) can1 48C#0000000000000000
(1612343926.784290) can0 329#004500000000218C
(1612343926.784295) can1 4F2#0000000000000000
(1612343926.784298) can0 335#0000000000000000
(1612343926.784301) can1 445#FF000B0000040001
(1612343926.792316) can0 316#81500AF07A1E0200
(1612343926.792320) can0 329#004500000000218C
(1612343926.792324) can1 455#3F3F3F3FFFFFFFFF
(1612343926.792327) can1 601#000A006A00000000
(1612343926.800256) can0 462#07F8600000000000
(1612343926.800261) can0 46B#6371000000001500
(1612343926.800263) can0 519#0000000000000000
(1612343926.800266) can0 350#01FFAFFB00007F00
(1612343926.808315) can1 475#0000000000000000
(1612343926.808320) can0 360#0000000000240025
(1612343926.808323) can0 380#80737E03EDFFFF7D
(1612343926.808326) can0 3F0#0000000000000000
(1612343926.816295) can0 39E#05817F0000000000
(1612343926.816299) can0 350#01FFAFEF00007F00
(1612343926.816302) can0 360#0000000000240034
(1612343926.816305) can0 329#004500000000218C
(1612343926.824311) can0 335#0000000000000000
(1612343926.824315) can0 33A#0006000000000000
(1612343926.824318) can1 461#07F86B013EC00000
(1612343926.824321) can0 316#81500AF07A1E0200
(1612343926.832259) can1 44B#6200000090660000
(1612343926.832263) can0 329#004500000000218C
(1612343926.832266) can1 44D#0000000000000000
(1612343926.832269) can1 601#000A006A00000000
(1612343926.840327) can0 39A#20FB000BF2000000
(1612343926.840344) can0 316#81500AF07A1E0200
(1612343926.840347) can0 329#004500000000218C
(1612343926.840350) can0 350#01FFAFFB00007F00
(1612343926.848106) can0 360#0000000000240061
(1612343926.848112) can0 380#80737E03E8FFFF7D
(1612343926.848115) can0 38A#0000000000000067
(1612343926.848121) can1 519#0000000000000000
(1612343926.856321) can0 3F0#0000000000000000
(1612343926.856325) can0 350#01FFAFEF00007F00
(1612343926.856328) can0 360#0000000000240070
(1612343926.856331) can0 329#004500000000218C
(1612343926.864196) can0 335#0000000000000000
(1612343926.864201) can0 33A#0006000000000000
(1612343926.864205) can0 340#0004000000000000
(1612343926.864208) can0 316#81500AF07A1E0200
(1612343926.872102) can0 329#004500000000218C
(1612343926.872107) can0 401#00007F0620000000
(1612343926.872111) can0 335#0000000000000000
(1612343926.872116) can1 423#270F000FFFFFF000
(1612343926.880102) can1 424#3E5F5F0000000000
(1612343926.880108) can1 43A#00000000FF0FF000
(1612343926.880113) can0 39A#20FB000B3E000000
(1612343926.880117) can0 350#01FFAFFB00007F00
(1612343926.888099) can0 360#00000000002400AD
(1612343926.888105) can0 380#80727E03E8FFFF7D
(1612343926.888109) can0 38A#00000000000000A3
(1612343926.888113) can0 3CA#800180010CB78043
(1612343926.896098) can0 409#0000000000000000
(1612343926.896103) can0 470#0000000000000000
(1612343926.896107) can0 47C#0000000000000000
(1612343926.896112) can0 316#81500AF07A1E0200
(1612343926.904140) can0 519#0000000000000000
(1612343926.904144) can0 329#004500000000218C
(1612343926.904147) can0 700#0306EFAD04000000
(1612343926.904150) can0 71A#0006000000000000
(1612343926.912141) can0 709#0006000000000000
(1612343926.912145) can0 70B#0006000000000000
(1612343926.912148) can0 3BA#0000000000000000
(1612343926.912151) can0 39A#20FB000B7A000000
(1612343926.920103) can0 316#81500AF07A1E0200
(1612343926.920107) can0 329#004500000000218C
(1612343926.920110) can0 335#0000000000000000
(1612343926.920113) can0 350#01FFAFFB00007F00
(1612343926.928111) can1 396#0004000400000060
(1612343926.928117) can0 360#00000000002400E9
(1612343926.928121) can1 39F#0004000400000060
(1612343926.928124) can0 3F0#0000000000000000
(1612343926.936307) can0 350#01FFAFEF00007F00
(1612343926.936310) can0 360#00000000002400F8
(1612343926.936313) can0 380#80737E03E8FFFF7D
(1612343926.936316) can0 329#004500000000218C
(1612343926.944147) can0 335#0000000000000000
(1612343926.944151) can0 33A#0006000000000000
(1612343926.944154) can0 340#0004000000000000
(1612343926.944157) can0 510#00000000270F0000
(1612343926.952166) can0 511#000027B400000000
(1612343926.952170) can0 51A#0000000000000000
(1612343926.952173) can0 316#81500AF07A1E0200
(1612343926.952176) can0 39A#20FB000BB6000000
(1612343926.960143) can0 316#81500AF07A1E0200
(1612343926.960147) can0 329#004500000000218C
(1612343926.960150) can0 335#0000000000000000
(1612343926.960153) can0 350#01FFAFFB00007F00
(1612343926.968178) can0 360#0000000000240025
(1612343926.968181) can0 380#80717E03E8FFFF7D
(1612343926.968184) can0 38A#000000000000002B
(1612343926.968187) can0 3F0#0000000000000000
(1612343926.976112) can1 360#0000000000200000
(1612343926.976117) can0 350#01FFAFEF00007F00
(1612343926.976121) can1 38A#0000000000000000
(1612343926.976125) can1 48C#0000000000000000
(1612343926.984324) can0 329#004500000000218C
(1612343926.984328) can1 4F2#0000000000000000
(1612343926.984344) can0 335#0000000000000000
(1612343926.984347) can0 316#81500AF07A370200
(1612343926.992343) can0 329#004500000000218C
(1612343926.992348) can1 445#FF000B0000040001
(1612343926.992351) can0 335#0000000000000000
(1612343926.992354) can0 462#07F8600000000000
(1612343927.000161) can0 46B#6371000000001500
(1612343927.000165) can0 519#0000000000000000
(1612343927.000168) can0 39A#20FB000BF2000000
(1612343927.000171) can0 350#01FFAFFB00007E00
(1612343927.008345) can1 475#0000000000000000
(1612343927.008349) can0 360#0000000000240061
(1612343927.008352) can0 380#80727E03E8FFFF7D
(1612343927.008355) can0 3F0#0000000000000000
(1612343927.016318) can0 350#01FFAFEF00007E00
(1612343927.016323) can0 360#0000000000240070
(1612343927.016325) can0 380#80737E03E8FFFF7D
(1612343927.016328) can0 329#004500000000218C
(1612343927.024348) can0 335#0000000000000000
(1612343927.024352) can0 33A#0006000000000000
(1612343927.024355) can1 600#0400000000000000
(1612343927.024358) can0 316#81500AF07A370200
(1612343927.032307) can1 44B#6200000090660000
(1612343927.032311) can0 329#004500000000218C
(1612343927.032314) can1 44D#0000000000000000
(1612343927.032317) can0 39A#20FB000B3E000000
(1612343927.040345) can0 316#81500AF07A370200
(1612343927.040349) can0 329#004500000000218C
(1612343927.040352) can0 335#0000000000000000
(1612343927.040355) can0 39E#05817F0000000000
(1612343927.048125) can0 350#01FFAFFB00007F00
(1612343927.048130) can0 360#00000000002400AD
(1612343927.048133) can0 380#80727E03E3FFFF7D
(1612343927.048136) can0 3F0#0000000000000000
(1612343927.056342) can0 39E#05817F0000000000
(1612343927.056347) can0 350#01FFAFEF00007F00
(1612343927.056350) can0 360#00000000002400BC
(1612343927.056352) can0 329#004500000000218C
(1612343927.064347) can0 335#0000000000000000
(1612343927.064351) can0 33A#0006000000000000
(1612343927.064354) can0 340#0004000000000000
(1612343927.064357) can0 401#00007F0620000000
(1612343927.072188) can0 316#81500AF07A370200
(1612343927.072192) can0 329#004500000000218C
(1612343927.072195) can0 335#0000000000000000
(1612343927.072199) can1 423#270F000FFFFFF000
(1612343927.080356) can1 424#3E5F5F0000000000
(1612343927.080360) can1 43A#00000000FF0FF000
(1612343927.080364) can0 39A#20FB000B7A000000
(1612343927.080367) can0 39E#05817F0000000000
(1612343927.088326) can0 350#01FFAFFB00007F00
(1612343927.088330) can0 360#00000000002400E9
(1612343927.088333) can0 380#80727E03E3FFFF7D
(1612343927.088336) can0 3CA#800480040CB78043
(1612343927.096352) can0 409#0000000000000000
(1612343927.096356) can0 470#0000000000000000
(1612343927.096359) can0 47C#0000000000000000
(1612343927.096362) can0 316#81500AF07A370200
(1612343927.104360) can0 329#004500000000218C
(1612343927.104364) can0 335#0000000000000000
(1612343927.104367) can0 33A#0006000000000000
(1612343927.104370) can0 316#81500AF07A370200
(1612343927.112361) can0 329#004500000000218C
(1612343927.112365) can0 335#0000000000000000
(1612343927.112368) can0 33A#0006000000000000
(1612343927.112371) can0 39A#20FB000BB6000000
(1612343927.120306) can0 316#81500AF07A370200
(1612343927.120310) can0 329#004500000000218C
(1612343927.120313) can0 335#0000000000000000
(1612343927.120316) can0 39E#05817F0000000000
(1612343927.128127) can1 396#0004000400000000
(1612343927.128131) can0 350#01FFAFFB00007F00
(1612343927.128134) can1 39F#0004000400000000
(1612343927.128148) can0 3F0#0000000000000000
(1612343927.136318) can0 39E#05817F0000000000
(1612343927.136322) can0 350#01FFAFEF00007F00
(1612343927.136325) can0 360#0000000000240034
(1612343927.136328) can0 329#004500000000218C
(1612343927.144322) can0 335#0000000000000000
(1612343927.144326) can0 33A#0006000000000000
(1612343927.144329) can0 340#0004000000000000
(1612343927.144332) can0 510#00000000270F0000
(1612343927.152359) can0 511#000027B400000000
(1612343927.152363) can0 51A#0000000000000000
(1612343927.152366) can0 316#81500AF07A370200
(1612343927.152369) can0 39A#20FB000BF2000000
(1612343927.160323) can0 316#81500AF07A370200
(1612343927.160327) can0 329#004500000000218C
(1612343927.160330) can0 335#0000000000000000
(1612343927.160333) can0 39E#05817F0000000000
(1612343927.168327) can0 350#01FFAFFB00007F00
(1612343927.168331) can0 360#0000000000240061
(1612343927.168334) can0 380#80737E03E8FFFF7D
(1612343927.168337) can0 3F0#0000000000000000
(1612343927.176186) can1 360#0000000000200000
(1612343927.176190) can0 3BA#0000000000000000
(1612343927.176194) can1 38A#0000000000000000
(1612343927.176197) can1 48C#0000000000000000
(1612343927.184369) can0 329#004500000000218C
(1612343927.184374) can1 4F2#0000000000000000
(1612343927.184377) can0 335#0000000000000000
(1612343927.184379) can0 316#81500AF07A370200
(1612343927.192185) can0 329#004500000000218C
(1612343927.192189) can0 335#0000000000000000
(1612343927.192193) can1 445#FF000B0000040001
(1612343927.192196) can0 462#07F8600000000000
(1612343927.200324) can0 46B#6371000000001500
(1612343927.200328) can0 519#0000000000000000
(1612343927.200331) can0 39A#20FB000B3E000000
(1612343927.200335) can1 475#0000000000000000
(1612343927.208373) can0 39E#05817F0000000000
(1612343927.208377) can0 350#01FFAFFB00007F00
(1612343927.208380) can0 360#00000000002400AD
(1612343927.208383) can0 3F0#0000000000000000
(1612343927.216352) can0 3BA#0000000000000000
(1612343927.216356) can0 350#01FFAFEF00007F00
(1612343927.216359) can0 360#00000000002400BC
(1612343927.216362) can0 329#004500000000218C
(1612343927.224391) can0 335#0000000000000000
(1612343927.224395) can0 33A#0006000000000000
(1612343927.224399) can1 461#07F86B013EC00000
(1612343927.224402) can0 316#81500AF07A370200
(1612343927.232312) can0 329#004500000000218C
(1612343927.232317) can1 44B#6200000090660000
(1612343927.232320) can0 335#0000000000000000
(1612343927.232322) can0 39A#20FB000B7A000000
(1612343927.240374) can0 316#81500AF07A370200
(1612343927.240378) can0 329#004500000000218C
(1612343927.240382) can0 335#0000000000000000
(1612343927.240384) can0 3C5#96D0000000000000
(1612343927.248325) can0 350#01FFAFFB00007F00
(1612343927.248329) can0 360#00000000002400E9
(1612343927.248332) can0 380#80727E03E8FFFF7D
(1612343927.248335) can0 3F0#0000000000000000
(1612343927.256374) can0 3BA#0000000000000000
(1612343927.256378) can0 350#01FFAFEF00007F00
(1612343927.256381) can0 360#00000000002400F8
(1612343927.256384) can0 329#004500000000218C
(1612343927.264149) can0 335#0000000000000000
(1612343927.264154) can0 33A#0006000000000000
(1612343927.264158) can0 340#0004000000000000
(1612343927.264161) can0 316#81500AF07A370200
(1612343927.272381) can0 329#004500000000218C
(1612343927.272385) can0 335#0000000000000000
(1612343927.272388) can0 33A#0006000000000000
(1612343927.272392) can1 423#270F000FFFFFF000
(1612343927.280379) can1 424#3E5F5F0000000000
(1612343927.280383) can1 43A#00000000FF0FF000
(1612343927.280387) can0 39A#20FB000BB6000000
(1612343927.280391) can0 39E#05817F0000000000
(1612343927.288348) can0 350#01FFAFFB00007F00
(1612343927.288352) can0 360#0000000000240025
(1612343927.288355) can0 380#80727E03E8FFFF7D
(1612343927.288357) can0 3CA#800480040CBC8043
(1612343927.296386) can0 409#0000000000000000
(1612343927.296390) can0 470#0000000000000000
(1612343927.296393) can0 47C#0000000000000000
(1612343927.296396) can0 316#81500AF07A370200
(1612343927.304381) can0 329#004500000000218C
(1612343927.304385) can0 335#0000000000000000
(1612343927.304388) can0 33A#0006000000000000
(1612343927.304391) can0 316#81500AF07A370200
(1612343927.312348) can0 329#004500000000218C
(1612343927.312353) can0 335#0000000000000000
(1612343927.312356) can0 33A#0006000000000000
(1612343927.312359) can0 39A#20FB000BF2000000
(1612343927.320347) can0 316#81500AF07A370200
(1612343927.320352) can0 329#004500000000218C
(1612343927.320355) can0 335#0000000000000000
(1612343927.320358) can0 39E#05817F0000000000
(1612343927.328368) can1 396#00040004000000A0
(1612343927.328372) can0 350#01FFAFFB00007E00
(1612343927.328375) can1 39F#00040004000000A0
(1612343927.328378) can0 3BA#0000000000000000
(1612343927.336259) can0 3F0#0000000000000000
(1612343927.336263) can0 39E#05817F0000000000
(1612343927.336266) can0 350#01FFAFEF00007E00
(1612343927.336269) can0 329#004500000000218C
(1612343927.344391) can0 335#0000000000000000
(1612343927.344395) can0 33A#0006000000000000
(1612343927.344398) can0 340#0004000000000000
(1612343927.344401) can0 45E#0000100000100000
(1612343927.352367) can0 4F2#0000000000000000
(1612343927.352371) can0 505#6B0BA00000001000
(1612343927.352374) can0 50C#155C080000000000
(1612343927.352377) can1 601#000A006A00000000
(1612343927.360280) can0 39A#20FB000B3E000000
(1612343927.360285) can1 519#0000000000000000
(1612343927.360288) can0 316#81500AF07A370200
(1612343927.360291) can0 39E#05817F0000000000
(1612343927.368346) can0 350#01FFAFFB00007F00
(1612343927.368351) can0 360#00000000002400AD
(1612343927.368354) can0 380#80727E03E3FFFF7D
(1612343927.368357) can0 3F0#0000000000000000
(1612343927.376383) can1 360#0000000000200000
(1612343927.376388) can0 3BA#0000000000000000
(1612343927.376391) can1 38A#0000000000000000
(1612343927.376394) can1 53F#4E2C32C4630C0000
(1612343927.384167) can0 329#004500000000218C
(1612343927.384172) can1 55C#0000000000000000
(1612343927.384175) can0 335#0000000000000000
(1612343927.384178) can0 316#81500AF07A370200
(1612343927.392181) can0 329#004500000000218C
(1612343927.392186) can0 335#0000000000000000
(1612343927.392191) can0 33A#0006000000000000
(1612343927.392195) can0 462#07F8600000000000
(1612343927.400213) can0 46B#6371000000001500
(1612343927.400216) can0 519#0000000000000000
(1612343927.400219) can0 39A#20FB000B7A000000
(1612343927.400223) can1 475#0000000000000000
(1612343927.408214) can0 39E#05817F0000000000
(1612343927.408218) can1 5C1#00CB006500000000
(1612343927.408221) can0 350#01FFAFFB00007F00
(1612343927.408224) can0 3BA#0000000000000000
(1612343927.416207) can0 3F0#0000000000000000
(1612343927.416211) can0 39E#05817F0000000000
(1612343927.416214) can0 350#01FFAFEF00007F00
(1612343927.416217) can0 329#004500000000218C
(1612343927.424184) can0 335#0000000000000000
(1612343927.424192) can0 33A#0006000000000000
(1612343927.424195) can1 461#07F86B013EC00000
(1612343927.424196) can0 316#81500AF07A370200
(1612343927.432170) can0 329#004500000000218C
(1612343927.432172) can1 44B#6200000090660000
(1612343927.432174) can0 335#0000000000000000
(1612343927.432175) can0 39A#20FB000BB6000000
(1612343927.440399) can0 316#81500AF07A370200
(1612343927.440401) can0 329#004500000000218C
(1612343927.440402) can0 335#0000000000000000
(1612343927.440403) can0 39E#05817F0000000000
(1612343927.448255) can0 350#01FFAFFB00007F00
(1612343927.448257) can0 360#0000000000240025
(1612343927.448258) can0 380#80727E03E8FFFF7D
(1612343927.448259) can0 3BA#0000000000000000
(1612343927.456403) can0 3F0#0000000000000000
(1612343927.456405) can0 39E#05817F0000000000
(1612343927.456406) can0 350#01FFAFEF00007F00
(1612343927.456407) can0 329#004500000000218C
(1612343927.464255) can0 335#0000000000000000
(1612343927.464256) can0 33A#0006000000000000
(1612343927.464258) can0 340#0004000000000000
(1612343927.464259) can0 316#81500AF07A370200
(1612343927.472388) can0 329#004500000000218C
(1612343927.472391) can0 335#0000000000000000
(1612343927.472393) can0 33A#0006000000000000
(1612343927.472396) can1 423#270F000FFFFFF000
(1612343927.480337) can1 424#3E5F5F0000000000
(1612343927.480341) can1 43A#00000000FF0FF000
(1612343927.480344) can0 39A#20FB000BF2000000
(1612343927.480347) can0 39E#05817F0000000000
(1612343927.488411) can0 350#01FFAFFB00007F00
(1612343927.488415) can0 360#0000000000240061
(1612343927.488418) can0 380#80727E03E8FFFF7D
(1612343927.488421) can0 3CA#800480040CC68043
(1612343927.496407) can0 409#0000000000000000
(1612343927.496411) can0 470#0000000000000000
(1612343927.496414) can0 47C#0000000000000000
(1612343927.496416) can0 316#81500AF07A370200
(1612343927.504224) can0 329#004500000000218C
(1612343927.504228) can0 335#0000000000000000
(1612343927.504231) can0 33A#0006000000000000
(1612343927.504234) can0 316#81500AF07A370200
(1612343927.512354) can0 329#004500000000218C
(1612343927.512358) can0 335#0000000000000000
(1612343927.512361) can0 33A#0006000000000000
(1612343927.512364) can0 39A#20FB000B3E000000
(1612343927.520410) can0 316#81500AF07A370200
(1612343927.520414) can0 329#004500000000218C
(1612343927.520417) can0 335#0000000000000000
(1612343927.520420) can0 39E#05817F0000000000
(1612343927.528416) can1 396#0004000400000040
(1612343927.528421) can0 350#01FFAFFB00007F00
(1612343927.528424) can1 39F#0004000400000040
(1612343927.528427) can0 3BA#0000000000000000
(1612343927.536413) can0 3F0#0000000000000000
(1612343927.536417) can0 39E#05817F0000000000
(1612343927.536420) can0 350#01FFAFEF00007F00
(1612343927.536423) can0 329#004500000000218C
(1612343927.544412) can0 335#0000000000000000
(1612343927.544416) can0 33A#0006000000000000
(1612343927.544419) can0 340#0004000000000000
(1612343927.544422) can0 510#00000000270F0000
(1612343927.552420) can0 511#000027B400000000
(1612343927.552424) can0 51A#0000000000000000
(1612343927.552427) can0 316#81500AF07A370200
(1612343927.552430) can0 39A#20FB000B7A000000
(1612343927.560419) can0 316#81500AF07A370200
(1612343927.560423) can0 329#004500000000218C
(1612343927.560426) can0 335#0000000000000000
(1612343927.560429) can0 39E#05817F0000000000
(1612343927.568432) can0 350#01FFAFFB00007F00
(1612343927.568436) can0 360#00000000002400E9
(1612343927.568452) can0 380#80737E03E8FFFF7D
(1612343927.568455) can0 3BA#0000000000000000
(1612343927.576233) can0 3F0#0000000000000000
(1612343927.576238) can1 360#0000000000200000
(1612343927.576241) can0 39E#05817F0000000000
(1612343927.576244) can1 48C#0000000000000000
(1612343927.584381) can0 329#004500000000218C
(1612343927.584385) can1 4F2#0000000000000000
(1612343927.584389) can0 335#0000000000000000
(1612343927.584391) can0 316#81500AF07A370200
(1612343927.592232) can0 329#004500000000218C
(1612343927.592236) can0 335#0000000000000000
(1612343927.592239) can0 33A#0006000000000000
(1612343927.592243) can0 46B#6371000000001500
(1612343927.600262) can0 519#0000000000000000
(1612343927.600266) can0 39A#20FB000BB6000000
(1612343927.600269) can0 316#81500AF07A370200
(1612343927.600273) can1 475#0000000000000000
(1612343927.608196) can0 39E#05817F0000000000
(1612343927.608201) can0 350#01FFAFFB00007F00
(1612343927.608204) can0 360#0000000000240025
(1612343927.608207) can0 3BA#0000000000000000
(1612343927.616203) can0 3F0#0000000000000000
(1612343927.616209) can0 39E#05817F0000000000
(1612343927.616213) can0 350#01FFAFEF00007F00
(1612343927.616217) can0 329#004500000000218C
(1612343927.624419) can0 335#0000000000000000
(1612343927.624423) can0 33A#0006000000000000
(1612343927.624427) can1 461#07F86B013EC00000
(1612343927.624430) can0 316#81500AF07A370200
(1612343927.632223) can0 329#004500000000218C
(1612343927.632227) can1 44B#6200000090660000
(1612343927.632230) can0 335#0000000000000000
(1612343927.632233) can0 39A#20FB000BF2000000
(1612343927.640430) can0 316#81500AF07A370200
(1612343927.640434) can0 329#004500000000218C
(1612343927.640437) can0 335#0000000000000000
(1612343927.640440) can0 39E#05817F0000000000
(1612343927.648399) can0 350#01FFAFFB00007F00
(1612343927.648403) can0 360#0000000000240061
(1612343927.648406) can0 380#80727E03E8FFFF7D
(1612343927.648409) can0 3BA#0000000000000000
(1612343927.656432) can0 3F0#0000000000000000
(1612343927.656436) can0 39E#05817F0000000000
(1612343927.656439) can0 350#01FFAFEF00007F00
(1612343927.656442) can0 329#004500000000218C
(1612343927.664244) can0 335#0000000000000000
(1612343927.664248) can0 33A#0006000000000000
(1612343927.664251) can0 340#0004000000000000
(1612343927.664254) can0 316#81500AF07A370200
(1612343927.672418) can0 329#004500000000218C
(1612343927.672422) can0 335#0000000000000000
(1612343927.672425) can0 33A#0006000000000000
(1612343927.672429) can1 423#270F000FFFFFF000
(1612343927.680221) can1 424#3E5F5F0000000000
(1612343927.680228) can1 43A#00000000FF0FF000
(1612343927.680233) can0 39A#20FB000B3E000000
(1612343927.680237) can0 39E#05817F0000000000
(1612343927.688437) can0 350#01FFAFFB00007F00
(1612343927.688441) can0 360#00000000002400AD
(1612343927.688444) can0 380#80727E03E8FFFF7D
(1612343927.688447) can0 3CA#800480040CB58043
(1612343927.696435) can0 409#0000000000000000
(1612343927.696439) can0 470#0000000000000000
(1612343927.696442) can0 47C#0000000000000000
(1612343927.696445) can0 329#004500000000218C
(1612343927.704413) can0 335#0000000000000000
(1612343927.704417) can0 33A#0006000000000000
(1612343927.704420) can0 340#0004000000000000
(1612343927.704423) can0 316#81500AF07A370200
(1612343927.712439) can0 329#004500000000218C
(1612343927.712443) can0 335#0000000000000000
(1612343927.712446) can0 33A#0006000000000000
(1612343927.712462) can0 39A#20FB000B7A000000
(1612343927.720440) can0 316#81500AF07A370200
(1612343927.720445) can0 329#004500000000218C
(1612343927.720447) can0 335#0000000000000000
(1612343927.720451) can0 39E#05817F0000000000
(1612343927.728437) can1 396#00040004000000E0
(1612343927.728442) can0 350#01FFAFFB00007F00
(1612343927.728445) can1 39F#00040004000000E0
(1612343927.728448) can0 3BA#0000000000000000
(1612343927.736433) can0 3F0#0000000000000000
(1612343927.736437) can0 39E#05817F0000000000
(1612343927.736440) can0 350#01FFAFEF00007E00
(1612343927.736443) can0 329#004500000000218C
(1612343927.744423) can0 335#0000000000000000
(1612343927.744426) can0 33A#0006000000000000
(1612343927.744430) can0 340#0004000000000000
(1612343927.744432) can0 510#00000000270F0000
(1612343927.752444) can0 511#000027B400000000
(1612343927.752448) can0 51A#0000000000000000
(1612343927.752451) can0 316#81500AF07A370200
(1612343927.752454) can0 39A#20FB000BB6000000
(1612343927.760442) can0 316#81500AF07A370200
(1612343927.760447) can0 329#004500000000218C
(1612343927.760450) can0 335#0000000000000000
(1612343927.760453) can0 39E#05817F0000000000
(1612343927.768447) can0 350#01FFAFFB00007F00
(1612343927.768451) can0 360#0000000000240025
(1612343927.768454) can0 380#80737E03E8FFFF7D
(1612343927.768456) can0 3BA#0000000000000000
(1612343927.776410) can0 3F0#0000000000000000
(1612343927.776415) can1 360#0000000000200000
(1612343927.776418) can0 39E#05817F0000000000
(1612343927.776421) can1 48C#0000000000000000
(1612343927.784449) can0 329#004500000000218C
(1612343927.784454) can1 4F2#0000000000000000
(1612343927.784457) can0 335#0000000000000000
(1612343927.784460) can0 316#81500AF07A1E0200
(1612343927.792449) can0 329#004500000000218C
(1612343927.792453) can0 335#0000000000000000
(1612343927.792455) can0 33A#0006000000000000
(1612343927.792458) can0 39A#20FB000BF2000000
(1612343927.800399) can0 316#81500AF07A1E0200
(1612343927.800403) can0 329#004500000000218C
(1612343927.800406) can0 335#0000000000000000
(1612343927.800410) can1 475#0000000000000000
(1612343927.808446) can0 39E#05817F0000000000
(1612343927.808450) can0 350#01FFAFFB00007F00
(1612343927.808453) can0 360#0000000000240061
(1612343927.808456) can0 3BA#0000000000000000
(1612343927.816455) can0 3F0#0000000000000000
(1612343927.816459) can0 39E#05817F0000000000
(1612343927.816462) can0 350#01FFAFEF00007F00
(1612343927.816465) can0 329#004500000000218C
(1612343927.824446) can0 335#0000000000000000
(1612343927.824450) can0 33A#0006000000000000
(1612343927.824454) can1 461#07F86B013EC00000
(1612343927.824457) can0 316#81500AF07A1E0200
(1612343927.832446) can0 329#004500000000218C
(1612343927.832450) can0 335#0000000000000000
(1612343927.832454) can1 44B#6200000090660000
(1612343927.832457) can0 39A#20FB000B3E000000
(1612343927.840455) can0 316#81500AF07A370200
(1612343927.840459) can0 329#004500000000218C
(1612343927.840462) can0 335#0000000000000000
(1612343927.840465) can0 39E#05817F0000000000
(1612343927.848427) can0 350#01FFAFFB00007F00
(1612343927.848431) can0 360#00000000002400AD
(1612343927.848434) can0 380#80737E03E8FFFF7D
(1612343927.848438) can1 519#0000000000000000
(1612343927.856460) can0 3BA#0000000000000000
(1612343927.856464) can0 3F0#0000000000000000
(1612343927.856467) can0 39E#05817F0000000000
(1612343927.856470) can0 329#004500000000218C
(1612343927.864421) can0 335#0000000000000000
(1612343927.864425) can0 33A#0006000000000000
(1612343927.864428) can0 340#0004000000000000
(1612343927.864431) can0 316#81500AF07A370200
(1612343927.872454) can0 329#004500000000218C
(1612343927.872459) can0 335#0000000000000000
(1612343927.872461) can0 33A#0006000000000000
(1612343927.872465) can1 423#270F000FFFFFF000
(1612343927.880326) can1 424#3E5F5F0000000000
(1612343927.880330) can1 43A#00000000FF0FF000
(1612343927.880334) can0 39A#20FB000B7A000000
(1612343927.880337) can0 39E#05817F0000000000
(1612343927.888467) can0 525#0000000000007F00
(1612343927.888472) can0 350#01FFAFFB00007E00
(1612343927.888475) can0 360#00000000002400E9
(1612343927.888477) can0 3CA#800480040CC68043
(1612343927.896238) can0 409#0000000000000000
(1612343927.896243) can0 470#0000000000000000
(1612343927.896247) can0 3BA#0000000000000000
(1612343927.896251) can0 700#0306EBAD04000000
(1612343927.904242) can0 329#004500000000218C
(1612343927.904247) can0 335#0000000000000000
(1612343927.904252) can0 703#0006000000000000
(1612343927.904256) can0 3BA#0000000000000000
(1612343927.912281) can0 70E#0006000000000000
(1612343927.912285) can0 71A#0006000000000000
(1612343927.912288) can0 709#0006000000000000
(1612343927.912291) can0 39A#20FB000BB6000000
(1612343927.920230) can0 316#81500AF07A370200
(1612343927.920234) can0 329#004500000000218C
(1612343927.920237) can0 335#0000000000000000
(1612343927.920240) can0 39E#05817F0000000000
(1612343927.928273) can1 396#0004000400000080
(1612343927.928277) can1 39F#0004000400000080
(1612343927.928280) can0 350#01FFAFFB00007F00
(1612343927.928283) can0 3BA#0000000000000000
(1612343927.936281) can0 3F0#0000000000000000
(1612343927.936285) can0 39E#05817F0000000000
(1612343927.936288) can0 350#01FFAFEF00007F00
(1612343927.936291) can0 329#004500000000218C
(1612343927.944255) can0 335#0000000000000000
(1612343927.944257) can0 33A#0006000000000000
(1612343927.944259) can0 340#0004000000000000
(1612343927.944260) can0 510#00000000270F0000
(1612343927.952320) can0 511#000027B400000000
(1612343927.952322) can0 51A#0000000000000000
(1612343927.952323) can0 316#81500AF07A370200
(1612343927.952324) can0 39A#20FB000BF2000000
(1612343927.960230) can0 316#81500AF07A370200
(1612343927.960232) can0 329#004500000000218C
(1612343927.960233) can0 335#0000000000000000
(1612343927.960235) can0 39E#05817F0000000000
(1612343927.968325) can0 350#01FFAFFB00007F00
(1612343927.968327) can0 360#0000000000240061
(1612343927.968328) can0 380#80737E03E8FFFF7D
(1612343927.968329) can0 3BA#0000000000000000
(1612343927.976345) can0 3F0#0000000000000000
(1612343927.976348) can1 360#0000000000200000
(1612343927.976350) can0 39E#05817F0000000000
(1612343927.976351) can1 48C#0000000000000000
(1612343927.984474) can0 329#004500000000218C
(1612343927.984476) can1 4F2#0000000000000000
(1612343927.984477) can0 335#0000000000000000
(1612343927.984479) can0 316#81500AF07A1E0200
(1612343927.992421) can0 329#004500000000218C
(1612343927.992423) can0 335#0000000000000000
(1612343927.992424) can0 33A#0006000000000000
(1612343927.992426) can0 39A#20FB000B3E000000
(1612343928.000294) can0 316#81500AF07A1E0200
(1612343928.000299) can0 329#004500000000218C
(1612343928.000302) can0 335#0000000000000000
(1612343928.000305) can1 475#0000000000000000
(1612343928.008478) can0 39E#05817F0000000000
(1612343928.008495) can0 350#01FFAFFB00007F00
(1612343928.008498) can0 360#00000000002400AD
(1612343928.008501) can0 3BA#0000000000000000
(1612343928.016494) can0 3F0#0000000000000000
(1612343928.016498) can0 39E#05817F0000000000
(1612343928.016501) can0 350#01FFAFEF00007E00
(1612343928.016504) can0 329#004500000000218C
(1612343928.024480) can0 335#0000000000000000
(1612343928.024485) can0 33A#0006000000000000
(1612343928.024488) can1 600#0400000000000000
(1612343928.024491) can0 316#81500AF07A1E0200
(1612343928.032482) can0 329#004500000000218C
(1612343928.032487) can0 335#0000000000000000
(1612343928.032490) can1 44B#6200000090660000
(1612343928.032493) can0 39A#20FB000B7A000000
(1612343928.040485) can0 316#81500AF07A1E0200
(1612343928.040489) can0 329#004500000000218C
(1612343928.040492) can0 335#0000000000000000
(1612343928.040495) can0 39E#05817F0000000000
(1612343928.048468) can0 350#01FFAFFB00007F00
(1612343928.048473) can0 360#00000000002400E9
(1612343928.048476) can0 380#80737E03E8FFFF7D
(1612343928.048479) can0 3BA#0000000000000000
(1612343928.056487) can0 3F0#0000000000000000
(1612343928.056491) can0 39E#05817F0000000000
(1612343928.056494) can0 350#01FFAFEF00007F00
(1612343928.056497) can0 329#004500000000218C
(1612343928.064469) can0 335#0000000000000000
(1612343928.064473) can0 33A#0006000000000000
(1612343928.064476) can0 340#0004000000000000
(1612343928.064479) can0 316#81500AF07A1E0200
(1612343928.072325) can0 329#004500000000218C
(1612343928.072328) can0 335#0000000000000000
(1612343928.072331) can0 33A#0006000000000000
(1612343928.072335) can1 423#270F000FFFFFF000
(1612343928.080437) can1 424#3E5F5F0000000000
(1612343928.080441) can1 43A#00000000FF0FF000
(1612343928.080445) can0 39A#20FB000BB6000000
(1612343928.080448) can0 39E#05817F0000000000
(1612343928.088471) can0 525#0000000000007F00
(1612343928.088475) can0 350#01FFAFFB00007F00
(1612343928.088478) can0 360#0000000000240025
(1612343928.088481) can0 3CA#800180010CD4804D
(1612343928.096284) can0 3BA#0000000000000000
(1612343928.096289) can0 3C5#96D0000000000000
(1612343928.096293) can0 3C9#FFFFFFFFFFFFFFFF
(1612343928.096297) can0 329#004500000000218C
(1612343928.104494) can0 335#0000000000000000
(1612343928.104498) can0 33A#0006000000000000
(1612343928.104501) can0 340#0004000000000000
(1612343928.104504) can0 316#81500AF07A1E0200
(1612343928.112527) can0 329#004500000000218C
(1612343928.112532) can0 335#0000000000000000
(1612343928.112534) can0 33A#0006000000000000
(1612343928.112537) can0 39A#20FB000BF2000000
(1612343928.120523) can0 316#81500AF07A380200
(1612343928.120527) can0 329#004500000000218C
(1612343928.120530) can0 335#0000000000000000
(1612343928.120533) can0 39E#05817F0000000000
(1612343928.128500) can1 396#0004000400000020
(1612343928.128505) can1 39F#0004000400000020
(1612343928.128508) can0 350#01FFAFFB00007F00
(1612343928.128511) can0 3BA#0000000000000000
(1612343928.136350) can0 3F0#0000000000000000
(1612343928.136354) can0 39E#05817F0000000000
(1612343928.136357) can0 350#01FFAFEF00007F00
(1612343928.136360) can0 329#004500000000218C
(1612343928.144501) can0 335#0000000000000000
(1612343928.144505) can0 33A#0006000000000000
(1612343928.144508) can0 340#0004000000000000
(1612343928.144511) can0 510#00000000270F0000
(1612343928.152500) can0 511#000027B400000000
(1612343928.152504) can0 51A#0000000000000000
(1612343928.152520) can0 316#81500AF07A380200
(1612343928.152523) can0 39A#20FB000B3E000000
(1612343928.160494) can0 316#81500AF07A370200
(1612343928.160498) can0 329#004500000000218C
(1612343928.160501) can0 335#0000000000000000
(1612343928.160504) can0 39E#05817F0000000000
(1612343928.168503) can0 350#01FFAFFB00007F00
(1612343928.168507) can0 360#00000000002400AD
(1612343928.168510) can0 380#80717E03EDFFFF7D
(1612343928.168513) can0 3BA#0000000000000000
(1612343928.176284) can0 3F0#0000000000000000
(1612343928.176291) can1 360#0000000000200000
(1612343928.176294) can0 39E#05817F0000000000
(1612343928.176298) can1 48C#0000000000000000
(1612343928.184274) can0 329#004500000000218C
(1612343928.184280) can1 4F2#0000000000000000
(1612343928.184285) can0 335#0000000000000000
(1612343928.184289) can0 316#81500AF07A370200
(1612343928.192323) can0 329#004500000000218C
(1612343928.192327) can0 335#0000000000000000
(1612343928.192330) can0 33A#0006000000000000
(1612343928.192333) can0 39A#20FB000B7A000000
(1612343928.200466) can0 316#81500AF07A370200
(1612343928.200470) can0 329#004500000000218C
(1612343928.200473) can0 335#0000000000000000
(1612343928.200476) can0 39E#05817F0000000000
(1612343928.208350) can0 350#01FFAFFB00007F00
(1612343928.208354) can0 360#00000000002400E9
(1612343928.208357) can0 380#80737E03E8FFFF7D
(1612343928.208360) can0 3BA#0000000000000000
(1612343928.216509) can0 3F0#0000000000000000
(1612343928.216513) can0 39E#05817F0000000000
(1612343928.216516) can0 350#01FFAFEF00007F00
(1612343928.216519) can0 335#0000000000000000
(1612343928.224471) can0 33A#0006000000000000
(1612343928.224476) can1 461#07F86B013EC00000
(1612343928.224480) can0 340#0004000000000000
(1612343928.224483) can0 316#81500AF07A370200
(1612343928.232506) can0 329#004500000000218C
(1612343928.232510) can0 335#0000000000000000
(1612343928.232513) can0 33A#0006000000000000
(1612343928.232516) can0 39A#20FB000BB6000000
(1612343928.240514) can0 316#81500AF07A370200
(1612343928.240518) can0 329#004500000000218C
(1612343928.240521) can0 335#0000000000000000
(1612343928.240524) can0 39E#05817F0000000000
(1612343928.248507) can0 350#01FFAFFB00007F00
(1612343928.248511) can0 360#0000000000240025
(1612343928.248514) can0 380#80737E03E8FFFF7D
(1612343928.248517) can0 3BA#0000000000000000
(1612343928.256518) can0 3F0#0000000000000000
(1612343928.256522) can0 39E#05817F0000000000
(1612343928.256525) can0 350#01FFAFEF00007F00
(1612343928.256528) can0 329#004500000000218C
(1612343928.264478) can0 335#0000000000000000
(1612343928.264482) can0 33A#0006000000000000
(1612343928.264485) can0 340#0004000000000000
(1612343928.264488) can0 316#81500AF07A370200
(1612343928.272508) can0 329#004500000000218C
(1612343928.272512) can0 335#0000000000000000
(1612343928.272515) can0 33A#0006000000000000
(1612343928.272519) can1 423#270F000FFFFFF000
(1612343928.280476) can1 424#3E5F5F0000000000
(1612343928.280480) can1 43A#00000000FF0FF000
(1612343928.280483) can0 39A#20FB000BF2000000
(1612343928.280486) can0 39E#05817F0000000000
(1612343928.288332) can0 525#0000000000007F00
(1612343928.288336) can0 52C#005F2000FE00A100
(1612343928.288339) can0 350#01FFAFFB00007F00
(1612343928.288342) can0 3BA#0000000000000000
(1612343928.296332) can0 3C5#96D0000000000000
(1612343928.296336) can0 3C9#FFFFFFFFFFFFFFFF
(1612343928.296339) can0 3CA#800480040CB7804D
(1612343928.296355) can0 329#004500000000218C
(1612343928.304518) can0 335#0000000000000000
(1612343928.304522) can0 33A#0006000000000000
(1612343928.304525) can0 340#0004000000000000
(1612343928.304528) can0 316#81500AF07A370200
(1612343928.312343) can0 329#004500000000218C
(1612343928.312348) can0 335#0000000000000000
(1612343928.312351) can0 33A#0006000000000000
(1612343928.312354) can0 39A#20FB000B3E000000
(1612343928.320515) can0 316#81500AF07A370200
(1612343928.320519) can0 329#004500000000218C
(1612343928.320522) can0 335#0000000000000000
(1612343928.320525) can0 39E#05817F0000000000
(1612343928.328516) can1 396#00040004000000C0
(1612343928.328520) can1 39F#00040004000000C0
(1612343928.328524) can0 350#01FFAFFB00007F00
(1612343928.328527) can0 3BA#0000000000000000
(1612343928.336341) can0 3F0#0000000000000000
(1612343928.336346) can0 39E#05817F0000000000
(1612343928.336348) can0 350#01FFAFEF00007F00
(1612343928.336351) can0 329#004500000000218C
(1612343928.344526) can0 335#0000000000000000
(1612343928.344530) can0 33A#0006000000000000
(1612343928.344533) can0 340#0004000000000000
(1612343928.344536) can0 4F2#0000000000000000
(1612343928.352526) can0 505#6B0BA00000001000
(1612343928.352530) can0 50C#155C080000000000
(1612343928.352533) can0 510#00000000270F0000
(1612343928.352536) can0 39A#20FB000B7A000000
(1612343928.360526) can1 519#0000000000000000
(1612343928.360530) can0 316#81500AF07A370200
(1612343928.360533) can0 329#004500000000218C
(1612343928.360536) can0 39E#05817F0000000000
(1612343928.368525) can0 350#01FFAFFB00007F00
(1612343928.368529) can0 360#00000000002400E9
(1612343928.368532) can0 380#80727E03E8FFFF7D
(1612343928.368534) can0 3CA#800480040CBC8043
(1612343928.376523) can0 3F0#0000000000000000
(1612343928.376527) can1 360#0000000000200000
(1612343928.376530) can0 39E#05817F0000000000
(1612343928.376533) can1 53F#4E2E3354630C0000
(1612343928.384355) can0 329#004500000000218C
(1612343928.384359) can1 55C#0000000000000000
(1612343928.384362) can0 335#0000000000000000
(1612343928.384365) can0 316#81500AF07A370200
(1612343928.392346) can0 329#004500000000218C
(1612343928.392349) can0 335#0000000000000000
(1612343928.392353) can0 33A#0006000000000000
(1612343928.392355) can0 39A#20FB000BB6000000
(1612343928.400350) can0 316#81500AF07A370200
(1612343928.400354) can0 329#004500000000218C
(1612343928.400357) can0 335#0000000000000000
(1612343928.400360) can0 39E#05817F0000000000
(1612343928.408301) can1 5C1#00CB006500000000
(1612343928.408307) can0 350#01FFAFFB00007F00
(1612343928.408312) can0 360#0000000000240025
(1612343928.408316) can0 3CA#800480040CCD8043
(1612343928.416351) can0 3F0#0000000000000000
(1612343928.416355) can0 39E#05817F0000000000
(1612343928.416358) can0 350#01FFAFEF00007F00
(1612343928.416361) can0 329#004500000000218C
(1612343928.424492) can0 335#0000000000000000
(1612343928.424496) can0 33A#0006000000000000
(1612343928.424500) can1 461#07F86B013EC00000
(1612343928.424503) can0 316#81500AF07A370200
(1612343928.432531) can0 329#004500000000218C
(1612343928.432535) can0 335#0000000000000000
(1612343928.432538) can0 33A#0006000000000000
(1612343928.432541) can0 39A#20FB000BF2000000
(1612343928.440306) can0 316#81500AF07A370200
(1612343928.440310) can0 329#004500000000218C
(1612343928.440313) can0 335#0000000000000000
(1612343928.440316) can0 39E#05817F0000000000
(1612343928.448334) can0 350#01FFAFFB00007F00
(1612343928.448339) can0 360#0000000000240061
(1612343928.448343) can0 380#80737E03EDFFFF7D
(1612343928.448347) can0 3CA#800480040CB28043
(1612343928.456331) can0 3F0#0000000000000000
(1612343928.456333) can0 39E#05817F0000000000
(1612343928.456335) can0 350#01FFAFEF00007F00
(1612343928.456337) can0 329#004500000000218C
(1612343928.464326) can0 335#0000000000000000
(1612343928.464327) can0 33A#0006000000000000
(1612343928.464329) can0 401#00007F0620000000
(1612343928.464330) can0 316#81500AF07A370200
(1612343928.472469) can0 329#004500000000218C
(1612343928.472471) can0 335#0000000000000000
(1612343928.472472) can0 33A#0006000000000000
(1612343928.472473) can1 423#270F000FFFFFF000
(1612343928.480590) can1 424#3E5F5F0000000000
(1612343928.480591) can1 43A#00000000FF0FF000
(1612343928.480592) can0 39A#20FB000B3E000000
(1612343928.480593) can0 39E#05817F0000000000
(1612343928.488625) can0 525#0000000000007F00
(1612343928.488626) can0 52C#005F2000FE00A100
(1612343928.488627) can0 350#01FFAFFB00007F00
(1612343928.488627) can0 3C5#96D0000000000000
(1612343928.496580) can0 3C0#000005F07FFF4401
(1612343928.496581) can0 3C9#FFFFFFFFFFFFFFFF
(1612343928.496581) can0 3CA#800180010CB28043
(1612343928.496582) can0 329#004500000000218C
(1612343928.504326) can0 335#0000000000000000
(1612343928.504327) can0 33A#0006000000000000
(1612343928.504327) can0 340#0004000000000000
(1612343928.504328) can0 316#81500AF07A1E0200
(1612343928.512455) can0 329#004500000000218C
(1612343928.512456) can0 335#0000000000000000
(1612343928.512475) can0 33A#0006000000000000
(1612343928.512475) can0 39A#20FB000B7A000000
(1612343928.520623) can0 316#81500AF07A1E0200
(1612343928.520624) can0 329#004500000000218C
(1612343928.520625) can0 335#0000000000000000
(1612343928.520625) can0 39E#05817F0000000000
(1612343928.528643) can1 396#0004000400000060
(1612343928.528644) can1 39F#0004000400000060
(1612343928.528644) can0 350#01FFAFFB00007F00
(1612343928.528645) can0 3CA#800180010CB78043
(1612343928.536591) can0 3F0#0000000000000000
(1612343928.536592) can0 39E#05817F0000000000
(1612343928.536593) can0 350#01FFAFEF00007F00
(1612343928.536594) can0 329#004500000000218C
(1612343928.544561) can0 335#0000000000000000
(1612343928.544562) can0 33A#0006000000000000
(1612343928.544564) can0 340#0004000000000000
(1612343928.544565) can0 510#00000000270F0000
(1612343928.552538) can0 511#000027B400000000
(1612343928.552540) can0 51A#0000000000000000
(1612343928.552542) can0 316#81500AF07A1E0200
(1612343928.552543) can0 39A#20FB000BB6000000
(1612343928.560553) can0 316#81500AF07A370200
(1612343928.560557) can0 401#00007F0620000000
(1612343928.560560) can0 329#004500000000218C
(1612343928.560563) can0 39E#05817F0000000000
(1612343928.568553) can0 350#01FFAFFB00007F00
(1612343928.568557) can0 360#0000000000240025
(1612343928.568560) can0 380#80727E03E8FFFF7D
(1612343928.568563) can0 3CA#800480040CB7804D
(1612343928.576553) can0 3F0#0000000000000000
(1612343928.576557) can1 360#0000000000200000
(1612343928.576560) can0 39E#05817F0000000000
(1612343928.576563) can1 48C#0000000000000000
(1612343928.584556) can0 329#004500000000218C
(1612343928.584561) can1 4F2#0000000000000000
(1612343928.584564) can0 335#0000000000000000
(1612343928.584567) can0 316#81500AF07A370200
(1612343928.592558) can0 329#004500000000218C
(1612343928.592575) can0 335#0000000000000000
(1612343928.592578) can0 33A#0006000000000000
(1612343928.592581) can0 39A#20FB000BF2000000
(1612343928.600516) can0 316#81500AF07A370200
(1612343928.600520) can0 329#004500000000218C
(1612343928.600523) can0 335#0000000000000000
(1612343928.600526) can0 39E#05817F0000000000
(1612343928.608558) can0 350#01FFAFFB00007F00
(1612343928.608562) can0 360#0000000000240061
(1612343928.608565) can0 380#80737E03E8FFFF7D
(1612343928.608568) can0 3CA#800480040CB0804D
(1612343928.616561) can0 3F0#0000000000000000
(1612343928.616565) can0 39E#05817F0000000000
(1612343928.616568) can0 350#01FFAFEF00007F00
(1612343928.616571) can0 329#004500000000218C
(1612343928.624406) can0 335#0000000000000000
(1612343928.624410) can0 33A#0006000000000000
(1612343928.624413) can1 461#07F86B013EC00000
(1612343928.624416) can0 316#81500AF07A1E0200
(1612343928.632409) can0 329#004500000000218C
(1612343928.632414) can0 335#0000000000000000
(1612343928.632417) can0 33A#0006000000000000
(1612343928.632419) can0 39A#20FB000B3E000000
(1612343928.640555) can0 316#81500AF07A1E0200
(1612343928.640559) can0 329#004500000000218C
(1612343928.640562) can0 335#0000000000000000
(1612343928.640565) can0 39E#05817F0000000000
(1612343928.648559) can0 350#01FFAFFB00007F00
(1612343928.648563) can0 360#00000000002400AD
(1612343928.648566) can0 380#80727E03E8FFFF7D
(1612343928.648569) can0 3CA#800180010CB0804D
(1612343928.656559) can0 3F0#0000000000000000
(1612343928.656563) can0 39E#05817F0000000000
(1612343928.656566) can0 350#01FFAFEF00007F00
(1612343928.656569) can0 329#004500000000218C
(1612343928.664538) can0 335#0000000000000000
(1612343928.664542) can0 33A#0006000000000000
(1612343928.664545) can0 340#0004000000000000
(1612343928.664548) can0 316#81500AF07A1E0200
(1612343928.672567) can0 329#004500000000218C
(1612343928.672571) can0 335#0000000000000000
(1612343928.672574) can0 33A#0006000000000000
(1612343928.672578) can1 423#270F000FFFFFF000
(1612343928.680539) can1 424#3E5F5F0000000000
(1612343928.680543) can1 43A#00000000FF0FF000
(1612343928.680546) can0 39A#20FB000B7A000000
(1612343928.680549) can0 39E#05817F0000000000
(1612343928.688568) can0 525#0000000000007F00
(1612343928.688572) can0 52C#005F2000FE00A100
(1612343928.688575) can0 350#01FFAFFB00007F00
(1612343928.688578) can0 374#0E710DFA27160CC7
(1612343928.696529) can0 3C9#FFFFFFFFFFFFFFFF
(1612343928.696533) can0 3C0#000005F07FFF4401
(1612343928.696536) can0 3CA#800480040CB58043
(1612343928.696538) can0 329#004500000000218C
(1612343928.704349) can0 335#0000000000000000
(1612343928.704355) can0 33A#0006000000000000
(1612343928.704359) can0 340#0004000000000000
(1612343928.704363) can0 316#81500AF07A370200
(1612343928.712541) can0 329#004500000000218C
(1612343928.712545) can0 335#0000000000000000
(1612343928.712548) can0 33A#0006000000000000
(1612343928.712551) can0 39A#20FB000BB6000000
(1612343928.720577) can0 316#81500AF07A370200
(1612343928.720581) can0 329#004500000000218C
(1612343928.720584) can0 335#0000000000000000
(1612343928.720587) can0 39E#05817F0000000000
(1612343928.728359) can1 396#0004000400000000
(1612343928.728364) can1 39F#0004000400000000
(1612343928.728367) can0 350#01FFAFFB00007F00
(1612343928.728370) can0 3CA#800480040CB58043
(1612343928.736571) can0 3F0#0000000000000000
(1612343928.736575) can0 39E#05817F0000000000
(1612343928.736591) can0 350#01FFAFEF00007F00
(1612343928.736594) can0 329#004500000000218C
(1612343928.744577) can0 335#0000000000000000
(1612343928.744582) can0 33A#0006000000000000
(1612343928.744585) can0 340#0004000000000000
(1612343928.744588) can0 510#00000000270F0000
(1612343928.752569) can0 511#000027B400000000
(1612343928.752573) can0 51A#0000000000000000
(1612343928.752576) can0 316#81500AF07A370200
(1612343928.752579) can0 39A#20FB000BF2000000
(1612343928.760580) can0 401#00007F0620000000
(1612343928.760584) can0 316#81500AF07A370200
(1612343928.760587) can0 329#004500000000218C
(1612343928.760590) can0 39E#05817F0000000000
(1612343928.768582) can0 350#01FFAFFB00007F00
(1612343928.768586) can0 360#0000000000240061
(1612343928.768589) can0 380#80737E03E8FFFF7D
(1612343928.768592) can0 3CA#800480040CB58043
(1612343928.776582) can0 3F0#0000000000000000
(1612343928.776586) can1 360#0000000000200000
(1612343928.776589) can0 39E#05817F0000000000
(1612343928.776592) can1 48C#0000000000000000
(1612343928.784390) can0 329#004500000000218C
(1612343928.784394) can1 4F2#0000000000000000
(1612343928.784397) can0 335#0000000000000000
(1612343928.784400) can0 316#81500AF07A370200
(1612343928.792410) can0 329#004500000000218C
(1612343928.792415) can0 335#0000000000000000
(1612343928.792419) can0 33A#0006000000000000
(1612343928.792423) can0 39A#20FB000B3E000000
(1612343928.800543) can0 316#81500AF07A370200
(1612343928.800547) can0 329#004500000000218C
(1612343928.800550) can0 335#0000000000000000
(1612343928.800553) can0 39E#05817F0000000000
(1612343928.808544) can0 350#01FFAFFB00007F00
(1612343928.808549) can0 360#00000000002400AD
(1612343928.808552) can0 380#80717E03E8FFFF7D
(1612343928.808555) can0 3CA#800480040CC38043
(1612343928.816588) can0 3F0#0000000000000000
(1612343928.816592) can0 39E#05817F0000000000
(1612343928.816595) can0 350#01FFAFEF00007F00
(1612343928.816598) can0 329#004500000000218C
(1612343928.824545) can0 335#0000000000000000
(1612343928.824549) can0 33A#0006000000000000
(1612343928.824553) can1 461#07F86B013EC00000
(1612343928.824556) can0 316#81500AF07A370200
(1612343928.832586) can0 329#004500000000218C
(1612343928.832590) can0 335#0000000000000000
(1612343928.832593) can0 33A#0006000000000000
(1612343928.832596) can0 39A#20FB000B7A000000
(1612343928.840590) can0 316#81500AF07A370200
(1612343928.840594) can0 329#004500000000218C
(1612343928.840597) can0 335#0000000000000000
(1612343928.840600) can0 39E#05817F0000000000
(1612343928.848608) can0 350#01FFAFFB00007F00
(1612343928.848612) can0 360#00000000002400E9
(1612343928.848615) can0 380#80737E03E3FFFF7D
(1612343928.848618) can1 519#0000000000000000
(1612343928.856592) can0 3CA#800480040CC38043
(1612343928.856596) can0 3F0#0000000000000000
(1612343928.856599) can0 39E#05817F0000000000
(1612343928.856602) can0 329#004500000000218C
(1612343928.864588) can0 335#0000000000000000
(1612343928.864593) can0 33A#0006000000000000
(1612343928.864596) can0 340#0004000000000000
(1612343928.864599) can0 316#81500AF07A370200
(1612343928.872595) can0 329#004500000000218C
(1612343928.872599) can0 335#0000000000000000
(1612343928.872602) can0 33A#0006000000000000
(1612343928.872606) can1 423#270F000FFFFFF000
(1612343928.880546) can1 424#3E5F5F0000000000
(1612343928.880550) can1 43A#00000000FF0FF000
(1612343928.880553) can0 39A#20FB000BB6000000
(1612343928.880569) can0 39E#05817F0000000000
(1612343928.888597) can0 525#0000000000007F00
(1612343928.888601) can0 52C#005F2000FE00A100
(1612343928.888604) can0 52D#500000003E5F0000
(1612343928.888607) can0 3C9#FFFFFFFFFFFFFFFF
(1612343928.896570) can0 374#0E710DFA27160CD2
(1612343928.896574) can0 3C0#000005F07FFF4401
(1612343928.896577) can0 3CA#800480040CBC8043
(1612343928.896580) can0 329#004500000000218C
(1612343928.904600) can0 335#0000000000000000
(1612343928.904604) can0 33A#0006000000000000
(1612343928.904607) can0 703#0006000000000000
(1612343928.904610) can0 71A#0006000000000000
(1612343928.912539) can0 709#0006000000000000
(1612343928.912543) can0 316#81500AF07A1E0200
(1612343928.912546) can0 329#004500000000218C
(1612343928.912549) can0 39A#20FB000BF2000000
(1612343928.920602) can0 316#81500AF07A1E0200
(1612343928.920606) can0 329#004500000000218C
(1612343928.920609) can0 335#0000000000000000
(1612343928.920612) can0 39E#05817F0000000000
(1612343928.928386) can1 396#00040004000000A0
(1612343928.928393) can1 39F#00040004000000A0
(1612343928.928399) can0 350#01FFAFFB00007F00
(1612343928.928403) can0 3CA#800180010CBC8043
(1612343928.936609) can0 3F0#0000000000000000
(1612343928.936613) can0 39E#05817F0000000000
(1612343928.936615) can0 350#01FFAFEF00007F00
(1612343928.936619) can0 329#004500000000218C
(1612343928.944583) can0 335#0000000000000000
