(1612340762.391762) can1 642#0110100000000000
(1612340762.391766) can1 644#0000000000000000
(1612340762.391769) can0 3F0#0000000000000000
(1612340762.391772) can1 3D6#903FC00CB0002019
(1612340762.399832) can1 385#0B108200025D8A34
(1612340762.399835) can1 376#80353600000080FF
(1612340762.399838) can1 37A#80068B0000000100
(1612340762.399842) can0 39F#0004000400000050
(1612340762.407762) can0 3C0#00000C127FFF4401
(1612340762.407766) can0 401#00007F0620000000
(1612340762.407769) can0 3CA#800C800C0CB7806B
(1612340762.407772) can0 33A#0006000000000000
(1612340762.415807) can0 38A#00000000000000B2
(1612340762.415811) can0 340#0004000000000000
(1612340762.415814) can0 34A#0000000000000000
(1612340762.415817) can0 39E#05817F0000000000
(1612340762.423813) can1 324#E9400000960017D0
(1612340762.423818) can0 316#81500AF07A690200
(1612340762.423823) can1 32C#00D24D305D000072
(1612340762.423827) can0 52D#4E0000003E6D0000
(1612340762.431957) can1 641#050B0A0500000000
(1612340762.431961) can0 52E#6D282F1000000000
(1612340762.431964) can1 642#050312090E1F9F00
(1612340762.431967) can1 3D6#903FC00CB0002019
(1612340762.439790) can1 385#0B108200025D8A34
(1612340762.439794) can1 376#80453600000080FF
(1612340762.439798) can1 371#B3BFC6BA3FFC65B8
(1612340762.439801) can0 39F#000400040000007E
(1612340762.448013) can1 39D#0F008282983E8000
(1612340762.448018) can0 3C0#00000C127FFF4401
(1612340762.448021) can0 3CA#800F800F0CB7806B
(1612340762.448023) can0 33A#0006000000000000
(1612340762.455819) can0 38A#00000000000000FE
(1612340762.455822) can0 340#0004000000000000
(1612340762.455825) can0 34A#0000000000000000
(1612340762.455828) can0 39E#05817F0000000000
(1612340762.463939) can1 324#CB400000B60017D0
(1612340762.463943) can0 316#81500AF07A820200
(1612340762.463946) can1 32C#00D24D305D000071
(1612340762.463963) can1 5E4#1C000E750E700E75
(1612340762.471828) can1 633#0C08A93000200E00
(1612340762.471833) can1 634#04000083555D591B
(1612340762.471837) can1 641#02001B014A000000
(1612340762.471840) can1 3D6#903FC00CB0002019
(1612340762.480010) can1 385#0B108200025D8A34
(1612340762.480014) can1 376#80453100000080FF
(1612340762.480016) can1 37A#80068B0000000100
(1612340762.480020) can0 39F#000400040000009C
(1612340762.488000) can0 3C0#00000C127FFF4401
(1612340762.488003) can0 3CA#800F800F0CAB806B
(1612340762.488007) can0 39A#20FC000BF5000000
(1612340762.488009) can0 33A#0006000000000000
(1612340762.496001) can0 38A#000000000000003A
(1612340762.496005) can0 340#0004000000000000
(1612340762.496008) can0 34A#0000000000000000
(1612340762.496011) can0 39E#05817F0000000000
(1612340762.503810) can1 324#8C400000C60017D0
(1612340762.503816) can0 316#81500AF07ACC0200
(1612340762.503821) can1 32C#00D24D305D000072
(1612340762.503825) can1 634#04000083555D591B
(1612340762.511786) can1 641#066DF26DF26F8300
(1612340762.511791) can1 642#0602011B09201600
(1612340762.511796) can0 3F0#0000000000000000
(1612340762.511800) can1 3D6#903FC00CB0002019
(1612340762.519794) can1 385#0B108200025D8A34
(1612340762.519800) can1 376#80753100000080FF
(1612340762.519804) can1 37A#80068B0000000100
(1612340762.519809) can0 39F#00040004000000BA
(1612340762.527827) can0 3C0#00000C127FFF4401
(1612340762.527831) can0 3CA#801A801A0CAB806B
(1612340762.527834) can0 39A#20FC000B39000000
(1612340762.527837) can0 33A#0006000000000000
(1612340762.535791) can0 38A#0000000000000076
(1612340762.535796) can0 340#0004000000000000
(1612340762.535800) can0 436#0080000000000000
(1612340762.535806) can1 633#0C08A93000200E00
(1612340762.543793) can0 39E#05817F0000000000
(1612340762.543798) can1 634#04000083555D591B
(1612340762.543802) can1 641#02001B0149000000
(1612340762.543806) can0 3F0#0000000000000000
(1612340762.551784) can0 3BA#0000000000000000
(1612340762.551789) can1 376#80753A00000080FF
(1612340762.551792) can1 37A#80068B0000000100
(1612340762.551795) can1 3D6#903FC00CB0002019
(1612340762.559829) can1 385#0B108200025D8A34
(1612340762.559834) can0 39E#05817F0000000000
(1612340762.559836) can1 324#4E400000E60017D0
(1612340762.559839) can0 39F#00040004000000D8
(1612340762.567787) can1 39D#0F008282983E8000
(1612340762.567791) can0 3C0#00000C127FFF4401
(1612340762.567794) can0 3CA#801A801A0CC1806B
(1612340762.567797) can1 5E4#2000000000000000
(1612340762.575865) can0 33A#0006000000000000
(1612340762.575869) can1 633#0C08A63000200E00
(1612340762.575872) can0 38A#00000000000000B2
(1612340762.575875) can0 39E#05817F0000000000
(1612340762.583827) can1 376#80353A00000080FF
(1612340762.583831) can0 316#81500AF07A690200
(1612340762.583834) can1 324#4F400000F60017D0
(1612340762.583837) can0 3F0#0000000000000000
(1612340762.592005) can0 3BA#0000000000000000
(1612340762.592009) can0 39E#05817F0000000000
(1612340762.592012) can1 324#2F400000F60017D0
(1612340762.592015) can1 3D6#903FC00CB0002019
(1612340762.599807) can1 385#0B108200025D8A34
(1612340762.599813) can0 39E#05817F0000000000
(1612340762.599818) can1 324#2F400000F60017D0
(1612340762.599822) can0 39F#00040004000000F6
(1612340762.607994) can0 3C0#00000C127FFF4401
(1612340762.607998) can0 401#00007F0620000000
(1612340762.608000) can0 3CA#800C800C0CC1806B
(1612340762.608003) can0 33A#0006000000000000
(1612340762.616042) can1 641#02001B0149000000
(1612340762.616046) can0 38A#00000000000000FE
(1612340762.616049) can1 642#02301845F8000000
(1612340762.616052) can0 39E#05817F0000000000
(1612340762.623998) can1 324#00400000060017D0
(1612340762.624002) can0 316#81500AF07A690200
(1612340762.624005) can1 32C#00D24D305D000072
(1612340762.624008) can0 52E#6D282F1000000000
(1612340762.632024) can0 3F0#0000000000000000
(1612340762.632028) can0 431#33FCE301004293B1
(1612340762.632031) can0 462#0770600000020000
(1612340762.632034) can1 3D6#903FC00CB0002019
(1612340762.639886) can1 385#0B108200025D8A34
(1612340762.639890) can0 39E#05817F0000000000
(1612340762.639893) can1 324#01400000160017D0
(1612340762.639896) can0 39F#0004000400000014
(1612340762.648048) can1 642#050312090E1F9F00
(1612340762.648053) can0 3C0#00000C127FFF4401
(1612340762.648055) can0 3CA#800C800C0CB2806B
(1612340762.648058) can0 380#80727E03E8FFFF7F
(1612340762.655814) can0 340#0004000000000000
(1612340762.655820) can0 38A#000000000000003A
(1612340762.655824) can1 376#80653400000080FF
(1612340762.655828) can0 39E#05817F0000000000
(1612340762.664023) can1 324#E1400000160017D0
(1612340762.664028) can0 316#81500AF07AB30200
(1612340762.664031) can1 32C#00D24D305D000072
(1612340762.664034) can0 3F0#0000000000000000
(1612340762.671819) can0 3BA#0000000000000000
(1612340762.671824) can0 3C5#96D0000000000000
(1612340762.671828) can0 3C9#FFFFFFFFFFFFFFFF
(1612340762.671833) can1 3D6#903FC00CB0002019
(1612340762.680025) can1 385#0B108200025D8A34
(1612340762.680030) can0 39E#05817F0000000000
(1612340762.680033) can1 324#C2400000260017D0
(1612340762.680035) can0 39F#0004000400000032
(1612340762.687943) can1 39C#800080007FFA8001
(1612340762.687949) can0 3C0#00000C127FFF4401
(1612340762.687953) can1 39D#0F008282983E8000
(1612340762.687956) can0 33A#0006000000000000
(1612340762.696043) can0 38A#0000000000000076
(1612340762.696047) can1 376#80653800000080FF
(1612340762.696050) can0 340#0004000000000000
(1612340762.696053) can0 39E#05817F0000000000
(1612340762.703853) can1 324#C3400000360017D0
(1612340762.703857) can0 316#81500AF07AB40200
(1612340762.703860) can1 32C#00D24D305D000073
(1612340762.703863) can0 3F0#0000000000000000
(1612340762.712032) can0 3BA#0000000000000000
(1612340762.712036) can0 39E#05817F0000000000
(1612340762.712039) can1 324#A3400000360017D0
(1612340762.712042) can1 3D6#903FC00CB0002019
(1612340762.720030) can1 385#0B108200025D8A34
(1612340762.720035) can0 3C5#96D0000000000000
(1612340762.720038) can0 3C9#FFFFFFFFFFFFFFFF
(1612340762.720041) can0 3C0#00000C127FFF4401
(1612340762.728039) can0 3CA#800F800F0CBC806B
(1612340762.728043) can0 39A#20FC000B7D000000
(1612340762.728046) can0 410#0800080000000000
(1612340762.728049) can0 33A#0006000000000000
(1612340762.736042) can0 38A#00000000000000B2
(1612340762.736047) can0 340#0004000000000000
(1612340762.736051) can0 436#0080000000000000
(1612340762.736054) can0 39E#05817F0000000000
(1612340762.744037) can1 324#84400000460017D0
(1612340762.744042) can0 316#81500AF07A820200
(1612340762.744045) can1 32C#00D24D305D000073
(1612340762.744047) can0 5E1#04000E640E650E65
(1612340762.752047) can1 374#0E770DFD27210CBF
(1612340762.752052) can0 5E2#04000E720E5A0DFD
(1612340762.752055) can1 37A#80068B0000000100
(1612340762.752058) can1 3D6#903FC00CB0002019
(1612340762.760055) can1 385#0B108200025D8A34
(1612340762.760073) can1 376#80453A00000080FF
(1612340762.760077) can1 37A#80068B0000000100
(1612340762.760080) can0 3C0#00000C127FFF4401
(1612340762.768045) can0 3CA#800F800F0CC1806B
(1612340762.768048) can0 39A#20FC000BB1000000
(1612340762.768052) can1 3D6#903FC00CB0002019
(1612340762.768055) can0 33A#0006000000000000
(1612340762.775898) can0 38A#00000000000000FE
(1612340762.775902) can0 340#0004000000000000
(1612340762.775905) can0 34A#0000000000000000
(1612340762.775908) can0 39E#05817F0000000000
(1612340762.784047) can1 324#65400000560017D0
(1612340762.784051) can0 316#81500AF07AB40200
(1612340762.784055) can1 32C#00D24D305D000072
(1612340762.784057) can1 37A#80068B0000000100
(1612340762.792052) can1 5E5#503D3D3D3DFFFFFF
(1612340762.792056) can1 633#0C08A93000200E00
(1612340762.792059) can1 634#04000083555D591B
(1612340762.792062) can1 3D6#903FC00CB0002019
(1612340762.800050) can1 385#0B108200025D8A34
(1612340762.800054) can1 376#80653A00000080FF
(1612340762.800057) can1 37A#80068B0000000100
(1612340762.800059) can1 39D#0F008282983E8000
(1612340762.808040) can0 3C0#00000C127FFF4401
(1612340762.808044) can0 401#00007F0620000000
(1612340762.808047) can0 3CA#801780170CC1806B
(1612340762.808050) can0 380#80727E03E8FFFF7F
(1612340762.816052) can0 340#0004000000000000
(1612340762.816056) can0 38A#000000000000003A
(1612340762.816060) can0 34A#0000000000000000
(1612340762.816062) can0 39E#05817F0000000000
(1612340762.823878) can1 324#47400000760017D0
(1612340762.823883) can0 316#81500AF07AB40200
(1612340762.823886) can1 32C#00D24D305D000072
(1612340762.823889) can1 37A#80068B0000000100
(1612340762.832060) can0 52E#6D282F1000000000
(1612340762.832065) can1 633#0C08A73000200E00
(1612340762.832068) can1 634#04000083555D591B
(1612340762.832071) can1 3D6#903FC00CAF002019
(1612340762.840006) can1 385#0B108200025D8A34
(1612340762.840010) can1 376#80453A00000080FF
(1612340762.840012) can1 37A#80068B0000000100
(1612340762.840016) can0 39F#00040004000000BA
(1612340762.848068) can0 3C0#00000C127FFF4401
(1612340762.848072) can0 3CA#801780170CC1806B
(1612340762.848075) can0 530#0000000000000008
(1612340762.848078) can0 380#80727E03E8FFFF7D
(1612340762.855882) can0 340#0004000000000000
(1612340762.855886) can0 38A#0000000000000076
(1612340762.855890) can0 34A#0000000000000000
(1612340762.855893) can0 39E#05817F0000000000
(1612340762.863913) can1 324#08400000860017D0
(1612340762.863917) can0 316#81500AF07A820200
(1612340762.863920) can1 32C#00D24D305D000072
(1612340762.863923) can1 37A#80068B0000000100
(1612340762.871917) can1 576#00078D980C51635C
(1612340762.871921) can1 5E1#0C000E6C0E690E6B
(1612340762.871924) can1 5E2#0C000E6F0E720E70
(1612340762.871927) can1 3D6#903FC00CAF002019
(1612340762.880025) can1 385#0B108200025D8A34
(1612340762.880029) can1 376#80453A00000080FF
(1612340762.880032) can1 37A#80068B0000000100
(1612340762.880036) can0 3C0#00000C127FFF4401
(1612340762.887863) can0 3CA#800F800F0CC1806B
(1612340762.887868) can0 39A#20FC000B7D000000
(1612340762.887872) can1 3D6#903FC00CAF002019
(1612340762.887876) can0 380#80737E03E8FFFF7F
(1612340762.896066) can0 340#0004000000000000
(1612340762.896069) can0 38A#00000000000000B2
(1612340762.896073) can0 34A#0000000000000000
(1612340762.896075) can0 401#00007F0620000000
(1612340762.904031) can0 39E#05817F0000000000
(1612340762.904036) can1 324#E9400000960017D0
(1612340762.904053) can0 316#81500AF07A820200
(1612340762.904056) can1 37A#80068B0000000100
(1612340762.912068) can1 633#0C08A83000200E00
(1612340762.912072) can1 634#04000083555D591B
(1612340762.912075) can1 641#0300000000000000
(1612340762.912078) can1 3D6#903FC00CAF002019
(1612340762.920054) can1 385#0B108200025D8A34
(1612340762.920058) can1 376#80653A00000080FF
(1612340762.920061) can1 37A#80068B0000000100
(1612340762.920065) can0 39F#00040004000000F6
(1612340762.927868) can1 39D#0F008282983E8000
(1612340762.927873) can0 3C0#00000C127FFF4401
(1612340762.927877) can0 3CA#801780170CC1806B
(1612340762.927880) can0 33A#0006000000000000
(1612340762.936021) can0 38A#00000000000000FE
(1612340762.936025) can0 340#0004000000000000
(1612340762.936028) can0 436#0080000000000000
(1612340762.936031) can1 37A#80068B0000000100
(1612340762.944080) can0 39E#05817F0000000000
(1612340762.944085) can1 633#0C08A93000200E00
(1612340762.944087) can0 316#81500AF07AB40200
(1612340762.944090) can0 71A#0006000000000000
(1612340762.952072) can0 3BA#0000000000000000
(1612340762.952076) can0 3F0#0000000000000000
(1612340762.952079) can0 70B#0006000000000000
(1612340762.952082) can1 3D6#903FC00CAF002019
(1612340762.959858) can1 385#0B108200025D8A34
(1612340762.959863) can1 376#80653800000080FF
(1612340762.959866) can0 39E#05817F0000000000
(1612340762.959869) can0 3C0#00000C127FFF4401
(1612340762.968081) can0 3CA#801780170CBC806B
(1612340762.968085) can0 39A#20FC000BF5000000
(1612340762.968088) can1 3D6#903FC00CAF002019
(1612340762.968091) can0 380#80727E03EDFFFF7D
(1612340762.975909) can1 641#02001B0147000000
(1612340762.975914) can0 340#0004000000000000
(1612340762.975917) can1 642#02301845F8000000
(1612340762.975920) can1 376#80453800000080FF
(1612340762.983921) can0 39E#05817F0000000000
(1612340762.983927) can1 37A#80068B0000000100
(1612340762.983930) can0 316#81500AF07AB40200
(1612340762.983933) can0 3BA#0000000000000000
(1612340762.992072) can0 3F0#0000000000000000
(1612340762.992077) can1 376#80453800000080FF
(1612340762.992080) can0 39E#05817F0000000000
(1612340762.992083) can1 3D6#903FC00CB200201A
(1612340763.000091) can1 385#0B108200025D8A34
(1612340763.000095) can0 401#00007F0620000000
(1612340763.000098) can1 376#80453800000080FF
(1612340763.000101) can0 39F#0004000400000032
(1612340763.008066) can0 3C0#00000C127FFF4401
(1612340763.008070) can0 3CA#800F800F0CBC806B
(1612340763.008073) can0 450#0000001000000000
(1612340763.008076) can0 380#80737E03EDFFFF7F
(1612340763.016080) can1 642#0602011B09201600
(1612340763.016085) can0 340#0004000000000000
(1612340763.016088) can0 38A#0000000000000076
(1612340763.016091) can1 376#80453300000080FF
(1612340763.024060) can0 39E#05817F0000000000
(1612340763.024064) can1 37A#80068B0000000100
(1612340763.024067) can0 316#81500AF07A820200
(1612340763.024070) can0 52E#6D282F1000000000
(1612340763.032096) can0 3BA#0000000000000000
(1612340763.032100) can0 3F0#0000000000000000
(1612340763.032103) can0 431#33FCE301004293B1
(1612340763.032106) can1 3D6#903FC00CB200201A
(1612340763.040057) can1 385#0B108200025D8A34
(1612340763.040061) can1 376#80453300000080FF
(1612340763.040065) can0 39E#05817F0000000000
(1612340763.040068) can0 39F#0004000400000050
(1612340763.048100) can1 39D#0F008282983E8000
(1612340763.048105) can0 3C0#00000C127FFF4401
(1612340763.048108) can0 3CA#800F800F0CB0806B
(1612340763.048125) can0 380#80727E03E8FFFF7F
(1612340763.055949) can1 633#0C08A53000200E00
(1612340763.055953) can0 340#0004000000000000
(1612340763.055956) can1 634#04000083555D591B
(1612340763.055959) can0 39E#05817F0000000000
(1612340763.064072) can1 324#4F400000F60017D0
(1612340763.064077) can0 316#81500AF07A810200
(1612340763.064080) can1 32C#00D24D305D000072
(1612340763.064083) can0 3BA#0000000000000000
(1612340763.071873) can0 3C5#96D0000000000000
(1612340763.071876) can0 3C9#FFFFFFFFFFFFFFFF
(1612340763.071879) can0 3F0#0000000000000000
(1612340763.071883) can1 3D6#903FC00CB200201A
(1612340763.080101) can1 385#0B108200025D8A34
(1612340763.080105) can1 739#0006000000000000
(1612340763.080108) can0 39E#05817F0000000000
(1612340763.080111) can0 39F#000400040000007E
(1612340763.087950) can0 3C0#00000C127FFF4401
(1612340763.087954) can0 3CA#800880080CB0806B
(1612340763.087957) can0 39A#20FC000BB1000000
(1612340763.087960) can0 380#80707E03E8FFFF7F
(1612340763.096104) can1 634#04000083555D591B
(1612340763.096108) can0 340#0004000000000000
(1612340763.096111) can1 641#000054AB03140518
(1612340763.096114) can0 39E#05817F0000000000
(1612340763.103945) can1 324#00400000060017D0
(1612340763.103949) can0 316#81500AF07A500200
(1612340763.103952) can1 32C#00D24D305D000072
(1612340763.103955) can0 3BA#0000000000000000
(1612340763.112106) can0 3F0#0000000000000000
(1612340763.112110) can0 39E#05817F0000000000
(1612340763.112113) can1 324#00400000060017D0
(1612340763.112116) can1 3D6#903FC00CB200201A
(1612340763.120108) can1 385#0B108200025D8A34
(1612340763.120113) can0 3C5#96D0000000000000
(1612340763.120117) can0 3C9#FFFFFFFFFFFFFFFF
(1612340763.120120) can0 3C0#00000C127FFF4401
(1612340763.128105) can0 3CA#800880080CB0806B
(1612340763.128109) can0 39A#20FC000BF5000000
(1612340763.128112) can0 410#0800080000000000
(1612340763.128115) can1 634#04000083555D591B
(1612340763.136113) can0 33A#0006000000000000
(1612340763.136118) can1 641#040001007D7DA5A5
(1612340763.136121) can0 380#80727E03E8FFFF7D
(1612340763.136123) can0 39E#05817F0000000000
(1612340763.144106) can1 324#E1400000160017D0
(1612340763.144110) can0 316#81500AF07A500200
(1612340763.144113) can1 32C#00D24D305D000072
(1612340763.144117) can0 3BA#0000000000000000
(1612340763.152114) can0 3F0#0000000000000000
(1612340763.152119) can0 39E#05817F0000000000
(1612340763.152122) can1 324#E2400000260017D0
(1612340763.152125) can1 3D6#903FC00CB200201A
(1612340763.159944) can1 385#0B108200025D8A34
(1612340763.159948) can0 39E#05817F0000000000
(1612340763.159951) can1 324#C2400000260017D0
(1612340763.159954) can1 39D#0F008282983E8000
(1612340763.168097) can0 3C0#00000C127FFF4401
(1612340763.168100) can0 3CA#801780170CB0806B
(1612340763.168103) can0 39A#20FC000B39000000
(1612340763.168107) can0 380#80727E03E8FFFF7F
(1612340763.176118) can0 340#0004000000000000
(1612340763.176123) can1 376#80653600000080FF
(1612340763.176126) can0 38A#0000000000000076
(1612340763.176129) can0 39E#05817F0000000000
(1612340763.184103) can1 324#C3400000360017D0
(1612340763.184107) can0 316#81500AF07AB30200
(1612340763.184110) can1 32C#00D24D305D000072
(1612340763.184113) can0 3BA#0000000000000000
(1612340763.192116) can0 3F0#0000000000000000
(1612340763.192121) can0 39E#05817F0000000000
(1612340763.192124) can1 324#A3400000360017D0
(1612340763.192128) can1 3D6#903FC00CB1002019
(1612340763.199946) can1 385#0B108200025D8A34
(1612340763.199951) can0 401#00007F0620000000
(1612340763.199954) can0 39E#05817F0000000000
(1612340763.199957) can0 3C0#00000C127FFF4401
(1612340763.208107) can0 3CA#801780170CB7806B
(1612340763.208111) can0 450#0000001000000000
(1612340763.208114) can0 45E#0000100000100000
(1612340763.208116) can0 380#80737E03E8FFFF7F
(1612340763.216124) can0 340#0004000000000000
(1612340763.216128) can0 38A#00000000000000B2
(1612340763.216131) can0 34A#0000000000000000
(1612340763.216135) can0 39E#05817F0000000000
(1612340763.224109) can1 324#84400000460017D0
(1612340763.224114) can0 316#81500AF07A9B0200
(1612340763.224117) can1 32C#00D24D305D000073
(1612340763.224120) can0 52E#6D282F1000000000
(1612340763.232122) can0 3BA#0000000000000000
(1612340763.232126) can0 3F0#0000000000000000
(1612340763.232129) can0 431#33FCE301004293B1
(1612340763.232132) can1 3D6#903FC00CB1002019
(1612340763.240101) can1 385#0B108200025D8A34
(1612340763.240106) can0 39E#05817F0000000000
(1612340763.240109) can1 324#85400000560017D0
(1612340763.240113) can0 39F#00040004000000F6
(1612340763.248123) can0 3C0#00000C127FFF4401
(1612340763.248127) can0 3CA#801380130CB7806B
(1612340763.248130) can0 530#0000000000000008
(1612340763.248133) can0 340#0004000000000000
(1612340763.256087) can0 380#80727E03E8FFFF7F
(1612340763.256090) can0 34A#0000000000000000
(1612340763.256093) can0 38A#00000000000000FE
(1612340763.256096) can0 39E#05817F0000000000
(1612340763.263915) can1 324#65400000560017D0
(1612340763.263921) can0 316#81500AF07A9B0200
(1612340763.263925) can1 32C#00D24D305D000071
(1612340763.263931) can0 3BA#0000000000000000
(1612340763.271909) can0 3C5#96D0000000000000
(1612340763.271913) can0 3C9#FFFFFFFFFFFFFFFF
(1612340763.271916) can0 3F0#0000000000000000
(1612340763.271919) can1 641#040001007D7DA5A5
(1612340763.280128) can1 642#04FF00000BB60043
(1612340763.280132) can1 3D6#903FC00CB1002019
(1612340763.280135) can1 385#0B108200025D8A34
(1612340763.280137) can1 39D#0F008282983E8000
(1612340763.287987) can0 3C0#00000C127FFF4401
(1612340763.287991) can0 3CA#801380130CB9806B
(1612340763.287994) can1 376#80653700000080FF
(1612340763.287998) can0 380#80737E03EDFFFF7D
(1612340763.296141) can0 340#0004000000000000
(1612340763.296145) can0 38A#000000000000003A
(1612340763.296147) can0 34A#0000000000000000
(1612340763.296150) can0 39E#05817F0000000000
(1612340763.303926) can1 324#47400000760017D0
(1612340763.303932) can0 316#81500AF07AB40200
(1612340763.303936) can1 32C#00D24D305D000073
(1612340763.303939) can0 3BA#0000000000000000
(1612340763.312134) can0 3F0#0000000000000000
(1612340763.312138) can0 39E#05817F0000000000
(1612340763.312141) can1 324#27400000760017D0
(1612340763.312145) can1 3D6#903FC00CB1002019
(1612340763.320145) can1 385#0B108200025D8A34
(1612340763.320149) can0 3C5#96D0000000000000
(1612340763.320152) can0 3C9#FFFFFFFFFFFFFFFF
(1612340763.320155) can0 3C0#00000C127FFF4401
(1612340763.328136) can0 3CA#801780170CB9806B
(1612340763.328141) can1 376#80653400000080FF
(1612340763.328144) can1 37A#80068B0000000100
(1612340763.328147) can0 33A#0006000000000000
(1612340763.336132) can0 380#80727E03EDFFFF7F
(1612340763.336136) can0 340#0004000000000000
(1612340763.336139) can0 38A#0000000000000076
(1612340763.336142) can0 39E#05817F0000000000
(1612340763.344149) can1 324#08400000860017D0
(1612340763.344167) can0 316#81500AF07AB30200
(1612340763.344170) can1 32C#00D24D305D000073
(1612340763.344173) can0 3BA#0000000000000000
(1612340763.352136) can1 642#04FF00000BB60043
(1612340763.352140) can0 3F0#0000000000000000
(1612340763.352143) can0 39E#05817F0000000000
(1612340763.352146) can1 3D6#903FC00CAF002019
(1612340763.360153) can1 385#0B108200025D8A34
(1612340763.360157) can1 376#80653400000080FF
(1612340763.360160) can1 371#B3BFC6BA3FFC6598
(1612340763.360164) can0 3C0#00000C127FFF4401
(1612340763.368151) can0 3CA#801780170CB2806B
(1612340763.368154) can0 39A#20FC000B7D000000
(1612340763.368158) can1 3D6#903FC00CAF002019
(1612340763.368161) can0 380#80727E03E8FFFF7F
(1612340763.376157) can0 340#0004000000000000
(1612340763.376161) can0 38A#00000000000000B2
(1612340763.376164) can0 34A#0000000000000000
(1612340763.376167) can0 39E#05817F0000000000
(1612340763.384155) can1 324#E9400000960017D0
(1612340763.384159) can0 316#81500AF07AB30200
(1612340763.384162) can1 32C#00D24D305D000073
(1612340763.384166) can0 3BA#0000000000000000
(1612340763.392157) can1 633#0C08AD3000200E00
(1612340763.392161) can1 634#04000083555D591B
(1612340763.392164) can1 641#010000001612090D
(1612340763.392166) can1 3D6#903FC00CAF002019
(1612340763.400153) can1 385#0B108200025D8A34
(1612340763.400157) can1 376#80653400000080FF
(1612340763.400160) can1 37A#80068B0000000100
(1612340763.400163) can1 39D#0F008282983E8000
(1612340763.408152) can0 3C0#00000C127FFF4401
(1612340763.408156) can0 3CA#801780170CB2806B
(1612340763.408159) can0 450#0000001000000000
(1612340763.408163) can0 340#0004000000000000
(1612340763.416155) can0 380#80737E03E8FFFF7F
(1612340763.416159) can0 34A#0000000000000000
(1612340763.416162) can0 38A#00000000000000FE
(1612340763.416165) can0 39E#05817F0000000000
(1612340763.424154) can1 324#CB400000B60017D0
(1612340763.424158) can0 316#81500AF07AB30200
(1612340763.424161) can1 32C#00D24D305D000073
(1612340763.424164) can1 642#050312090E1F9F00
(1612340763.432120) can0 52D#4E0000003E6D0000
(1612340763.432124) can0 52E#6D282F1000000000
(1612340763.432127) can0 3F0#0000000000000000
(1612340763.432131) can1 3D6#903FC00CAF002019
(1612340763.440112) can1 385#0B108200025D8A34
(1612340763.440115) can1 376#80553400000080FF
(1612340763.440118) can1 37A#80068B0000000100
(1612340763.440122) can0 3C0#00000C127FFF4401
(1612340763.448162) can0 3CA#801380130CB2806B
(1612340763.448166) can0 530#0000000000000008
(1612340763.448169) can0 5E1#20000E700E6E0E6D
(1612340763.448172) can0 340#0004000000000000
(1612340763.456124) can0 380#80727E03E8FFFF7F
(1612340763.456129) can0 34A#0000000000000000
(1612340763.456131) can0 38A#000000000000003A
(1612340763.456135) can0 39E#05817F0000000000
(1612340763.464152) can1 324#8C400000C60017D0
(1612340763.464157) can0 316#81500AF07A9A0200
(1612340763.464160) can1 32C#00D24D305D000071
(1612340763.464163) can0 3C5#96D0000000000000
(1612340763.472103) can1 429#423D878F00000098
(1612340763.472108) can0 3C9#FFFFFFFFFFFFFFFF
(1612340763.472111) can1 633#0C08AC3000200E00
(1612340763.472114) can1 3D6#903FC00CAF002019
(1612340763.480188) can1 385#0B108200025D8A34
(1612340763.480192) can1 376#80553100000080FF
(1612340763.480195) can1 37A#80068B0000000100
(1612340763.480199) can0 39F#00040004000000BA
(1612340763.487951) can0 3C0#00000C127FFF4401
(1612340763.487955) can0 3CA#801380130CAB806B
(1612340763.487972) can0 39A#20FC000B39000000
(1612340763.487975) can0 340#0004000000000000
(1612340763.496173) can0 380#80737E03E8FFFF7D
(1612340763.496177) can0 34A#0000000000000000
(1612340763.496180) can0 38A#0000000000000076
(1612340763.496182) can0 39E#05817F0000000000
(1612340763.503952) can1 324#6D400000D60017D0
(1612340763.503958) can0 316#81500AF07AB30200
(1612340763.503962) can1 32C#00D24D305D000072
(1612340763.503967) can1 642#0602011B09201600
(1612340763.511943) can1 644#0000000000000000
(1612340763.511950) can0 3F0#0000000000000000
(1612340763.511955) can0 39E#05817F0000000000
(1612340763.511959) can1 3D6#903FC00CB1002019
(1612340763.519957) can1 385#0A108200025D8A34
(1612340763.519962) can1 376#80653100000080FF
(1612340763.519966) can1 37A#80068B0000000100
(1612340763.519970) can1 39D#0F008282983E8000
(1612340763.527947) can0 3C0#00000C127FFF4401
(1612340763.527953) can0 3CA#801780170CAB8061
(1612340763.527957) can0 39A#20FC000B7D000000
(1612340763.527960) can0 33A#0006000000000000
(1612340763.535948) can0 380#80727E03E8FFFF7F
(1612340763.535955) can0 340#0004000000000000
(1612340763.535960) can0 38A#00000000000000B2
(1612340763.535964) can0 39E#05817F0000000000
(1612340763.543944) can1 324#4F400000F60017D0
(1612340763.543950) can0 316#81500AF07AB30200
(1612340763.543955) can1 32C#00D24D305D000072
(1612340763.543958) can1 642#0370087123028B00
(1612340763.551947) can0 3F0#0000000000000000
(1612340763.551953) can0 39E#05817F0000000000
(1612340763.551958) can1 324#2F400000F60017D0
(1612340763.551962) can1 3D6#903FC00CB1002019
(1612340763.559951) can1 385#0A108200025D8A34
(1612340763.559956) can1 376#80653300000080FF
(1612340763.559961) can1 371#B3BFC6BA3FFC6590
(1612340763.559966) can0 3C0#00000C127FFF4401
(1612340763.567947) can0 3CA#801780170CB08061
(1612340763.567953) can0 39A#20FC000BB1000000
(1612340763.567957) can1 3D6#903FC00CB1002019
(1612340763.567962) can0 340#0004000000000000
(1612340763.575943) can0 380#80737E03E3FFFF7F
(1612340763.575946) can0 34A#0000000000000000
(1612340763.575949) can0 38A#00000000000000FE
(1612340763.575951) can0 39E#05817F0000000000
(1612340763.583972) can1 324#00400000060017D0
(1612340763.583976) can0 316#81500AF07AB30200
(1612340763.583979) can1 32C#00D24D305D000072
(1612340763.583980) can1 633#0C08A93000200E00
(1612340763.591939) can1 634#04000083555D591B
(1612340763.591941) can1 641#000054AB03140518
(1612340763.591942) can1 642#0000000000000000
(1612340763.591944) can0 401#00007F0620000000
(1612340763.599934) can1 3D6#903FC00CB1002019
(1612340763.599935) can1 385#0A108200025D8A34
(1612340763.599936) can1 376#80653800000080FF
(1612340763.599937) can0 3C0#00000C127FFF4401
(1612340763.607935) can0 3CA#801780170CB08061
(1612340763.607936) can0 450#0000001000000000
(1612340763.607937) can0 45E#0000100000100000
(1612340763.607938) can0 360#0000000000240034
(1612340763.615934) can0 34A#0000000000000000
(1612340763.615935) can0 380#80737E03E3FFFF7F
(1612340763.615936) can0 354#50CD000000000000
(1612340763.615937) can1 634#04000083555D591B
(1612340763.623935) can0 39E#05817F0000000000
(1612340763.623936) can1 641#0300000000000000
(1612340763.623936) can0 316#81500AF07AB40200
(1612340763.623937) can0 52D#4E0000003E6D0000
(1612340763.631936) can0 52E#6D282F1000000000
(1612340763.631937) can0 3F0#0000000000000000
(1612340763.631938) can1 376#80553800000080FF
(1612340763.631941) can1 3D6#903FC00CB1002019
(1612340763.639940) can1 385#0B108200025D8A34
(1612340763.639941) can1 376#80553800000080FF
(1612340763.639941) can1 37A#80068B0000000100
(1612340763.639942) can0 39F#0004000400000032
(1612340763.647978) can1 39D#0F008282983E8000
(1612340763.647979) can0 3C0#00000C127FFF4401
(1612340763.647979) can0 3CA#801380130CBC806B
(1612340763.647980) can0 340#0004000000000000
(1612340763.656306) can0 380#80717E03E8FFFF7F
(1612340763.656306) can0 34A#0000000000000000
(1612340763.656307) can0 38A#0000000000000076
(1612340763.656308) can1 633#0C08A93000200E00
(1612340763.664297) can0 39E#05817F0000000000
(1612340763.664298) can1 634#04000083555D591B
(1612340763.664299) can1 641#000054AB03140518
(1612340763.664300) can0 3F0#0000000000000000
(1612340763.672251) can1 376#80553200000080FF
(1612340763.672252) can1 37A#80068B0000000100
(1612340763.672252) can1 37F#65D932060F010000
(1612340763.672253) can1 3D6#903FC00CB1002019
(1612340763.680288) can1 385#0B108200025D8A34
(1612340763.680289) can1 376#80553200000080FF
(1612340763.680290) can1 37A#80068B0000000100
(1612340763.680290) can0 3C0#00000C127FFF4401
(1612340763.688155) can0 3CA#801380130CAD806B
(1612340763.688155) can0 39A#20FC000B7D000000
(1612340763.688156) can1 3D6#903FC00CB1002019
(1612340763.688157) can0 340#0004000000000000
(1612340763.696272) can0 380#80737E03E8FFFF7D
(1612340763.696273) can0 34A#0000000000000000
(1612340763.696274) can0 38A#00000000000000B2
(1612340763.696275) can1 634#04000083555D591B
(1612340763.704112) can0 39E#05817F0000000000
(1612340763.704114) can1 641#040001007D7DA5A5
(1612340763.704114) can0 316#81500AF07A9A0200
(1612340763.704115) can0 3F0#0000000000000000
(1612340763.712242) can1 376#80253200000080FF
(1612340763.712244) can1 37A#80068B0000000100
(1612340763.712245) can0 39E#05817F0000000000
(1612340763.712246) can1 3D6#903FC00CB1002019
(1612340763.720074) can1 385#0B108200025D8A34
(1612340763.720076) can0 3C5#96D0000000000000
(1612340763.720077) can0 3C9#FFFFFFFFFFFFFFFF
(1612340763.720078) can0 3C0#00000C127FFF4401
(1612340763.728201) can0 3CA#800880080CAD806B
(1612340763.728202) can0 39A#20FC000BB1000000
(1612340763.728204) can0 410#0800080000000000
(1612340763.728205) can0 33A#0006000000000000
(1612340763.736209) can0 380#80727E03E8FFFF7F
(1612340763.736211) can0 340#0004000000000000
(1612340763.736213) can0 38A#00000000000000FE
(1612340763.736215) can1 641#010000001612090D
(1612340763.744121) can0 39E#05817F0000000000
(1612340763.744124) can1 642#0110100000000000
(1612340763.744126) can0 316#81500AF07A500200
(1612340763.744128) can0 5E1#0C000E6F0E6A0E69
(1612340763.752019) can0 5E2#0C000E6F0E740E70
(1612340763.752022) can0 3F0#0000000000000000
(1612340763.752025) can1 376#80253800000080FF
(1612340763.752028) can1 3D6#903FC00CB1002019
(1612340763.760151) can1 385#0C108200025D8A34
(1612340763.760154) can1 376#80253800000080FF
(1612340763.760157) can1 371#B3BFC6BA3FFC65E0
(1612340763.760160) can1 39D#0F008282983E8000
(1612340763.768034) can0 3C0#00000C127FFF4401
(1612340763.768039) can0 3CA#800880080CBC8074
(1612340763.768042) can0 39A#20FC000BF5000000
(1612340763.768046) can0 340#0004000000000000
(1612340763.776088) can0 380#80727E03E8FFFF7F
(1612340763.776092) can0 34A#0000000000000000
(1612340763.776095) can0 38A#000000000000003A
(1612340763.776098) can1 633#0C08A93000200E00
(1612340763.784068) can0 39E#05817F0000000000
(1612340763.784072) can1 634#04000083555D591B
(1612340763.784075) can0 316#81500AF07A820200
(1612340763.784078) can0 3F0#0000000000000000
(1612340763.792088) can1 376#80453800000080FF
(1612340763.792092) can1 37A#80068B0000000100
(1612340763.792095) can1 5E3#10000E760E770E64
(1612340763.792099) can1 3D6#903FC00CB1002019
(1612340763.800079) can1 385#0C108200025D8A34
(1612340763.800084) can1 376#80453800000080FF
(1612340763.800088) can1 37A#80068B0000000100
(1612340763.800092) can0 3C0#00000C127FFF4401
(1612340763.808133) can0 3CA#800F800F0CBC8074
(1612340763.808138) can0 4F2#0000000000000000
(1612340763.808141) can0 450#0000001000000000
(1612340763.808144) can0 340#0004000000000000
(1612340763.816110) can0 380#80727E03E8FFFF7D
(1612340763.816114) can0 34A#0000000000000000
(1612340763.816117) can0 38A#0000000000000076
(1612340763.816120) can0 39E#05817F0000000000
(1612340763.824056) can1 376#80453500000080FF
(1612340763.824060) can1 37A#80068B0000000100
(1612340763.824063) can0 316#81500AF07A820200
(1612340763.824066) can0 52E#6D282F1000000000
(1612340763.832294) can0 3F0#0000000000000000
(1612340763.832299) can0 431#33FCE301004293B1
(1612340763.832303) can0 462#0770600000020000
(1612340763.832307) can1 3D6#903FC00CB1002019
(1612340763.840044) can1 385#0B108200025D8A34
(1612340763.840050) can0 39E#05817F0000000000
(1612340763.840053) can1 376#80653500000080FF
(1612340763.840057) can0 3C0#00000C127FFF4401
(1612340763.848224) can0 3CA#800F800F0CB58074
(1612340763.848228) can0 530#0000000000000008
(1612340763.848231) can0 5E1#10000E740E680E6F
(1612340763.848234) can0 340#0004000000000000
(1612340763.856079) can1 641#050B0A0500000000
(1612340763.856084) can0 380#80727E03E8FFFF7F
(1612340763.856087) can1 642#050312090E1F9F00
(1612340763.856089) can0 39E#05817F0000000000
(1612340763.864102) can1 376#80653500000080FF
(1612340763.864106) can0 316#81500AF07AB30200
(1612340763.864109) can1 324#E9400000960017D0
(1612340763.864113) can0 3F0#0000000000000000
(1612340763.872052) can0 39E#05817F0000000000
(1612340763.872056) can1 376#80653500000080FF
(1612340763.872059) can0 316#81500AF07AB30200
(1612340763.872062) can1 3D6#903FC00CB0002019
(1612340763.880005) can1 385#0B108200025D8A34
(1612340763.880010) can0 39E#05817F0000000000
(1612340763.880014) can1 376#80653600000080FF
(1612340763.880018) can1 39C#800080007FF98000
(1612340763.888008) can0 3C0#00000C127FFF4401
(1612340763.888013) can1 39D#0F008282983E8000
(1612340763.888016) can0 3CA#801780170CB5806B
(1612340763.888019) can0 360#00000000002400F8
(1612340763.896234) can1 5E4#14000E6C0E710E75
(1612340763.896239) can0 34A#0000000000000000
(1612340763.896242) can1 633#0C08A93000200E00
(1612340763.896245) can0 39E#05817F0000000000
(1612340763.904015) can1 376#80653600000080FF
(1612340763.904020) can0 316#81500AF07AB30200
(1612340763.904023) can1 324#CB400000B60017D0
(1612340763.904025) can0 3F0#0000000000000000
(1612340763.912293) can0 39E#05817F0000000000
(1612340763.912298) can1 376#80653600000080FF
(1612340763.912301) can0 316#81500AF07AB30200
(1612340763.912305) can1 3D6#903FC00CB0002019
(1612340763.920060) can1 385#0B108200025D8A34
(1612340763.920065) can0 3C5#96D0000000000000
(1612340763.920068) can0 3C9#FFFFFFFFFFFFFFFF
(1612340763.920071) can0 3C0#00000C127FFF4401
(1612340763.928155) can0 3CA#801780170CB7806B
(1612340763.928176) can0 39A#20FC000BF5000000
(1612340763.928179) can0 410#0800080000000000
(1612340763.928182) can1 376#80653600000080FF
(1612340763.936014) can0 33A#0006000000000000
(1612340763.936021) can1 37A#80068B0000000100
(1612340763.936025) can0 380#80727E03E8FFFF7F
(1612340763.936029) can0 39E#05817F0000000000
(1612340763.944253) can1 324#8C400000C60017D0
(1612340763.944258) can0 316#81500AF07AB30200
(1612340763.944261) can1 32C#00D24D305D000072
(1612340763.944263) can0 71A#0006000000000000
(1612340763.952062) can0 70E#0006000000000000
(1612340763.952066) can0 70F#0006000000000000
(1612340763.952069) can0 3F0#0000000000000000
(1612340763.952072) can1 3D6#903FC00CB0002019
(1612340763.960020) can1 385#0B108200025D8A30
(1612340763.960025) can0 39E#05817F0000000000
(1612340763.960028) can1 324#8D400000D60017D0
(1612340763.960032) can0 3C0#00000C127FFF4401
(1612340763.968252) can0 3CA#801780170CB7806B
(1612340763.968257) can1 376#80653700000080FF
(1612340763.968260) can1 371#B3BFC6BA3FFC65D0
(1612340763.968262) can0 340#0004000000000000
(1612340763.976247) can0 380#80737E03EDFFFF7D
(1612340763.976251) can0 34A#0000000000000000
(1612340763.976254) can0 38A#0000000000000076
(1612340763.976257) can0 39E#05817F0000000000
(1612340763.984074) can1 324#6D400000D60017D0
(1612340763.984079) can0 316#81500AF07AB40200
(1612340763.984082) can1 32C#00D24D305D000072
(1612340763.984086) can0 3F0#0000000000000000
(1612340763.992075) can0 39E#05817F0000000000
(1612340763.992079) can1 324#6E400000E60017D0
(1612340763.992082) can0 316#81500AF07AB40200
(1612340763.992085) can1 3D6#903FC00CB0002019
(1612340764.000041) can1 376#80653700000080FF
(1612340764.000046) can1 37A#80068B0000000100
(1612340764.000049) can1 385#0B108200025D8A30
(1612340764.000053) can1 39D#0F008282983E8000
(1612340764.008154) can0 3C0#00000C127FFF4401
(1612340764.008157) can0 3CA#801780170CB9806B
(1612340764.008160) can0 450#0000001000000000
(1612340764.008164) can0 360#00000000002400BC
(1612340764.016031) can0 34A#0000000000000000
(1612340764.016037) can0 380#80727E03E8FFFF7F
(1612340764.016041) can0 354#50CD000000000000
(1612340764.016045) can0 39E#05817F0000000000
(1612340764.024072) can1 324#4F400000F60017D0
(1612340764.024076) can0 316#81500AF07AB40200
(1612340764.024079) can1 32C#00D24D305D000072
(1612340764.024082) can0 52E#6D282F1000000000
(1612340764.032098) can1 642#0110100000000000
(1612340764.032103) can0 3F0#0000000000000000
(1612340764.032106) can0 431#33FCE301004293B1
(1612340764.032109) can1 3D6#903FC00CB0002019
(1612340764.040036) can1 376#80653100000080FF
(1612340764.040042) can1 37A#80068B0000000100
(1612340764.040046) can1 385#0B108200025D8A30
(1612340764.040050) can0 3C0#00000C127FFF4401
(1612340764.048324) can0 3CA#801780170CAB806B
(1612340764.048328) can0 530#0000000000000008
(1612340764.048331) can0 5E1#18000E6F0E750E74
(1612340764.048334) can0 360#00000000002400F8
(1612340764.056113) can0 34A#0000000000000000
(1612340764.056119) can0 380#80727E03E8FFFF7F
(1612340764.056123) can0 354#50CD000000000000
(1612340764.056128) can0 39E#05817F0000000000
(1612340764.064305) can1 324#00400000060017D0
(1612340764.064309) can0 316#81500AF07AB30200
(1612340764.064312) can1 32C#00D24D305D000073
(1612340764.064315) can1 634#04000083555D591B
(1612340764.072116) can1 641#050B0A0500000000
(1612340764.072121) can1 642#050312090E1F9F00
(1612340764.072148) can0 3F0#0000000000000000
(1612340764.072152) can1 3D6#903FC00CB0002019
(1612340764.080113) can1 376#80653100000080FF
(1612340764.080117) can1 37A#80068B0000000100
(1612340764.080120) can1 37F#65F918060F010000
(1612340764.080124) can0 3C0#00000C127FFF4401
(1612340764.088071) can0 3CA#801780170CAB806B
(1612340764.088075) can0 39A#20FC000BF5000000
(1612340764.088078) can1 3D6#903FC00CB0002019
(1612340764.088081) can0 360#0000000000240034
(1612340764.096083) can0 34A#0000000000000000
(1612340764.096086) can0 380#80727E03E8FFFF7F
(1612340764.096089) can0 354#50CD000000000000
(1612340764.096092) can0 39E#05817F0000000000
(1612340764.104107) can1 324#E1400000160017D0
(1612340764.104111) can0 316#81500AF07AB30200
(1612340764.104114) can1 32C#00D24D305D000072
(1612340764.104117) can1 641#02001B014A000000
(1612340764.112092) can1 642#02301845F9000000
(1612340764.112095) can1 643#0000040000000000
(1612340764.112099) can0 3F0#0000000000000000
(1612340764.112102) can1 3D6#903FC00CB0002019
(1612340764.120097) can0 3C5#96D0000000000000
(1612340764.120102) can1 385#0B108200025D8A34
(1612340764.120105) can0 3C9#FFFFFFFFFFFFFFFF
(1612340764.120108) can1 39D#0F008282983E8000
(1612340764.128273) can0 3C0#00000C127FFF4401
(1612340764.128276) can0 3CA#801780170CB0806B
(1612340764.128279) can0 39A#20FC000B39000000
(1612340764.128283) can0 33A#0006000000000000
(1612340764.136095) can0 380#80737E03E8FFFF7D
(1612340764.136099) can0 340#0004000000000000
(1612340764.136102) can0 38A#0000000000000076
(1612340764.136105) can1 634#04000083555D591B
(1612340764.144247) can0 39E#05817F0000000000
(1612340764.144251) can1 641#050B0A0500000000
(1612340764.144254) can0 316#81500AF07A810200
(1612340764.144257) can1 376#80453300000080FF
(1612340764.152129) can1 37A#80068B0000000100
(1612340764.152135) can0 3F0#0000000000000000
(1612340764.152139) can1 633#0C08A73000200E00
(1612340764.152144) can1 3D6#903FC00CB0002019
(1612340764.160249) can1 385#0B108200025D8A34
(1612340764.160253) can1 376#80453300000080FF
(1612340764.160256) can1 37A#80068B0000000100
(1612340764.160259) can0 3C0#00000C127FFF4401
(1612340764.168271) can0 3CA#800F800F0CB0806B
(1612340764.168275) can0 39A#20FC000B7D000000
(1612340764.168278) can0 3BA#0000000000000000
(1612340764.168281) can0 360#00000000002400BC
(1612340764.176281) can0 34A#0000000000000000
(1612340764.176285) can0 380#80727E03E8FFFF7F
(1612340764.176288) can0 354#50CD000000000000
(1612340764.176292) can1 641#02001B0149000000
(1612340764.184059) can0 39E#05817F0000000000
(1612340764.184066) can1 642#02301845F9000000
(1612340764.184070) can0 316#81500AF07A820200
(1612340764.184073) can1 376#80453400000080FF
(1612340764.192282) can0 3F0#0000000000000000
(1612340764.192287) can1 37A#80068B0000000100
(1612340764.192290) can1 5E1#20000E740E740E6D
(1612340764.192293) can1 3D6#903FC00CB1002019
(1612340764.200137) can1 385#0B108200025D8A34
(1612340764.200141) can1 376#80653400000080FF
(1612340764.200144) can1 37A#80068B0000000100
(1612340764.200148) can0 3C0#00000C127FFF4401
(1612340764.208160) can0 3CA#800F800F0CB2806B
(1612340764.208165) can0 450#0000001000000000
(1612340764.208169) can0 45E#0000100000100000
(1612340764.208173) can0 360#00000000002400F8
(1612340764.216283) can0 34A#0000000000000000
(1612340764.216287) can0 380#80737E03E8FFFF7F
(1612340764.216290) can0 354#50CD000000000000
(1612340764.216313) can1 642#0602011B09201600
(1612340764.224294) can0 39E#05817F0000000000
(1612340764.224298) can1 644#0000000000000000
(1612340764.224301) can0 316#81500AF07AB30200
(1612340764.224305) can0 52E#6D282F1000000000
(1612340764.232292) can1 376#80653400000080FF
(1612340764.232296) can0 3F0#0000000000000000
(1612340764.232299) can1 37A#80068B0000000100
(1612340764.232302) can1 3D6#903FC00CB1002019
(1612340764.240297) can1 385#0B108200025D8A34
(1612340764.240301) can1 376#80653600000080FF
(1612340764.240304) can1 37A#80068B0000000100
(1612340764.240307) can1 39D#0F008282983E8000
(1612340764.248293) can0 3C0#00000C127FFF4401
(1612340764.248297) can0 3CA#801780170CB2806B
(1612340764.248300) can0 530#0000000000000008
(1612340764.248305) can0 360#0000000000240034
(1612340764.256238) can0 34A#0000000000000000
(1612340764.256242) can0 380#80737E03E8FFFF7F
(1612340764.256244) can0 354#50CD000000000000
(1612340764.256248) can1 642#0370087123028B00
(1612340764.264298) can0 39E#05817F0000000000
(1612340764.264302) can1 324#47400000760017D0
(1612340764.264305) can0 316#81500AF07AB30200
(1612340764.264307) can1 376#80353600000080FF
(1612340764.272264) can0 3F0#0000000000000000
(1612340764.272269) can1 371#B3BFC6BA3FFC65B8
(1612340764.272272) can1 374#0E770DFD27200CB8
(1612340764.272276) can1 3D6#903FC00CB1002019
(1612340764.280290) can1 385#0B108200025D8A34
(1612340764.280295) can1 376#80353600000080FF
(1612340764.280299) can1 37A#80068B0000000100
(1612340764.280303) can0 3C0#00000C127FFF4401
(1612340764.288263) can0 3CA#800C800C0CB7806B
(1612340764.288267) can0 39A#20FC000B39000000
(1612340764.288270) can0 3BA#0000000000000000
(1612340764.288273) can0 360#0000000000240070
(1612340764.296305) can0 34A#0000000000000000
(1612340764.296308) can0 380#80727E03E8FFFF7F
(1612340764.296311) can0 354#50CD000000000000
(1612340764.296316) can1 633#0C08B03000200E00
(1612340764.304241) can0 39E#05817F0000000000
(1612340764.304245) can1 634#04000083555D591B
(1612340764.304248) can1 641#000054AB03140518
(1612340764.304251) can1 376#80353A00000080FF
(1612340764.312338) can1 37A#80068B0000000100
(1612340764.312342) can0 3F0#0000000000000000
(1612340764.312345) can1 5E5#503D3D3D3DFFFFFF
(1612340764.312348) can0 3C5#96D0000000000000
(1612340764.320106) can0 3C9#FFFFFFFFFFFFFFFF
(1612340764.320112) can1 3D6#903FC00CB1002019
(1612340764.320115) can1 385#0B108200025D8A34
(1612340764.320120) can0 3C0#00000C127FFF4401
(1612340764.328266) can0 3CA#800C800C0CC1806B
(1612340764.328270) can0 39A#20FC000B7D000000
(1612340764.328272) can0 410#0800080000000000
(1612340764.328276) can1 641#0300000000000000
(1612340764.336159) can0 33A#0006000000000000
(1612340764.336164) can1 642#0370087123028B00
(1612340764.336166) can0 380#80727E03E8FFFF7F
(1612340764.336169) can0 39E#05817F0000000000
(1612340764.344081) can1 324#E9400000960017D0
(1612340764.344086) can0 316#81500AF07A690200
(1612340764.344089) can1 32C#00D24D305D000072
(1612340764.344093) can0 3F0#0000000000000000
(1612340764.352093) can0 39E#05817F0000000000
(1612340764.352099) can1 324#EA400000A60017D0
(1612340764.352103) can0 316#81500AF07A690200
(1612340764.352107) can1 3D6#903FC00CB1002019
(1612340764.360312) can1 385#0B108200025D8A34
(1612340764.360316) can0 39E#05817F0000000000
(1612340764.360319) can1 324#CA400000A60017D0
(1612340764.360322) can1 39C#800080007FF98000
(1612340764.368313) can0 3C0#00000C127FFF4401
(1612340764.368317) can1 39D#0F008282983E8000
(1612340764.368320) can0 3CA#801780170CC1806B
(1612340764.368324) can0 360#00000000002400F8
(1612340764.376088) can0 34A#0000000000000000
(1612340764.376091) can0 380#80727E03E8FFFF7F
(1612340764.376094) can0 354#50CD000000000000
(1612340764.376097) can0 39E#05817F0000000000
(1612340764.384156) can1 324#CB400000B60017D0
(1612340764.384160) can0 316#81500AF07AB40200
(1612340764.384163) can1 32C#00D24D305D000072
(1612340764.384166) can0 3F0#0000000000000000
(1612340764.392318) can0 39E#05817F0000000000
(1612340764.392322) can1 324#AB400000B60017D0
(1612340764.392326) can0 316#81500AF07AB40200
(1612340764.392329) can1 3D6#903FC00CB1002019
(1612340764.400330) can1 385#0B108200025D8A34
(1612340764.400335) can0 39E#05817F0000000000
(1612340764.400338) can1 324#AB400000B60017D0
(1612340764.400341) can0 3C0#00000C127FFF4401
(1612340764.408135) can0 3CA#801780170CBE806B
(1612340764.408139) can0 4F2#0000000000000000
(1612340764.408142) can0 450#0000001000000000
(1612340764.408145) can0 360#0000000000240034
(1612340764.416303) can1 376#80653900000080FF
(1612340764.416308) can0 34A#0000000000000000
(1612340764.416312) can1 37A#80068B0000000100
(1612340764.416315) can0 39E#05817F0000000000
(1612340764.424323) can1 324#8C400000C60017D0
(1612340764.424327) can0 316#81500AF07AB40200
(1612340764.424330) can1 32C#00D24D305D000070
(1612340764.424333) can0 52E#6D282F1000000000
(1612340764.432327) can0 3F0#0000000000000000
(1612340764.432331) can0 431#33FCE301004293B1
(1612340764.432334) can0 462#0770600000020000
(1612340764.432338) can1 3D6#903FC00CB1002019
(1612340764.440320) can1 385#0B108200025D8A34
(1612340764.440325) can0 39E#05817F0000000000
(1612340764.440328) can1 324#8D400000D60017D0
(1612340764.440332) can0 3C0#00000C127FFF4401
(1612340764.448325) can0 3CA#800C800C0CBE806B
(1612340764.448329) can0 530#0000000000000008
(1612340764.448331) can0 5E1#08000E6B0E6A0E72
(1612340764.448334) can0 360#0000000000240070
(1612340764.456272) can0 34A#0000000000000000
(1612340764.456277) can1 376#80353900000080FF
(1612340764.456280) can0 380#80737E03E8FFFF7D
(1612340764.456283) can0 39E#05817F0000000000
(1612340764.464285) can1 324#6D400000D60017D0
(1612340764.464289) can0 316#81500AF07A690200
(1612340764.464292) can1 32C#00D24D305D000073
(1612340764.464296) can0 3F0#0000000000000000
(1612340764.472298) can0 39E#05817F0000000000
(1612340764.472303) can1 324#6E400000E60017D0
(1612340764.472305) can0 316#81500AF07A690200
(1612340764.472308) can1 3D6#903FC00CB1002019
(1612340764.480332) can1 385#0B108200025D8A34
(1612340764.480337) can0 39E#05817F0000000000
(1612340764.480340) can1 324#4E400000E60017D0
(1612340764.480343) can1 376#80353300000080FF
(1612340764.488304) can0 3C0#00000C127FFF4401
(1612340764.488309) can1 37A#80068B0000000100
(1612340764.488312) can0 3CA#800C800C0CB0806B
(1612340764.488316) can0 360#00000000002400BC
(1612340764.496397) can0 34A#0000000000000000
(1612340764.496402) can0 380#80727E03E8FFFF7F
(1612340764.496406) can0 354#50CD000000000000
(1612340764.496410) can0 39E#05817F0000000000
(1612340764.504198) can1 324#4F400000F60017D0
(1612340764.504204) can0 316#81500AF07A690200
(1612340764.504207) can1 32C#00D24D305D000072
(1612340764.504211) can0 3F0#0000000000000000
(1612340764.512194) can0 39E#05817F0000000000
(1612340764.512216) can1 324#2F400000F60017D0
(1612340764.512220) can0 316#81500AF07A690200
(1612340764.512223) can1 634#04000083555D591B
(1612340764.520179) can1 3D6#903FC00CB1002019
(1612340764.520184) can1 641#000054AB03140518
(1612340764.520188) can1 385#0B108200025D8A34
(1612340764.520193) can0 3C0#00000C127FFF4401
(1612340764.528174) can0 3CA#800C800C0CB0806B
(1612340764.528180) can1 376#80353600000080FF
(1612340764.528184) can0 39A#20FC000BB1000000
(1612340764.528188) can0 33A#0006000000000000
(1612340764.536177) can0 360#00000000002400F8
(1612340764.536183) can0 340#0004000000000000
(1612340764.536187) can0 380#80737E03E8FFFF7F
(1612340764.536191) can0 39E#05817F0000000000
(1612340764.544199) can1 324#00400000060017D0
(1612340764.544205) can0 316#81500AF07A690200
(1612340764.544209) can1 32C#00D24D305D000073
(1612340764.544213) can0 3F0#0000000000000000
(1612340764.552109) can0 39E#05817F0000000000
(1612340764.552114) can1 324#00400000060017D0
(1612340764.552117) can0 316#81500AF07A690200
(1612340764.552120) can1 641#040001007D7DA5A5
(1612340764.560115) can1 3D6#903FC00CB0002019
(1612340764.560121) can1 642#04FF00000BB60043
(1612340764.560125) can1 385#0B108200025D8A34
(1612340764.560131) can0 3C0#00000C127FFF4401
(1612340764.568119) can0 3CA#800C800C0CB7806B
(1612340764.568125) can1 376#80753600000080FF
(1612340764.568129) can0 39A#20FC000BF5000000
(1612340764.568132) can0 360#0000000000240034
(1612340764.576140) can0 34A#0000000000000000
(1612340764.576146) can0 380#80727E03E8FFFF7F
(1612340764.576150) can0 354#50CD000000000000
(1612340764.576154) can0 39E#05817F0000000000
(1612340764.584161) can1 324#E1400000160017D0
(1612340764.584166) can0 316#81500AF07ACC0200
(1612340764.584169) can1 32C#00D24D305D000072
(1612340764.584172) can0 3F0#0000000000000000
(1612340764.592146) can0 39E#05817F0000000000
(1612340764.592152) can1 324#E2400000260017D0
(1612340764.592155) can0 401#00007F0620000000
(1612340764.592158) can1 5E2#10000E750E6B0E74
(1612340764.600189) can1 633#0C08A93000200E00
(1612340764.600192) can1 3D6#903FC00CB0002019
(1612340764.600195) can1 634#04000083555D591B
(1612340764.600198) can1 39D#0F008282983E8000
(1612340764.608172) can0 3C0#00000C127FFF4401
(1612340764.608176) can0 3CA#801A801A0CB7806B
(1612340764.608179) can0 4F2#0000000000000000
(1612340764.608182) can0 34A#0000000000000000
(1612340764.616168) can0 360#0000000000240070
(1612340764.616172) can0 354#50CD000000000000
(1612340764.616175) can0 380#80737E03E8FFFF7D
(1612340764.616178) can0 39E#05817F0000000000
(1612340764.624132) can1 324#C3400000360017D0
(1612340764.624137) can0 316#81500AF07ACD0200
(1612340764.624141) can1 32C#00D24D305D000072
(1612340764.624144) can1 642#04FF00000BB60043
(1612340764.632177) can0 52E#6D282F1000000000
(1612340764.632181) can1 644#0000000000000000
(1612340764.632184) can0 3F0#0000000000000000
(1612340764.632187) can1 3D6#903FC00CB0002019
(1612340764.640133) can1 385#0B108200025D8A34
(1612340764.640138) can1 376#80853B00000080FF
(1612340764.640141) can1 37A#80068B0000000100
(1612340764.640146) can0 3C0#00000C127FFF4401
(1612340764.648179) can0 3CA#801A801A0CC3806B
(1612340764.648183) can0 530#0000000000000008
(1612340764.648187) can0 5E1#10000E730E690E6F
(1612340764.648190) can0 34A#0000000000000000
(1612340764.656137) can0 360#00000000002400BC
(1612340764.656143) can0 354#50CD000000000000
(1612340764.656162) can0 380#80727E03E8FFFF7F
(1612340764.656166) can0 39E#05817F0000000000
(1612340764.664137) can1 324#84400000460017D0
(1612340764.664143) can0 316#81500AF07AE60200
(1612340764.664147) can1 32C#00D24D305D000073
(1612340764.664151) can0 3F0#0000000000000000
(1612340764.672179) can0 39E#05817F0000000000
(1612340764.672187) can1 376#80853900000080FF
(1612340764.672190) can0 316#81500AF07AE60200
(1612340764.672195) can1 3D6#903FC00CB0002019
(1612340764.680140) can1 385#0B108200025D8A34
(1612340764.680148) can0 39E#05817F0000000000
(1612340764.680152) can1 324#85400000560017D0
(1612340764.680156) can0 3C0#00000C127FFF4401
(1612340764.688144) can0 3CA#801E801E0CC3806B
(1612340764.688150) can0 3BA#0000000000000000
(1612340764.688155) can0 39A#20FC000BB1000000
(1612340764.688159) can0 34A#0000000000000000
(1612340764.696142) can1 376#80853900000080FF
(1612340764.696148) can0 360#00000000002400F8
(1612340764.696152) can1 37A#80068B0000000100
(1612340764.696157) can0 39E#05817F0000000000
(1612340764.704140) can1 324#65400000560017D0
(1612340764.704145) can0 316#81500AF07AE60200
(1612340764.704148) can1 32C#00D24D305D000073
(1612340764.704151) can0 3F0#0000000000000000
(1612340764.712149) can0 39E#05817F0000000000
(1612340764.712155) can1 324#66400000660017D0
(1612340764.712158) can0 316#81500AF07AE60200
(1612340764.712162) can1 3D6#903FC00CB1002019
(1612340764.720205) can1 385#0B108200025D8A34
(1612340764.720211) can0 39E#05817F0000000000
(1612340764.720214) can1 324#46400000660017D0
(1612340764.720217) can1 39C#800080007FF98001
(1612340764.728149) can0 3C0#00000C127FFF4401
(1612340764.728155) can1 39D#0F008282983E8000
(1612340764.728159) can0 3CA#802280220CBE806B
(1612340764.728163) can1 633#0C08A93000200E00
(1612340764.736155) can0 33A#0006000000000000
(1612340764.736161) can1 634#04000083555D591B
(1612340764.736167) can0 360#0000000000240034
(1612340764.736171) can0 39E#05817F0000000000
(1612340764.744222) can1 324#47400000760017D0
(1612340764.744226) can0 316#81500AF07AFE0200
(1612340764.744229) can1 32C#00D24D305D000073
(1612340764.744232) can0 5E1#14000E6B0E6F0E72
(1612340764.752156) can0 5E2#14000E6F0E700E6E
(1612340764.752162) can0 3F0#0000000000000000
(1612340764.752166) can0 39E#05817F0000000000
(1612340764.752171) can1 3D6#903FC00CB1002019
(1612340764.760196) can1 385#0B108200025D8A34
(1612340764.760200) can0 39E#05817F0000000000
(1612340764.760203) can1 324#27400000760017D0
(1612340764.760206) can0 3C0#00000C127FFF4401
(1612340764.768241) can0 3CA#802280220CBE806B
(1612340764.768248) can0 3BA#0000000000000000
(1612340764.768253) can0 39A#20FC000B39000000
(1612340764.768257) can0 34A#0000000000000000
(1612340764.776212) can1 633#0C08A83000200E00
(1612340764.776219) can1 634#04000083555D591B
(1612340764.776223) can0 360#0000000000240070
(1612340764.776227) can0 39E#05817F0000000000
(1612340764.784283) can1 324#08400000860017D0
(1612340764.784290) can0 316#81500AF07AFE0200
(1612340764.784295) can1 32C#00D24D305D000071
(1612340764.784299) can0 3F0#0000000000000000
(1612340764.792247) can0 401#00007F0620000000
(1612340764.792252) can0 39E#05817F0000000000
(1612340764.792255) can1 324#08400000860017D0
(1612340764.792258) can1 3D6#903FC00CB1002019
(1612340764.800277) can1 385#0B108200025D8A34
(1612340764.800283) can0 39E#05817F0000000000
(1612340764.800287) can1 324#09400000960017D0
(1612340764.800307) can0 3C0#00000C127FFF4401
(1612340764.808206) can0 3CA#801780170CB2806B
(1612340764.808210) can0 4F2#0000000000000000
(1612340764.808213) can0 450#0000001000000000
(1612340764.808216) can0 34A#0000000000000000
(1612340764.816223) can1 5E3#18000E710E620E79
(1612340764.816229) can0 360#00000000002400BC
(1612340764.816233) can1 5E4#18000E760E6D0E68
(1612340764.816237) can0 39E#05817F0000000000
(1612340764.824264) can1 324#E9400000960017D0
(1612340764.824271) can0 316#81500AF07AB30200
(1612340764.824277) can1 32C#00D24D305D000072
(1612340764.824282) can0 52E#6D282F1000000000
(1612340764.832239) can0 3F0#0000000000000000
(1612340764.832244) can0 431#33FCE301004293B1
(1612340764.832247) can0 462#0770600000020000
(1612340764.832253) can1 3D6#903FC00CB1002019
(1612340764.840162) can1 385#0B108200025D8A34
(1612340764.840167) can0 39E#05817F0000000000
(1612340764.840170) can1 324#CA400000A60017D0
(1612340764.840173) can1 39D#0F008282983E8000
(1612340764.848156) can0 3C0#00000C127FFF4401
(1612340764.848160) can0 3CA#801780170CBC806B
(1612340764.848162) can0 530#0000000000000008
(1612340764.848165) can0 34A#0000000000000000
(1612340764.856169) can1 633#0C08A73000200E00
(1612340764.856175) can0 360#00000000002400F8
(1612340764.856178) can1 634#04000083555D591B
(1612340764.856182) can0 39E#05817F0000000000
(1612340764.864175) can1 324#CB400000B60017D0
(1612340764.864181) can0 316#81500AF07AB40200
(1612340764.864186) can1 32C#00D24D305D000072
(1612340764.864190) can0 3F0#0000000000000000
(1612340764.872228) can0 39E#05817F0000000000
(1612340764.872232) can1 324#AB400000B60017D0
(1612340764.872236) can0 316#81500AF07AB40200
(1612340764.872239) can1 3D6#903FC00CB0002019
(1612340764.880172) can1 385#0B108200025D8A34
(1612340764.880178) can0 39E#05817F0000000000
(1612340764.880182) can1 324#AB400000B60017D0
(1612340764.880186) can0 3C0#00000C127FFF4401
(1612340764.888163) can0 3CA#802280220CBC806B
(1612340764.888167) can0 3BA#0000000000000000
(1612340764.888170) can0 39A#20FC000BF5000000
(1612340764.888173) can0 34A#0000000000000000
(1612340764.896174) can1 37F#65F12E060F010000
(1612340764.896180) can0 360#0000000000240034
(1612340764.896184) can1 429#423D878F00000098
(1612340764.896187) can0 39E#05817F0000000000
(1612340764.904217) can1 324#8C400000C60017D0
(1612340764.904222) can0 316#81500AF07AFE0200
(1612340764.904224) can1 32C#00D24D305D000073
(1612340764.904227) can0 3F0#0000000000000000
(1612340764.912176) can0 39E#05817F0000000000
(1612340764.912181) can1 324#8C400000C60017D0
(1612340764.912184) can0 316#81500AF07AFE0200
(1612340764.912189) can1 3D6#903FC00CB0002019
(1612340764.920238) can1 385#0B108200025D8A34
(1612340764.920242) can0 39E#05817F0000000000
(1612340764.920246) can1 324#8D400000D60017D0
(1612340764.920250) can0 3C0#00000C127FFF4401
(1612340764.928193) can1 5F2#090D44473032444D
(1612340764.928198) can0 3CA#802280220CAD806B
(1612340764.928201) can1 633#0C08A93000200E00
(1612340764.928204) can0 33A#0006000000000000
(1612340764.936228) can0 360#0000000000240070
(1612340764.936232) can0 340#0004000000000000
(1612340764.936235) can0 380#80737E03EDFFFF7D
(1612340764.936238) can0 39E#05817F0000000000
(1612340764.944301) can1 324#6D400000D60017D0
(1612340764.944305) can0 316#81500AF07AFD0200
(1612340764.944308) can1 32C#00D24D305D000073
(1612340764.944311) can0 71A#0006000000000000
(1612340764.952180) can0 70F#0006000000000000
(1612340764.952184) can0 3F0#0000000000000000
(1612340764.952187) can0 39E#05817F0000000000
(1612340764.952190) can1 3D6#903FC00CB0002019
(1612340764.960194) can1 385#0B108200025D8A34
(1612340764.960202) can0 39E#05817F0000000000
(1612340764.960205) can1 324#4E400000E60017D0
(1612340764.960209) can1 37A#80068B0000000100
(1612340764.968234) can0 3C0#00000C127FFF4401
(1612340764.968239) can1 39C#800080007FF98001
(1612340764.968241) can0 3CA#802280220CAD806B
(1612340764.968244) can0 34A#0000000000000000
(1612340764.976176) can0 360#00000000002400BC
(1612340764.976180) can0 354#50CD000000000000
(1612340764.976183) can0 380#80727E03E8FFFF7D
(1612340764.976186) can0 39E#05817F0000000000
(1612340764.984272) can1 324#4F400000F60017D0
(1612340764.984278) can0 316#81500AF07B000200
(1612340764.984281) can1 32C#00D24D305D000073
(1612340764.984286) can0 401#00007F0620000000
(1612340764.992425) can0 3F0#0000000000000000
(1612340764.992429) can0 39E#05817F0000000000
(1612340764.992432) can1 324#2F400000F60017D0
(1612340764.992436) can1 642#050312090E1F9F00
(1612340765.000422) can1 3D6#903FC00CB0002019
(1612340765.000426) can1 385#0B108200025D8A34
(1612340765.000430) can0 39E#05817F0000000000
(1612340765.000432) can0 3C0#00000C127FFF4401
(1612340765.008471) can1 37A#80068B0000000100
(1612340765.008476) can0 3CA#802280220CCD806B
(1612340765.008479) can1 5E1#20000E730E740E6D
(1612340765.008483) can0 350#01FFAFEF00007F00
(1612340765.016368) can0 354#50CD000000000000
(1612340765.016371) can0 360#00000000002400F8
(1612340765.016374) can0 380#80737E03EDFFFF7F
(1612340765.016377) can0 39E#05817F0000000000
(1612340765.024422) can1 324#00400000060017D0
(1612340765.024427) can0 316#81500AF07B000200
(1612340765.024430) can1 32C#00D24D305D000072
(1612340765.024433) can0 52E#6D282F1000000000
(1612340765.032360) can0 3F0#0000000000000000
(1612340765.032364) can0 431#33FCE301004293B1
(1612340765.032366) can0 462#0770600000020000
(1612340765.032370) can1 642#02301845FA000000
(1612340765.040428) can1 3D6#903FC00CB1002019
(1612340765.040432) can1 644#0000000000000000
(1612340765.040435) can1 385#0B108200025D8A34
(1612340765.040438) can0 3C0#00000C127FFF4401
(1612340765.048440) can0 3CA#802280220CCD806B
(1612340765.048444) can0 3BA#0000000000000000
(1612340765.048448) can0 530#0000000000000008
(1612340765.048450) can0 350#01FFAFEF00007F00
(1612340765.056428) can0 354#50CD000000000000
(1612340765.056432) can0 360#0000000000240034
(1612340765.056435) can0 380#80737E03E8FFFF7F
(1612340765.056439) can0 39E#05817F0000000000
(1612340765.064428) can1 324#E1400000160017D0
(1612340765.064432) can0 316#81500AF07AFE0200
(1612340765.064435) can1 32C#00D24D305D000072
(1612340765.064438) can1 642#050312090E1F9F00
(1612340765.072422) can0 3F0#0000000000000000
(1612340765.072426) can0 39E#05817F0000000000
(1612340765.072430) can1 324#E2400000260017D0
(1612340765.072432) can1 3D6#903FC00CB1002019
(1612340765.080394) can1 385#0B108200025D8A34
(1612340765.080398) can1 376#80953600000080FF
(1612340765.080400) can1 37A#80068B0000000100
(1612340765.080404) can1 39D#0F008282983E8000
(1612340765.088416) can0 3C0#00000C127FFF4401
(1612340765.088419) can0 3CA#802280220CB7806B
(1612340765.088422) can0 3BA#0000000000000000
(1612340765.088425) can0 350#01FFAFEF00007F00
(1612340765.096435) can0 354#50CD000000000000
(1612340765.096453) can0 360#0000000000240070
(1612340765.096457) can0 380#80707E03E3FFFF7F
(1612340765.096460) can0 39E#05817F0000000000
(1612340765.104401) can1 324#C3400000360017D0
(1612340765.104406) can0 316#81500AF07AFE0200
(1612340765.104409) can1 32C#00D24D305D000073
(1612340765.104413) can1 634#04000083555D591B
(1612340765.112451) can1 641#02001B014A000000
(1612340765.112455) can1 642#02301845FA000000
(1612340765.112459) can0 3F0#0000000000000000
(1612340765.112462) can1 3D6#903FC00CB1002019
(1612340765.120400) can1 385#0B108200025D8A34
(1612340765.120404) can1 376#80953A00000080FF
(1612340765.120407) can1 37A#80068B0000000100
(1612340765.120410) can0 3C0#00000C127FFF4401
(1612340765.128436) can0 3BA#0000000000000000
(1612340765.128440) can0 3CA#802280220CC1806B
(1612340765.128443) can0 39A#20FC000B7D000000
(1612340765.128447) can0 33A#0006000000000000
(1612340765.136276) can0 360#00000000002400BC
(1612340765.136279) can0 340#0004000000000000
(1612340765.136282) can0 380#80727E03E3FFFF7F
(1612340765.136285) can0 39E#05817F0000000000
(1612340765.144454) can1 324#84400000460017D0
(1612340765.144459) can0 316#81500AF07AFF0200
(1612340765.144462) can1 32C#00D24D305D000072
(1612340765.144465) can1 641#066DEF6DEF6F8100
(1612340765.152256) can1 642#0602011B09201600
(1612340765.152260) can0 3F0#0000000000000000
(1612340765.152263) can0 39E#05817F0000000000
(1612340765.152266) can1 3D6#903FC00CB1002019
(1612340765.160386) can1 385#0B108200025D8A34
(1612340765.160390) can1 376#80953A00000080FF
(1612340765.160393) can1 37A#80068B0000000100
(1612340765.160396) can0 3C0#00000C127FFF4401
(1612340765.168293) can0 3BA#0000000000000000
(1612340765.168297) can0 3C5#96D0000000000000
(1612340765.168300) can0 3C9#FFFFFFFFFFFFFFFF
(1612340765.168302) can0 360#00000000002400F8
(1612340765.176444) can0 354#50CD000000000000
(1612340765.176448) can0 380#80737E03E8FFFF7F
(1612340765.176451) can0 38A#00000000000000FE
(1612340765.176455) can0 39E#05817F0000000000
(1612340765.184241) can1 324#65400000560017D0
(1612340765.184245) can0 316#81500AF07AFF0200
(1612340765.184248) can1 32C#00D24D305D000072
(1612340765.184251) can1 633#0C08A93000200E00
(1612340765.192449) can1 634#04000083555D591B
(1612340765.192453) can1 641#0300000000000000
(1612340765.192456) can1 642#0370087123028B00
(1612340765.192459) can1 3D6#903FC00CB1002019
(1612340765.200385) can1 385#0B108200025D8A34
(1612340765.200389) can1 376#80953900000080FF
(1612340765.200392) can1 37A#80068B0000000100
(1612340765.200396) can1 39D#0F008282983E8000
(1612340765.208271) can0 3C0#00000C127FFF4401
(1612340765.208275) can0 3BA#0000000000000000
(1612340765.208278) can0 3CA#802280220CBE806B
(1612340765.208281) can0 350#01FFAFEF00007F00
(1612340765.216457) can0 354#50CD000000000000
(1612340765.216461) can0 360#0000000000240034
(1612340765.216464) can0 380#80727E03E8FFFF7F
(1612340765.216467) can0 39E#05817F0000000000
(1612340765.224450) can1 324#47400000760017D0
(1612340765.224454) can0 316#81500AF07AFE0200
(1612340765.224457) can1 32C#00D24D305D000072
(1612340765.224461) can0 52E#6D282F1000000000
(1612340765.232458) can1 376#80953900000080FF
(1612340765.232462) can1 37A#80068B0000000100
(1612340765.232465) can1 5E5#403D3D3D3D3D3DFF
(1612340765.232468) can1 3D6#903FC00CB0002019
(1612340765.240461) can1 385#0B108200025D8A34
(1612340765.240465) can1 376#80953900000080FF
(1612340765.240482) can1 37A#80068B0000000100
(1612340765.240486) can0 3BA#0000000000000000
(1612340765.248456) can0 3C0#00000C127FFF4401
(1612340765.248461) can0 3CA#802280220CBE806B
(1612340765.248464) can0 530#0000000000000008
(1612340765.248469) can0 34A#0000000000000000
(1612340765.256474) can0 360#0000000000240070
(1612340765.256478) can0 354#50CD000000000000
(1612340765.256480) can0 380#80737E03E8FFFF7D
(1612340765.256483) can0 39E#05817F0000000000
(1612340765.264314) can1 324#08400000860017D0
(1612340765.264318) can0 316#81500AF07AFF0200
(1612340765.264321) can1 32C#00D24D305D000072
(1612340765.264324) can1 376#80953D00000080FF
(1612340765.272469) can1 37A#80068B0000000100
(1612340765.272473) can1 633#0C08A73000200E00
(1612340765.272476) can1 634#04000083555D591B
(1612340765.272480) can1 3D6#903FC00CB0002019
(1612340765.280466) can1 385#0B108200025D8A34
(1612340765.280470) can1 376#80A53D00000080FF
(1612340765.280473) can1 37A#80068B0000000100
(1612340765.280477) can0 3BA#0000000000000000
(1612340765.288452) can0 3C0#00000C127FFF4401
(1612340765.288456) can0 3CA#802280220CC8806B
(1612340765.288459) can0 39A#20FC000B7D000000
(1612340765.288462) can0 350#01FFAFEF00007F00
(1612340765.296464) can0 354#50CD000000000000
(1612340765.296468) can0 360#00000000002400BC
(1612340765.296471) can0 380#80727E03E8FFFF7F
(1612340765.296475) can0 39E#05817F0000000000
(1612340765.304449) can1 641#000054AB03140518
(1612340765.304453) can0 316#81500AF07B180200
(1612340765.304456) can1 324#E9400000960017D0
(1612340765.304459) can1 376#80A53D00000080FF
(1612340765.312466) can1 37A#80068B0000000100
(1612340765.312470) can1 5E1#0C000E6D0E690E6A
(1612340765.312474) can0 3F0#0000000000000000
(1612340765.312477) can1 3D6#903FC00CB0002019
(1612340765.320441) can1 385#0B108200025D8A34
(1612340765.320446) can1 376#80A53300000080FF
(1612340765.320449) can1 37A#80068B0000000100
(1612340765.320453) can1 39D#0F008282983E8000
(1612340765.328465) can0 3BA#0000000000000000
(1612340765.328468) can0 3C0#00000C127FFF4401
(1612340765.328471) can0 3CA#802580250CC8806B
(1612340765.328474) can0 33A#0006000000000000
(1612340765.336427) can0 360#00000000002400F8
(1612340765.336431) can0 340#0004000000000000
(1612340765.336434) can0 380#80727E03E8FFFF7F
(1612340765.336437) can0 39E#05817F0000000000
(1612340765.344294) can1 324#CB400000B60017D0
(1612340765.344298) can0 316#81500AF07B160200
(1612340765.344301) can1 32C#00D24D305D000071
(1612340765.344305) can0 3F0#0000000000000000
(1612340765.352291) can1 376#80953300000080FF
(1612340765.352295) can1 37A#80068B0000000100
(1612340765.352298) can1 633#0C08AA3000200E00
(1612340765.352301) can1 3D6#903FC00CB0002019
(1612340765.360261) can1 385#0B108200025D8A34
(1612340765.360266) can1 376#80953300000080FF
(1612340765.360270) can1 37A#80068B0000000100
(1612340765.360274) can0 3BA#0000000000000000
(1612340765.368248) can0 3C0#00000C127FFF4401
(1612340765.368254) can0 3C5#96D0000000000000
(1612340765.368257) can0 3C9#FFFFFFFFFFFFFFFF
(1612340765.368263) can1 641#000054AB03140518
(1612340765.376288) can0 354#50CD000000000000
(1612340765.376292) can1 642#0000000000000000
(1612340765.376295) can0 360#0000000000240034
(1612340765.376298) can0 39E#05817F0000000000
(1612340765.384290) can1 324#8C400000C60017D0
(1612340765.384294) can0 316#81500AF07AFD0200
(1612340765.384297) can1 32C#00D24D305D000072
(1612340765.384315) can0 3F0#0000000000000000
(1612340765.392309) can0 39E#05817F0000000000
(1612340765.392314) can1 324#8C400000C60017D0
(1612340765.392317) can0 316#81500AF07AFD0200
(1612340765.392320) can1 3D6#903FC00CB0002019
(1612340765.400260) can1 385#0B108200025D8A34
(1612340765.400266) can0 39E#05817F0000000000
(1612340765.400269) can1 324#8D400000D60017D0
(1612340765.400273) can0 3BA#0000000000000000
(1612340765.408326) can0 3C0#00000C127FFF4401
(1612340765.408330) can0 3CA#802280220CB0806B
(1612340765.408333) can0 450#0000001000000000
(1612340765.408337) can1 5E2#10000E750E6C0E74
(1612340765.416315) can0 354#50CD000000000000
(1612340765.416320) can1 633#0C08A63000200E00
(1612340765.416323) can0 360#0000000000240070
(1612340765.416327) can0 39E#05817F0000000000
(1612340765.424301) can1 324#6D400000D60017D0
(1612340765.424305) can0 316#81500AF07AFE0200
(1612340765.424308) can1 32C#00D24D305D000072
(1612340765.424311) can0 52E#6D282F1000000000
(1612340765.432263) can0 3F0#0000000000000000
(1612340765.432269) can0 431#33FCE301004293B1
(1612340765.432273) can0 462#0770600000020000
(1612340765.432277) can1 3D6#903FC00CB0002019
(1612340765.440263) can1 385#0B108200025D8A34
(1612340765.440268) can0 39E#05817F0000000000
(1612340765.440273) can1 324#4E400000E60017D0
(1612340765.440277) can1 39D#0F008282983E8000
(1612340765.448260) can0 3BA#0000000000000000
(1612340765.448263) can0 3C0#00000C127FFF4401
(1612340765.448266) can0 3CA#800F800F0CB7806B
(1612340765.448269) can0 350#01FFAFEF00007F00
(1612340765.456272) can1 634#04000083555D591B
(1612340765.456278) can0 354#50CD000000000000
(1612340765.456282) can1 641#010000001612090D
(1612340765.456286) can0 39E#05817F0000000000
(1612340765.464489) can1 324#4F400000F60017D0
(1612340765.464493) can0 316#81500AF07A820200
(1612340765.464496) can1 32C#00D24D305D000072
(1612340765.464500) can0 3F0#0000000000000000
(1612340765.472267) can0 39E#05817F0000000000
(1612340765.472272) can1 324#2F400000F60017D0
(1612340765.472275) can0 316#81500AF07A820200
(1612340765.472277) can1 3D6#903FC00CB0002019
(1612340765.480499) can1 385#0B108200025D8A34
(1612340765.480504) can0 39E#05817F0000000000
(1612340765.480507) can1 324#2F400000F60017D0
(1612340765.480510) can0 3BA#0000000000000000
(1612340765.488328) can0 3C0#00000C127FFF4401
(1612340765.488334) can0 3CA#800F800F0CB5806B
(1612340765.488338) can0 39A#20FC000BB1000000
(1612340765.488344) can1 37A#80068B0000000100
(1612340765.496551) can0 354#50CD000000000000
(1612340765.496556) can1 633#0C08AB3000200E00
(1612340765.496558) can0 360#00000000002400F8
(1612340765.496561) can0 39E#05817F0000000000
(1612340765.504396) can1 324#00400000060017D0
(1612340765.504404) can0 316#81500AF07A820200
(1612340765.504408) can1 32C#00D24D305D000071
(1612340765.504412) can0 3F0#0000000000000000
(1612340765.512348) can0 39E#05817F0000000000
(1612340765.512354) can1 324#00400000060017D0
(1612340765.512357) can0 316#81500AF07A820200
(1612340765.512362) can1 3D6#903FC00CB0002019
(1612340765.520408) can1 385#0B108200025D8A34
(1612340765.520415) can0 39E#05817F0000000000
(1612340765.520419) can1 324#01400000160017D0
(1612340765.520423) can0 3BA#0000000000000000
(1612340765.528382) can1 376#80653500000080FF
(1612340765.528388) can0 3C0#00000C127FFF4401
(1612340765.528392) can1 37A#80068B0000000100
(1612340765.528397) can0 33A#0006000000000000
(1612340765.536341) can0 360#0000000000240034
(1612340765.536346) can0 340#0004000000000000
(1612340765.536350) can0 380#80727E03E8FFFF7F
(1612340765.536354) can0 39E#05817F0000000000
(1612340765.544354) can1 324#E1400000160017D0
(1612340765.544359) can0 316#81500AF07AB30200
(1612340765.544364) can1 32C#00D24D305D000073
(1612340765.544368) can0 3F0#0000000000000000
(1612340765.552271) can0 39E#05817F0000000000
(1612340765.552276) can1 324#E2400000260017D0
(1612340765.552279) can0 316#81500AF07AB30200
(1612340765.552281) can1 3D6#903FC00CB0002019
(1612340765.560291) can1 385#0B108200025D8A34
(1612340765.560297) can0 39E#05817F0000000000
(1612340765.560302) can1 324#C2400000260017D0
(1612340765.560305) can1 37A#80068B0000000100
(1612340765.568287) can0 3BA#0000000000000000
(1612340765.568293) can1 39C#800080007FF98001
(1612340765.568297) can0 3C0#00000C127FFF4401
(1612340765.568301) can0 354#50CD000000000000
(1612340765.576291) can0 360#0000000000240070
(1612340765.576298) can0 380#80727E03E8FFFF7F
(1612340765.576303) can0 38A#0000000000000076
(1612340765.576306) can0 39E#05817F0000000000
(1612340765.584283) can1 324#C3400000360017D0
(1612340765.584288) can0 316#81500AF07A820200
(1612340765.584291) can1 32C#00D24D305D000072
(1612340765.584294) can0 3F0#0000000000000000
(1612340765.592323) can0 39E#05817F0000000000
(1612340765.592328) can1 324#A3400000360017D0
(1612340765.592330) can0 316#81500AF07A820200
(1612340765.592334) can1 642#0110100000000000
(1612340765.600325) can1 3D6#903FC00CB0002019
(1612340765.600329) can1 385#0C108200025D8A34
(1612340765.600332) can0 39E#05817F0000000000
(1612340765.600335) can1 37F#65F135060F010000
(1612340765.608352) can0 3BA#0000000000000000
(1612340765.608356) can1 429#423D878F00000098
(1612340765.608359) can0 3C0#00000C127FFF4401
(1612340765.608362) can0 354#50CD000000000000
(1612340765.616339) can0 360#00000000002400BC
(1612340765.616343) can0 380#80737E03E8FFFF7F
(1612340765.616346) can0 38A#00000000000000B2
(1612340765.616349) can0 39E#05817F0000000000
(1612340765.624338) can1 324#84400000460017D0
(1612340765.624342) can0 316#81500AF07A820200
(1612340765.624345) can1 32C#00D24D305D000073
(1612340765.624348) can0 52E#6D282F1000000000
(1612340765.632339) can0 3F0#0000000000000000
(1612340765.632342) can0 431#33FCE301004293B1
(1612340765.632345) can0 462#0770600000020000
(1612340765.632349) can1 642#050312090E1F9F00
(1612340765.640336) can1 643#0000040000000000
(1612340765.640340) can1 3D6#903FC00CB0002019
(1612340765.640343) can1 385#0C108200025D8A34
(1612340765.640347) can0 3BA#0000000000000000
(1612340765.648343) can0 3C0#00000C127FFF4401
(1612340765.648347) can0 3CA#800F800F0CBC8074
(1612340765.648350) can0 530#0000000000000008
(1612340765.648353) can0 354#50CD000000000000
(1612340765.656344) can0 360#00000000002400F8
(1612340765.656348) can0 380#80737E03E8FFFF7F
(1612340765.656351) can0 38A#00000000000000FE
(1612340765.656353) can0 39E#05817F0000000000
(1612340765.664299) can1 324#65400000560017D0
(1612340765.664303) can0 316#81500AF07ACD0200
(1612340765.664306) can1 32C#00D24D305D000072
(1612340765.664310) can0 3F0#0000000000000000
(1612340765.672329) can0 39E#05817F0000000000
(1612340765.672334) can1 324#66400000660017D0
(1612340765.672337) can0 316#81500AF07ACD0200
(1612340765.672340) can1 3D6#903FC00CB0002019
(1612340765.680293) can1 385#0B108200025D8A34
(1612340765.680322) can0 39E#05817F0000000000
(1612340765.680326) can1 324#46400000660017D0
(1612340765.680329) can1 39D#0F008282983E8000
(1612340765.688314) can0 3BA#0000000000000000
(1612340765.688318) can0 3C0#00000C127FFF4401
(1612340765.688321) can0 401#00007F0620000000
(1612340765.688325) can0 354#50CD000000000000
(1612340765.696485) can0 360#0000000000240034
(1612340765.696489) can0 380#80737E03E8FFFF7F
(1612340765.696492) can0 38A#000000000000003A
(1612340765.696495) can0 39E#05817F0000000000
(1612340765.704310) can1 324#47400000760017D0
(1612340765.704316) can0 316#81500AF07ACC0200
(1612340765.704320) can1 32C#00D24D305D000073
(1612340765.704324) can0 3F0#0000000000000000
(1612340765.712344) can0 39E#05817F0000000000
(1612340765.712349) can1 324#27400000760017D0
(1612340765.712352) can0 316#81500AF07ACC0200
(1612340765.712355) can1 634#04000083555D591B
(1612340765.720312) can1 641#066DEF6DEE6F8100
(1612340765.720319) can1 3D6#903FC00CB1002019
(1612340765.720323) can1 642#0602011B09201600
(1612340765.720327) can0 3BA#0000000000000000
(1612340765.728344) can0 3C0#00000C127FFF4401
(1612340765.728348) can0 3CA#800C800C0CB2806B
(1612340765.728351) can1 376#80353400000080FF
(1612340765.728354) can0 33A#0006000000000000
(1612340765.736315) can0 350#01FFAFEF00007F00
(1612340765.736319) can0 340#0004000000000000
(1612340765.736322) can0 360#0000000000240070
(1612340765.736325) can0 39E#05817F0000000000
(1612340765.744303) can1 324#08400000860017D0
(1612340765.744308) can0 316#81500AF07A690200
(1612340765.744311) can1 32C#00D24D305D000072
(1612340765.744313) can1 642#02301845FB000000
(1612340765.752312) can0 5E1#1C000E6B0E740E73
(1612340765.752327) can1 644#0000000000000000
(1612340765.752334) can0 5E2#1C000E5A0E590E4C
(1612340765.752337) can1 3D6#903FC00CB1002019
(1612340765.760310) can1 385#0B108200025D8A34
(1612340765.760315) can1 376#80353600000080FF
(1612340765.760319) can1 37A#80068B0000000100
(1612340765.760324) can0 3BA#0000000000000000
(1612340765.768381) can0 3C0#00000C127FFF4401
(1612340765.768386) can0 3C5#96D0000000000000
(1612340765.768390) can0 3C9#FFFFFFFFFFFFFFFF
(1612340765.768394) can0 350#01FFAFEF00007F00
(1612340765.776394) can0 360#00000000002400BC
(1612340765.776401) can0 380#80727E03EDFFFF7D
(1612340765.776404) can0 38A#00000000000000B2
(1612340765.776408) can0 39E#05817F0000000000
(1612340765.784419) can1 324#E9400000960017D0
(1612340765.784425) can0 316#81500AF07A690200
(1612340765.784431) can1 32C#00D24D305D000073
(1612340765.784434) can1 633#0C08A93000200E00
(1612340765.792469) can1 634#04000083555D591B
(1612340765.792475) can1 641#066DEF6DEE6F8100
(1612340765.792478) can1 642#0602011B09201600
(1612340765.792482) can1 3D6#903FC00CB1002019
(1612340765.800437) can1 385#0B108200025D8A34
(1612340765.800443) can1 376#80953600000080FF
(1612340765.800448) can1 371#B3BFC6BA3FFC65C8
(1612340765.800452) can1 39D#0F008282983E8000
(1612340765.808615) can0 3BA#0000000000000000
(1612340765.808621) can0 3C0#00000C127FFF4401
(1612340765.808625) can0 3CA#802280220CB7806B
(1612340765.808631) can0 350#01FFAFEF00007F00
(1612340765.816401) can0 360#00000000002400F8
(1612340765.816407) can0 380#80727E03E8FFFF7F
(1612340765.816410) can0 38A#00000000000000FE
(1612340765.816415) can0 39E#05817F0000000000
(1612340765.824621) can1 324#CB400000B60017D0
(1612340765.824628) can0 316#81500AF07AFE0200
(1612340765.824650) can1 32C#00D24D305D000072
(1612340765.824655) can1 633#0C08AB3000200E00
(1612340765.832614) can0 52E#6D282F1000000000
(1612340765.832621) can1 634#04000083555D591B
(1612340765.832626) can1 641#0300000000000000
(1612340765.832629) can1 3D6#903FC00CB1002019
(1612340765.840405) can1 385#0B108200025D8A34
(1612340765.840409) can1 376#80953A00000080FF
(1612340765.840412) can1 37A#80068B0000000100
(1612340765.840415) can0 3BA#0000000000000000
(1612340765.848397) can0 3C0#00000C127FFF4401
(1612340765.848400) can0 3CA#802280220CC1806B
(1612340765.848403) can0 530#0000000000000008
(1612340765.848407) can0 350#01FFAFEF00007F00
(1612340765.856406) can0 360#0000000000240034
(1612340765.856410) can0 380#80727E03E8FFFF7F
(1612340765.856413) can0 38A#000000000000003A
(1612340765.856416) can0 39E#05817F0000000000
(1612340765.864402) can1 324#8C400000C60017D0
(1612340765.864407) can0 316#81500AF07ACD0200
(1612340765.864410) can1 32C#00D24D305D000073
(1612340765.864413) can1 641#000054AB03140518
(1612340765.872402) can1 642#0000000000000000
(1612340765.872407) can0 3F0#0000000000000000
(1612340765.872410) can0 39E#05817F0000000000
(1612340765.872414) can1 3D6#903FC00CB1002019
(1612340765.880411) can1 385#0B108200025D8A34
(1612340765.880415) can1 376#80753A00000080FF
(1612340765.880418) can1 37A#80068B0000000100
(1612340765.880422) can0 3BA#0000000000000000
(1612340765.888410) can0 3C0#00000C127FFF4401
(1612340765.888414) can0 401#00007F0620000000
(1612340765.888417) can0 3CA#801A801A0CC1806B
(1612340765.888419) can0 350#01FFAFEF00007F00
(1612340765.896569) can0 360#0000000000240070
(1612340765.896573) can0 380#80737E03E8FFFF7F
(1612340765.896576) can0 38A#0000000000000076
(1612340765.896581) can0 39E#05817F0000000000
(1612340765.904511) can1 324#6D400000D60017D0
(1612340765.904515) can0 316#81500AF07ACC0200
(1612340765.904518) can1 32C#00D24D305D000072
(1612340765.904521) can1 575#00000C1C00000C1C
(1612340765.912569) can1 633#0C08AB3000200E00
(1612340765.912573) can1 634#04000083555D591B
(1612340765.912576) can1 641#040001007D7DA5A5
(1612340765.912579) can1 3D6#903FC00CB0002019
(1612340765.920570) can1 385#0B108200025D8A34
(1612340765.920574) can1 376#80953400000080FF
(1612340765.920577) can1 37A#80068B0000000100
(1612340765.920581) can1 39D#0F008282983E8000
(1612340765.928392) can0 3BA#0000000000000000
(1612340765.928396) can0 3C0#00000C1C7FFF4401
(1612340765.928399) can0 3CA#801A801A0CB2806B
(1612340765.928402) can0 33A#0006000000000000
(1612340765.936623) can0 350#01FFAFEF00007F00
(1612340765.936628) can0 340#0004000000000000
(1612340765.936633) can0 360#00000000002400BC
(1612340765.936637) can0 39E#05817F0000000000
(1612340765.944650) can1 324#4F400000F60017D0
(1612340765.944655) can0 316#81500AF07AFE0200
(1612340765.944661) can1 32C#00D24D305D000071
(1612340765.944666) can1 641#010000001612090D
(1612340765.952616) can0 71A#0006000000000000
(1612340765.952624) can1 642#0110100000000000
(1612340765.952630) can1 644#0000000000000000
(1612340765.952635) can1 3D6#903FC00CB0002019
(1612340765.960431) can1 385#0B108200025D8A34
(1612340765.960438) can1 376#80953500000080FF
(1612340765.960442) can1 37A#80068B0000000100
(1612340765.960446) can0 3BA#0000000000000000
(1612340765.968483) can0 3C0#00000C1C7FFF4401
(1612340765.968488) can0 3C5#96D0000000000000
(1612340765.968492) can0 3C9#FFFFFFFFFFFFFFFF
(1612340765.968513) can0 350#01FFAFEF00007F00
(1612340765.976658) can0 360#00000000002400F8
(1612340765.976665) can0 380#80737E03E8FFFF7F
(1612340765.976668) can0 38A#00000000000000FE
(1612340765.976674) can0 39E#05817F0000000000
(1612340765.984351) can1 324#00400000060017D0
(1612340765.984356) can0 316#81500AF07AFE0200
(1612340765.984359) can1 32C#00D24D305D000072
(1612340765.984362) can1 641#050B0A0500000000
(1612340765.992392) can1 642#050312090E1F9F00
(1612340765.992396) can0 3F0#0000000000000000
(1612340765.992399) can0 39E#05817F0000000000
(1612340765.992402) can1 3D6#903FC00CB0002019
(1612340766.000380) can1 385#0B108200025D8A34
(1612340766.000385) can1 376#80953500000080FF
(1612340766.000390) can1 371#B3BFC6BA3FFC65A8
(1612340766.000394) can0 3BA#0000000000000000
(1612340766.008431) can0 3C0#00000C1C7FFF4401
(1612340766.008435) can0 3CA#802280220CB5806B
(1612340766.008438) can0 450#0000001000000000
(1612340766.008440) can0 350#01FFAFEF00007F00
(1612340766.016362) can0 360#0000000000240034
(1612340766.016368) can0 380#80727E03E8FFFF7F
(1612340766.016371) can0 38A#000000000000003A
(1612340766.016374) can0 39E#05817F0000000000
(1612340766.024599) can1 324#E1400000160017D0
(1612340766.024604) can0 316#81500AF07AFE0200
(1612340766.024607) can1 32C#00D24D305D000072
(1612340766.024611) can1 5E4#08000E720E760E77
(1612340766.032592) can0 52E#6D282F1000000000
(1612340766.032597) can1 633#0C08A93000200E00
(1612340766.032601) can1 634#04000083555D591B
(1612340766.032604) can1 3D6#903FC00CB0002019
(1612340766.040360) can1 385#0B108200025D8A34
(1612340766.040363) can1 376#80953300000080FF
(1612340766.040366) can1 37A#80068B0000000100
(1612340766.040369) can1 39D#0F008282983E8000
(1612340766.048360) can0 3BA#0000000000000000
(1612340766.048364) can0 3C0#00000C1C7FFF4401
(1612340766.048368) can0 3CA#802280220CB0806B
(1612340766.048371) can0 350#01FFAFEF00007F00
(1612340766.056373) can0 360#0000000000240070
(1612340766.056378) can0 380#80727E03E8FFFF7F
(1612340766.056382) can0 38A#0000000000000076
(1612340766.056386) can0 39E#05817F0000000000
(1612340766.064404) can1 324#C3400000360017D0
(1612340766.064409) can0 316#81500AF07AFD0200
(1612340766.064412) can1 32C#00D24D305D000073
(1612340766.064415) can1 634#04000083555D591B
(1612340766.072366) can1 641#066DEF6DEE6F8000
(1612340766.072370) can1 642#0602011B09201600
(1612340766.072373) can0 3F0#0000000000000000
(1612340766.072376) can1 3D6#903FC00CB0002019
(1612340766.080406) can1 385#0B108200025D8A34
(1612340766.080410) can1 376#80953300000080FF
(1612340766.080414) can1 37A#80068B0000000100
(1612340766.080417) can0 39F#00040004000000D8
(1612340766.088407) can0 3BA#0000000000000000
(1612340766.088410) can0 3C0#00000C1C7FFF4401
(1612340766.088413) can0 3CA#802280220CB0806B
(1612340766.088416) can0 350#01FFAFEF00007F00
(1612340766.096402) can0 360#00000000002400BC
(1612340766.096406) can0 380#80737E03E8FFFF7F
(1612340766.096409) can0 38A#00000000000000B2
(1612340766.096412) can1 634#04000083555D591B
(1612340766.104365) can0 39E#05817F0000000000
(1612340766.104370) can1 641#02001B0149000000
(1612340766.104373) can0 316#81500AF07AFD0200
(1612340766.104376) can0 3F0#0000000000000000
(1612340766.112550) can1 376#80953400000080FF
(1612340766.112553) can1 37A#80068B0000000100
(1612340766.112557) can0 39E#05817F0000000000
(1612340766.112560) can1 3D6#903FC00CB0002019
(1612340766.120376) can1 385#0B108200025D8A34
(1612340766.120381) can1 376#80953400000080FF
(1612340766.120385) can1 37A#80068B0000000100
(1612340766.120390) can0 3BA#0000000000000000
(1612340766.128613) can0 3C0#00000C1C7FFF4401
(1612340766.128617) can0 3CA#802280220CB2806B
(1612340766.128621) can0 39A#20FC000BB1000000
(1612340766.128624) can0 33A#0006000000000000
(1612340766.136448) can0 350#01FFAFEF00007F00
(1612340766.136451) can0 340#0004000000000000
(1612340766.136454) can0 360#00000000002400F8
(1612340766.136457) can0 39E#05817F0000000000
(1612340766.144608) can1 634#04000083555D591B
(1612340766.144613) can0 316#81500AF07AFE0200
(1612340766.144616) can1 324#65400000560017D0
(1612340766.144619) can0 3F0#0000000000000000
(1612340766.152588) can0 39E#05817F0000000000
(1612340766.152592) can1 376#80953400000080FF
(1612340766.152596) can0 316#81500AF07AFE0200
(1612340766.152599) can1 3D6#903FC00CB0002019
(1612340766.160614) can1 385#0B108200025D8A34
(1612340766.160618) can1 376#80953400000080FF
(1612340766.160621) can1 37A#80068B0000000100
(1612340766.160623) can1 39D#0F008282983E8000
(1612340766.168567) can0 3BA#0000000000000000
(1612340766.168570) can0 3C0#00000C1C7FFF4401
(1612340766.168573) can0 3C5#96D0000000000000
(1612340766.168576) can0 350#01FFAFEF00007F00
(1612340766.176613) can0 360#0000000000240034
(1612340766.176617) can0 380#80737E03E3FFFF7F
(1612340766.176621) can0 38A#000000000000003A
(1612340766.176624) can1 633#0C08A93000200E00
(1612340766.184547) can0 39E#05817F0000000000
(1612340766.184552) can1 634#04000083555D591B
(1612340766.184554) can0 316#81500AF07AFD0200
(1612340766.184557) can0 3F0#0000000000000000
(1612340766.192619) can1 376#80953300000080FF
(1612340766.192623) can1 37A#80068B0000000100
(1612340766.192625) can1 633#0C08AB3000200E00
(1612340766.192628) can1 3D6#903FC00CB0002019
(1612340766.200399) can1 385#0B108200025D8A34
(1612340766.200404) can1 376#80953300000080FF
(1612340766.200412) can1 371#B3BFC6BA3FFC6580
(1612340766.200417) can0 3BA#0000000000000000
(1612340766.208609) can0 3C0#00000C1C7FFF4401
(1612340766.208613) can0 3CA#802280220CB0806B
(1612340766.208616) can0 450#0000001000000000
(1612340766.208619) can0 3C0#00000C1C7FFF4401
(1612340766.216465) can0 350#01FFAFEF00007F00
(1612340766.216469) can0 360#0000000000240070
(1612340766.216472) can0 380#80727E03E3FFFF7F
(1612340766.216476) can1 5E1#10000E720E660E71
(1612340766.224624) can0 39E#05817F0000000000
(1612340766.224629) can1 5E2#10000E750E690E74
(1612340766.224633) can0 316#81500AF07A810200
(1612340766.224636) can0 52E#6D282F1000000000
(1612340766.232388) can0 3F0#0000000000000000
(1612340766.232392) can0 431#33FCE301004293B1
(1612340766.232395) can0 462#0770600000020000
(1612340766.232398) can1 3D6#903FC00CB0002019
(1612340766.240634) can1 385#0B108200025D8A34
(1612340766.240639) can1 376#80453300000080FF
(1612340766.240642) can1 37A#80068B0000000100
(1612340766.240647) can0 3BA#0000000000000000
(1612340766.248593) can0 3C0#00000C1C7FFF4401
(1612340766.248597) can0 3CA#800F800F0CB0806B
(1612340766.248601) can0 530#0000000000000008
(1612340766.248604) can0 3C0#00000C1C7FFF4401
(1612340766.256617) can0 350#01FFAFEF00007F00
(1612340766.256621) can0 360#00000000002400BC
(1612340766.256624) can0 380#80727E03E8FFFF7F
(1612340766.256627) can0 39E#05817F0000000000
(1612340766.264639) can1 376#80453200000080FF
(1612340766.264658) can0 316#81500AF07A810200
(1612340766.264661) can1 324#E9400000960017D0
(1612340766.264664) can0 3F0#0000000000000000
(1612340766.272628) can1 376#80453200000080FF
(1612340766.272632) can1 37A#80068B0000000100
(1612340766.272637) can0 39E#05817F0000000000
(1612340766.272639) can1 3D6#903FC00CB0002019
(1612340766.280437) can1 385#0B108200025D8A34
(1612340766.280441) can1 376#80953200000080FF
(1612340766.280444) can1 37A#80068B0000000100
(1612340766.280447) can1 39D#0F008282983E8000
(1612340766.288473) can0 39F#000400040000007E
(1612340766.288477) can0 3BA#0000000000000000
(1612340766.288480) can0 3C0#00000C1C7FFF4401
(1612340766.288483) can0 350#01FFAFEF00007F00
(1612340766.296649) can0 360#00000000002400F8
(1612340766.296652) can0 380#80727E03E8FFFF7F
(1612340766.296656) can0 38A#00000000000000FE
(1612340766.296659) can0 39E#05817F0000000000
(1612340766.304601) can1 374#0E770DFD27360CB1
(1612340766.304605) can0 316#81500AF07AFD0200
(1612340766.304608) can1 324#CB400000B60017D0
(1612340766.304611) can0 3F0#0000000000000000
(1612340766.312625) can1 376#80953200000080FF
(1612340766.312629) can1 37A#80068B0000000100
(1612340766.312632) can0 39E#05817F0000000000
(1612340766.312635) can1 3D6#903FC00CB0002019
(1612340766.320620) can1 385#0B108200025D8A34
(1612340766.320624) can1 376#80953700000080FF
(1612340766.320628) can1 37A#80068B0000000100
(1612340766.320631) can0 3BA#0000000000000000
(1612340766.328633) can0 3C0#00000C1C7FFF4401
(1612340766.328638) can0 3CA#802280220CAD806B
(1612340766.328641) can0 39A#20FC000BF5000000
(1612340766.328644) can1 642#04FF00000BB60043
(1612340766.336634) can0 33A#0006000000000000
(1612340766.336638) can0 350#01FFAFEF00007F00
(1612340766.336641) can0 340#0004000000000000
(1612340766.336644) can0 39E#05817F0000000000
(1612340766.344651) can1 5E5#503D3D3D3DFFFFFF
(1612340766.344656) can0 316#81500AF07AFE0200
(1612340766.344660) can1 324#8C400000C60017D0
(1612340766.344663) can0 3F0#0000000000000000
(1612340766.352620) can1 376#80953700000080FF
(1612340766.352624) can1 37A#80068B0000000100
(1612340766.352628) can0 39E#05817F0000000000
(1612340766.352631) can1 3D6#903FC00CB0002019
(1612340766.360656) can1 385#0B108200025D8A34
(1612340766.360660) can1 376#80953700000080FF
(1612340766.360663) can1 37A#80068B0000000100
(1612340766.360667) can0 3BA#0000000000000000
(1612340766.368612) can0 3C0#00000C1C7FFF4401
(1612340766.368616) can0 3C5#96D0000000000000
(1612340766.368620) can0 3C9#FFFFFFFFFFFFFFFF
(1612340766.368624) can1 641#010000001612090D
(1612340766.376662) can0 350#01FFAFEF00007F00
(1612340766.376666) can1 642#0110100000000000
(1612340766.376669) can0 360#0000000000240070
(1612340766.376672) can0 401#00007F0620000000
(1612340766.384488) can1 37A#80068B0000000100
(1612340766.384495) can0 39E#05817F0000000000
(1612340766.384499) can1 633#0C08AA3000200E00
(1612340766.384504) can0 3F0#0000000000000000
(1612340766.392418) can1 376#80953A00000080FF
(1612340766.392424) can1 37A#80068B0000000100
(1612340766.392429) can0 39E#05817F0000000000
(1612340766.392433) can1 3D6#903FC00CB0002019
(1612340766.400417) can1 385#0B108200025D8A34
(1612340766.400421) can1 376#80953A00000080FF
(1612340766.400425) can1 371#B3BFC6BA3FFC6618
(1612340766.400428) can1 39D#0F008282983E8000
(1612340766.408410) can0 3BA#0000000000000000
(1612340766.408415) can0 3C0#00000C1C7FFF4401
(1612340766.408431) can0 3CA#802280220CC1806B
(1612340766.408434) can1 641#050B0A0500000000
(1612340766.416416) can0 3C5#96D0000000000000
(1612340766.416420) can1 642#050312090E1F9F00
(1612340766.416424) can0 350#01FFAFEF00007F00
(1612340766.416427) can0 39E#05817F0000000000
(1612340766.424420) can1 37A#80068B0000000100
(1612340766.424426) can0 316#81500AF07AFF0200
(1612340766.424430) can1 324#4F400000F60017D0
(1612340766.424434) can0 52E#6D282F1000000000
(1612340766.432484) can0 3F0#0000000000000000
(1612340766.432487) can0 431#33FCE301004293B1
(1612340766.432490) can0 462#0770600000020000
(1612340766.432493) can1 3D6#903FC00CB0002019
(1612340766.440668) can1 385#0B108200025D8A34
(1612340766.440672) can1 376#80A53A00000080FF
(1612340766.440676) can1 37A#80068B0000000100
(1612340766.440679) can0 3BA#0000000000000000
(1612340766.448620) can0 3C0#00000C1C7FFF4401
(1612340766.448624) can0 3CA#802580250CC1806B
(1612340766.448627) can0 530#0000000000000008
(1612340766.448630) can1 644#0000000000000000
(1612340766.456670) can0 3C0#00000C1C7FFF4401
(1612340766.456674) can0 350#01FFAFEF00007F00
(1612340766.456677) can0 360#00000000002400F8
(1612340766.456680) can0 39E#05817F0000000000
(1612340766.464665) can1 324#00400000060017D0
(1612340766.464670) can0 316#81500AF07B180200
(1612340766.464674) can1 32C#00D24D305D000072
(1612340766.464677) can0 3F0#0000000000000000
(1612340766.472631) can0 39E#05817F0000000000
(1612340766.472636) can1 324#00400000060017D0
(1612340766.472638) can0 316#81500AF07B180200
(1612340766.472641) can1 3D6#903FC00CB0002019
(1612340766.480668) can1 385#0B108200025D8A34
(1612340766.480672) can0 401#00007F0620000000
(1612340766.480675) can0 39E#05817F0000000000
(1612340766.480678) can0 39F#0004000400000014
(1612340766.488727) can0 3C0#00000C1C7FFF4401
(1612340766.488733) can0 3CA#802580250CB5806B
(1612340766.488738) can0 39A#20FC000BF5000000
(1612340766.488743) can1 633#0C08A73000200E00
(1612340766.496743) can0 3C0#00000C1C7FFF4401
(1612340766.496751) can1 634#04000083555D591B
(1612340766.496754) can0 350#01FFAFEF00007F00
(1612340766.496759) can0 39E#05817F0000000000
(1612340766.504524) can1 324#E1400000160017D0
(1612340766.504530) can0 316#81500AF07B170200
(1612340766.504533) can1 32C#00D24D305D000073
(1612340766.504537) can0 3F0#0000000000000000
(1612340766.512503) can0 39E#05817F0000000000
(1612340766.512509) can1 324#E2400000260017D0
(1612340766.512513) can0 316#81500AF07B170200
(1612340766.512517) can1 3D6#903FC00CB0002019
(1612340766.520517) can1 385#0B108200025D8A34
(1612340766.520522) can0 39E#05817F0000000000
(1612340766.520526) can1 324#C2400000260017D0
(1612340766.520530) can1 39D#0F008282983E8000
(1612340766.528518) can0 39F#0004000400000032
(1612340766.528524) can0 3C0#00000C1C7FFF4401
(1612340766.528528) can0 3CA#802280220CB5806B
(1612340766.528533) can1 633#0C08A93000200E00
(1612340766.536510) can0 33A#0006000000000000
(1612340766.536516) can1 634#04000083555D591B
(1612340766.536521) can0 350#01FFAFEF00007F00
(1612340766.536525) can0 39E#05817F0000000000
(1612340766.544517) can1 324#C3400000360017D0
(1612340766.544522) can0 316#81500AF07AFE0200
(1612340766.544528) can1 32C#00D24D305D000072
(1612340766.544532) can0 3F0#0000000000000000
(1612340766.552509) can0 39E#05817F0000000000
(1612340766.552515) can1 324#A3400000360017D0
(1612340766.552519) can0 316#81500AF07AFE0200
(1612340766.552537) can1 3D6#903FC00CB0002019
(1612340766.560450) can1 385#0B108200025D8A34
(1612340766.560457) can0 39E#05817F0000000000
(1612340766.560460) can1 324#A3400000360017D0
(1612340766.560463) can0 396#00040004AD000059
(1612340766.568446) can0 39F#0004000400000050
(1612340766.568451) can0 3C0#00000C1C7FFF4401
(1612340766.568457) can0 3C9#FFFFFFFFFFFFFFFF
(1612340766.568462) can1 641#000054AB03140518
(1612340766.576442) can0 3C0#00000C1C7FFF4401
(1612340766.576446) can1 642#0000000000000000
(1612340766.576449) can0 350#01FFAFEF00007F00
(1612340766.576452) can0 39E#05817F0000000000
(1612340766.584447) can1 324#84400000460017D0
(1612340766.584452) can0 316#81500AF07AFE0200
(1612340766.584456) can1 32C#00D24D305D000072
(1612340766.584460) can0 3F0#0000000000000000
(1612340766.592444) can0 39E#05817F0000000000
(1612340766.592448) can1 324#84400000460017D0
(1612340766.592452) can0 316#81500AF07AFE0200
(1612340766.592455) can1 3D6#903FC00CB0002019
(1612340766.600453) can1 385#0B108200025D8A34
(1612340766.600459) can0 39E#05817F0000000000
(1612340766.600463) can1 324#85400000560017D0
(1612340766.600467) can0 39F#000400040000007E
(1612340766.608471) can0 3C0#00000C1C7FFF4401
(1612340766.608477) can0 3CA#800F800F0CB7806B
(1612340766.608481) can0 450#0000001000000000
(1612340766.608485) can0 3C9#FFFFFFFFFFFFFFFF
(1612340766.616471) can0 350#01FFAFEF00007F00
(1612340766.616476) can0 354#50CD000000000000
(1612340766.616481) can1 376#80453000000080FF
(1612340766.616485) can0 39E#05817F0000000000
(1612340766.624539) can1 324#65400000560017D0
(1612340766.624545) can0 316#81500AF07A820200
(1612340766.624549) can1 32C#00D24D305D000072
(1612340766.624555) can0 52E#6D282F1000000000
(1612340766.632500) can0 3F0#0000000000000000
(1612340766.632504) can0 431#33FCE301004293B1
(1612340766.632507) can0 462#0770600000020000
(1612340766.632510) can1 3D6#903FC00CB0002019
(1612340766.640495) can1 385#0B108200025D8A34
(1612340766.640499) can0 39E#05817F0000000000
(1612340766.640503) can1 324#46400000660017D0
(1612340766.640505) can1 39C#800080007FF98001
(1612340766.648460) can0 39F#000400040000009C
(1612340766.648464) can1 39D#0F008282983E8000
(1612340766.648467) can0 3C0#00000C1C7FFF4401
(1612340766.648470) can0 3C0#00000C1C7FFF4401
(1612340766.656498) can1 376#80553000000080FF
(1612340766.656503) can0 350#01FFAFEF00007F00
(1612340766.656506) can1 37A#80068B0000000100
(1612340766.656509) can0 39E#05817F0000000000
(1612340766.664501) can1 324#47400000760017D0
(1612340766.664505) can0 316#81500AF07A9A0200
(1612340766.664509) can1 32C#00D24D305D000072
(1612340766.664512) can0 3F0#0000000000000000
(1612340766.672503) can0 39E#05817F0000000000
(1612340766.672507) can1 324#27400000760017D0
(1612340766.672510) can0 316#81500AF07A9A0200
(1612340766.672513) can1 3D6#903FC00CB0002019
(1612340766.680566) can1 385#0B108200025D8A34
(1612340766.680573) can0 401#00007F0620000000
(1612340766.680576) can0 39E#05817F0000000000
(1612340766.680580) can0 39F#00040004000000BA
(1612340766.688470) can0 3C0#00000C1C7FFF4401
(1612340766.688474) can0 3CA#801380130CA8806B
(1612340766.688478) can0 39A#20FC000B39000000
(1612340766.688481) can0 3C0#00000C1C7FFF4401
(1612340766.696515) can1 376#80553300000080FF
(1612340766.696519) can0 350#01FFAFEF00007F00
(1612340766.696522) can1 37A#80068B0000000100
(1612340766.696525) can0 39E#05817F0000000000
(1612340766.704464) can1 324#08400000860017D0
(1612340766.704469) can0 316#81500AF07A9A0200
(1612340766.704472) can1 32C#00D24D305D000071
(1612340766.704475) can0 3F0#0000000000000000
(1612340766.712517) can0 39E#05817F0000000000
(1612340766.712523) can1 324#08400000860017D0
(1612340766.712528) can0 316#81500AF07A9A0200
(1612340766.712532) can1 3D6#903FC00CB0002019
(1612340766.720696) can1 385#0B108200025D8A34
(1612340766.720701) can0 39E#05817F0000000000
(1612340766.720704) can1 324#09400000960017D0
(1612340766.720707) can0 39F#00040004000000D8
(1612340766.728716) can0 3C0#00000C1C7FFF4401
(1612340766.728720) can0 3CA#801380130CB0806B
(1612340766.728723) can0 39A#20FC000B7D000000
(1612340766.728726) can0 33A#0006000000000000
(1612340766.736696) can1 376#80553300000080FF
