(1612853199.050112) can0 33A#0006000000000000
(1612853199.050117) can0 340#0004000000000000
(1612853199.050120) can0 39A#20FB000B58000000
(1612853199.050124) can0 38A#000000000000001C
(1612853199.058147) can0 510#00000000270F0000
(1612853199.058151) can0 511#000027B400000000
(1612853199.058154) can0 51A#0000000000000000
(1612853199.058157) can1 600#0400000000000000
(1612853199.066189) can0 350#01FFAFFB00007F00
(1612853199.066194) can0 360#0000000000240025
(1612853199.066198) can0 380#80727E03E8FFFF7F
(1612853199.066203) can1 4AA#0100000000000000
(1612853199.074155) can1 4B2#0000000000000000
(1612853199.074160) can1 4F1#0000000000000000
(1612853199.074163) can1 519#0000000000000000
(1612853199.074168) can0 5E3#0C000E5C0E570E65
(1612853199.082159) can0 5E4#0C000E5F0E660E5E
(1612853199.082163) can0 5E5#303E3E413E3E3EFF
(1612853199.082166) can1 48A#4000000000000000
(1612853199.082170) can1 505#0B00A00000001000
(1612853199.090162) can0 39F#00040004000000AB
(1612853199.090169) can1 50C#0000000000000000
(1612853199.090172) can0 33A#0006000000000000
(1612853199.090175) can0 38A#0000000000000058
(1612853199.098139) can0 316#81500AF07A690200
(1612853199.098142) can0 39E#05817F0000000000
(1612853199.098145) can0 329#004000000000218B
(1612853199.098149) can1 600#0400000000000000
(1612853199.106282) can0 350#01FFAFFB00007F00
(1612853199.106286) can0 360#0000000000240061
(1612853199.106289) can0 380#80727E03E8FFFF7F
(1612853199.106291) can0 3C5#96D0000000000000
(1612853199.114296) can0 3C9#FFFFFFFFFFFFFFFF
(1612853199.114300) can1 600#0400000000000000
(1612853199.114303) can0 350#01FFAFEF00007F00
(1612853199.114306) can0 3BA#0000000000000000
(1612853199.122284) can1 600#0400000000000000
(1612853199.122293) can0 3A0#418001000000001E
(1612853199.122297) can0 350#01FFB01300007F00
(1612853199.122300) can0 335#0000000000000000
(1612853199.130148) can0 33A#0006000000000000
(1612853199.130163) can0 340#0004000000000000
(1612853199.130166) can0 39A#20FB000BD0000000
(1612853199.130169) can0 38A#0000000000000094
(1612853199.138281) can0 316#81500AF07A690200
(1612853199.138285) can0 39E#05817F0000000000
(1612853199.138288) can0 329#004000000000218B
(1612853199.138292) can1 600#0400000000000000
(1612853199.146278) can0 350#01FFAFFB00007F00
(1612853199.146282) can0 360#00000000002400AD
(1612853199.146285) can1 445#FF000B0000040001
(1612853199.146288) can1 461#87586C003EC20000
(1612853199.154272) can1 46A#646DFF00FF4E113A
(1612853199.154276) can1 521#0000000000000022
(1612853199.154279) can0 511#000027B400000000
(1612853199.154282) can0 3BA#0000000000000000
(1612853199.162287) can0 3C5#96D0000000000000
(1612853199.162291) can0 3C9#FFFFFFFFFFFFFFFF
(1612853199.162294) can1 600#0400000000000000
(1612853199.162297) can0 39F#00040004000000E7
(1612853199.170278) can0 33A#0006000000000000
(1612853199.170282) can0 340#0004000000000000
(1612853199.170285) can0 39A#20FB000B1C000000
(1612853199.170288) can0 38A#00000000000000D0
(1612853199.178278) can0 39E#05817F0000000000
(1612853199.178282) can0 316#81500AF07A690200
(1612853199.178285) can0 329#004000000000218B
(1612853199.178289) can1 43C#00000000000000F0
(1612853199.186276) can1 505#0B00A00000001000
(1612853199.186280) can1 50C#0000000000000000
(1612853199.186283) can1 514#0123010000000000
(1612853199.186286) can1 600#0400000000000000
(1612853199.194274) can0 350#01FFAFEF00007F00
(1612853199.194278) can0 360#00000000002400F8
(1612853199.194281) can0 380#80727E03E8FFFF7F
(1612853199.194284) can0 3BA#0000000000000000
(1612853199.202272) can1 600#0400000000000000
(1612853199.202276) can0 3A0#418001000000003C
(1612853199.202279) can0 350#01FFB01300007F00
(1612853199.202281) can0 39F#0004000400000005
(1612853199.210270) can0 33A#0006000000000000
(1612853199.210274) can0 340#0004000000000000
(1612853199.210277) can0 39A#20FB000B58000000
(1612853199.210279) can0 38A#000000000000001C
(1612853199.218281) can0 525#0000000000198200
(1612853199.218285) can0 52C#006DB000FE00A100
(1612853199.218288) can0 316#81500AF07A820200
(1612853199.218291) can1 600#0400000000000000
(1612853199.226266) can0 350#01FFAFFB00007F00
(1612853199.226270) can0 360#0000000000240025
(1612853199.226273) can0 380#80727E03E8FFFF7F
(1612853199.226276) can0 436#0080000000000000
(1612853199.234252) can0 440#0200000000000000
(1612853199.234256) can0 445#FF00030000000000
(1612853199.234259) can0 44D#0000000000000000
(1612853199.234262) can0 3CA#800F800F0CB78074
(1612853199.242271) can0 71A#0006000000000000
(1612853199.242275) can0 3BA#0000000000000000
(1612853199.242278) can0 70B#0006000000000000
(1612853199.242281) can0 39F#0004000400000023
(1612853199.250149) can0 33A#0006000000000000
(1612853199.250153) can0 702#0006000000000000
(1612853199.250156) can0 340#0004000000000000
(1612853199.250158) can0 380#80727E03E8FFFF7F
(1612853199.258257) can0 38A#0000000000000058
(1612853199.258261) can0 511#000027B400000000
(1612853199.258264) can0 316#81500AF07A820200
(1612853199.258267) can0 350#01FFAFFB00007F00
(1612853199.266085) can0 360#0000000000240061
(1612853199.266090) can0 380#80717E03E8FFFF7F
(1612853199.266095) can0 38A#0000000000000067
(1612853199.266099) can1 4AA#0100000000000000
(1612853199.274267) can1 4B2#0000000000000000
(1612853199.274271) can1 4F1#0000000000000000
(1612853199.274286) can1 519#0000000000000000
(1612853199.274290) can0 5E3#14000E650E650E59
(1612853199.282249) can0 5E4#14000E600E630E65
(1612853199.282254) can0 5E5#503E3E3E3EFFFFFF
(1612853199.282258) can1 48A#4000000000000000
(1612853199.282261) can1 505#0B00A00000001000
(1612853199.290249) can0 39F#0004000400000041
(1612853199.290253) can1 50C#0000000000000000
(1612853199.290256) can0 33A#0006000000000000
(1612853199.290259) can0 38A#0000000000000094
(1612853199.298255) can0 316#81500AF07A500200
(1612853199.298258) can0 39E#05817F0000000000
(1612853199.298261) can0 329#004000000000218B
(1612853199.298264) can0 350#01FFAFFB00007F00
(1612853199.306144) can0 360#00000000002400AD
(1612853199.306149) can0 380#80737E03E8FFFF7F
(1612853199.306153) can0 38A#00000000000000A3
(1612853199.306156) can0 350#01FFAFEF00007F00
(1612853199.314243) can0 360#00000000002400BC
(1612853199.314248) can0 380#80727E03E8FFFF7F
(1612853199.314251) can0 38A#00000000000000B2
(1612853199.314254) can0 3BA#0000000000000000
(1612853199.322245) can0 3A0#4180010000000069
(1612853199.322249) can0 350#01FFB01300007F00
(1612853199.322252) can0 360#00000000002400CB
(1612853199.322255) can0 39F#000400040000006F
(1612853199.330243) can0 33A#0006000000000000
(1612853199.330247) can0 340#0004000000000000
(1612853199.330250) can0 39A#20FB000B1C000000
(1612853199.330253) can0 38A#00000000000000D0
(1612853199.338248) can0 316#81500AF07A500200
(1612853199.338253) can0 39E#05817F0000000000
(1612853199.338256) can0 329#004000000000218B
(1612853199.338259) can0 350#01FFAFFB00007F00
(1612853199.346241) can0 360#00000000002400E9
(1612853199.346245) can0 380#80737E03E8FFFF7F
(1612853199.346248) can1 445#FF000B0000040001
(1612853199.346251) can1 461#87586C003EC20000
(1612853199.354243) can1 46A#646DFF00FF4E113A
(1612853199.354247) can1 521#0000000000000022
(1612853199.354250) can0 511#000027B400000000
(1612853199.354253) can0 3BA#0000000000000000
(1612853199.362241) can0 3C5#96D0000000000000
(1612853199.362246) can0 3C9#FFFFFFFFFFFFFFFF
(1612853199.362249) can0 5CF#0001000000060000
(1612853199.362252) can0 39F#000400040000008D
(1612853199.370249) can0 33A#0006000000000000
(1612853199.370253) can0 340#0004000000000000
(1612853199.370256) can0 39A#20FB000B58000000
(1612853199.370258) can0 38A#000000000000001C
(1612853199.378238) can0 39E#05817F0000000000
(1612853199.378242) can0 316#81500AF07A810200
(1612853199.378245) can0 329#004000000000218B
(1612853199.378248) can1 43C#00000000000000F0
(1612853199.386237) can1 505#0B00A00000001000
(1612853199.386242) can1 50C#0000000000000000
(1612853199.386245) can1 514#0123010000000000
(1612853199.386248) can0 350#01FFAFEF00007F00
(1612853199.394239) can0 360#0000000000240034
(1612853199.394243) can0 380#80727E03E8FFFF7F
(1612853199.394246) can0 38A#000000000000003A
(1612853199.394249) can0 3BA#0000000000000000
(1612853199.402119) can0 3A0#4180010000000087
(1612853199.402123) can0 350#01FFB01300007F00
(1612853199.402126) can0 360#0000000000240043
(1612853199.402129) can0 39F#00040004000000AB
(1612853199.410228) can0 33A#0006000000000000
(1612853199.410233) can0 340#0004000000000000
(1612853199.410236) can0 39A#20FB000B94000000
(1612853199.410239) can0 38A#0000000000000058
(1612853199.418242) can0 525#0000000000198200
(1612853199.418246) can0 52C#006DB000FE00A100
(1612853199.418249) can0 316#81500AF07A990200
(1612853199.418264) can0 350#01FFAFFB00007F00
(1612853199.426227) can0 360#0000000000240061
(1612853199.426231) can0 380#80727E03E8FFFF7F
(1612853199.426234) can0 38A#0000000000000067
(1612853199.426236) can0 436#0080000000000000
(1612853199.434232) can0 440#0200000000000000
(1612853199.434237) can0 445#FF00030000000000
(1612853199.434240) can0 44D#0000000000000000
(1612853199.434242) can0 3BA#0000000000000000
(1612853199.442226) can0 3A0#4180010000000096
(1612853199.442230) can0 350#01FFB01300007F00
(1612853199.442232) can0 360#000000000024008F
(1612853199.442235) can0 39F#00040004000000C9
(1612853199.450113) can0 33A#0006000000000000
(1612853199.450117) can0 340#0004000000000000
(1612853199.450120) can0 39A#20FB000BD0000000
(1612853199.450123) can0 380#80737E03E8FFFF7F
(1612853199.458223) can0 38A#0000000000000094
(1612853199.458228) can0 511#000027B400000000
(1612853199.458231) can0 316#81500AF07A9A0200
(1612853199.458234) can0 350#01FFAFFB00007F00
(1612853199.466047) can0 360#00000000002400AD
(1612853199.466050) can0 380#80727E03E8FFFF7F
(1612853199.466054) can0 38A#00000000000000A3
(1612853199.466056) can0 530#0000000000000008
(1612853199.474219) can1 4A9#0000000000000000
(1612853199.474224) can0 540#000000C580E580EF
(1612853199.474227) can1 4AA#0100000000000000
(1612853199.474230) can0 5D3#0000000000000000
(1612853199.482230) can0 5E1#1C000E600E660E62
(1612853199.482234) can0 5E2#1C000E4C0E4F0E41
(1612853199.482236) can0 5E3#1C000E430E630E66
(1612853199.482240) can1 567#090D44473032444D
(1612853199.490106) can0 39F#00040004000000E7
(1612853199.490110) can1 5C4#00CA022000000000
(1612853199.490113) can0 33A#0006000000000000
(1612853199.490116) can0 380#80737E03E8FFFF7F
(1612853199.498218) can0 38A#00000000000000D0
(1612853199.498222) can1 727#0006000000000000
(1612853199.498225) can0 316#81500AF07A9A0200
(1612853199.498228) can0 350#01FFAFFB00007F00
(1612853199.506208) can0 360#00000000002400E9
(1612853199.506212) can0 380#80717E03E8FFFF7F
(1612853199.506215) can0 38A#00000000000000EF
(1612853199.506217) can0 350#01FFAFEF00007F00
(1612853199.514217) can0 360#00000000002400F8
(1612853199.514221) can0 380#80727E03E8FFFF7F
(1612853199.514224) can0 38A#00000000000000FE
(1612853199.514226) can0 3BA#0000000000000000
(1612853199.522209) can0 3A0#41800100000000B4
(1612853199.522213) can0 350#01FFB01300007F00
(1612853199.522216) can0 360#0000000000240007
(1612853199.522218) can0 39F#0004000400000005
(1612853199.530206) can0 33A#0006000000000000
(1612853199.530210) can0 340#0004000000000000
(1612853199.530213) can0 39A#20FB000B58000000
(1612853199.530216) can0 380#80727E03E8FFFF7F
(1612853199.538209) can0 38A#000000000000001C
(1612853199.538213) can0 316#81500AF07A9A0200
(1612853199.538216) can0 39E#05817F0000000000
(1612853199.538219) can0 350#01FFAFFB00007F00
(1612853199.546213) can0 360#0000000000240025
(1612853199.546217) can0 380#80727E03E8FFFF7F
(1612853199.546220) can0 38A#000000000000002B
(1612853199.546224) can1 461#87586C003EC20000
(1612853199.554202) can1 46A#646DFF00FF4E113A
(1612853199.554206) can1 521#0000000000000022
(1612853199.554209) can1 523#0000000000000000
(1612853199.554213) can0 3BA#0000000000000000
(1612853199.562196) can0 3C5#96D0000000000000
(1612853199.562200) can0 3C9#FFFFFFFFFFFFFFFF
(1612853199.562202) can0 3A0#41800100000000C3
(1612853199.562205) can0 335#0000000000000000
(1612853199.570204) can0 39F#0004000400000023
(1612853199.570208) can0 33A#0006000000000000
(1612853199.570211) can0 39A#20FB000B94000000
(1612853199.570214) can0 380#80727E03E8FFFF7F
(1612853199.578199) can0 38A#0000000000000058
(1612853199.578203) can0 316#81500AF07A9A0200
(1612853199.578206) can0 39E#05817F0000000000
(1612853199.578210) can1 43C#00000000000000F0
(1612853199.586195) can1 505#0B00A00000001000
(1612853199.586199) can1 50C#0000000000000000
(1612853199.586202) can1 514#0123010000000000
(1612853199.586205) can0 350#01FFAFEF00007F00
(1612853199.594191) can0 360#0000000000240070
(1612853199.594195) can0 380#80727E03E8FFFF7F
(1612853199.594198) can0 38A#0000000000000076
(1612853199.594201) can0 3BA#0000000000000000
(1612853199.602191) can0 3A0#41800100000000D2
(1612853199.602195) can0 350#01FFB01300007F00
(1612853199.602198) can0 360#000000000024008F
(1612853199.602200) can0 39F#0004000400000041
(1612853199.610190) can0 33A#0006000000000000
(1612853199.610194) can0 340#0004000000000000
(1612853199.610197) can0 39A#20FB000BD0000000
(1612853199.610200) can0 380#80737E03E8FFFF7F
(1612853199.618195) can0 38A#0000000000000094
(1612853199.618199) can0 525#0000000000198200
(1612853199.618202) can0 52C#006DB000FE00A100
(1612853199.618205) can0 350#01FFAFFB00007F00
(1612853199.626201) can0 360#00000000002400AD
(1612853199.626205) can0 380#80727E03E8FFFF7F
(1612853199.626208) can0 38A#00000000000000A3
(1612853199.626211) can0 436#0080000000000000
(1612853199.634191) can0 440#0200000000000000
(1612853199.634195) can0 445#FF00030000000000
(1612853199.634198) can0 44D#0000000000000000
(1612853199.634200) can0 3BA#0000000000000000
(1612853199.642182) can0 3A0#41800100000000E1
(1612853199.642185) can0 350#01FFB01300007F00
(1612853199.642188) can0 360#00000000002400CB
(1612853199.642191) can0 39E#05817F0000000000
(1612853199.649995) can0 33A#0006000000000000
(1612853199.650000) can0 39F#000400040000006F
(1612853199.650002) can0 340#0004000000000000
(1612853199.650005) can0 380#80727E03E8FFFF7F
(1612853199.658186) can0 38A#00000000000000D0
(1612853199.658190) can0 511#000027B400000000
(1612853199.658193) can0 316#81500AF07A9B0200
(1612853199.658196) can0 350#01FFAFFB00007F00
(1612853199.666156) can0 360#00000000002400E9
(1612853199.666162) can0 380#80727E03E8FFFF7F
(1612853199.666165) can0 38A#00000000000000EF
(1612853199.666168) can1 4AA#0100000000000000
(1612853199.674171) can0 530#0000000000000008
(1612853199.674175) can1 4B2#0000000000000000
(1612853199.674178) can1 4F1#0000000000000000
(1612853199.674181) can0 5E3#04000E670E660E5D
(1612853199.682003) can0 5E4#04000E5F0E620E0B
(1612853199.682007) can0 5E5#403E3E3E3E3E3EFF
(1612853199.682012) can1 48A#4000000000000000
(1612853199.682016) can0 335#0000000000000000
(1612853199.690178) can1 505#0B00A00000001000
(1612853199.690182) can0 39F#000400040000008D
(1612853199.690185) can1 50C#0000000000000000
(1612853199.690188) can0 360#0000000000240016
(1612853199.698089) can0 380#80727E03E8FFFF7F
(1612853199.698094) can0 38A#000000000000001C
(1612853199.698097) can0 316#81500AF07A9B0200
(1612853199.698100) can0 350#01FFAFFB00007F00
(1612853199.706175) can0 360#0000000000240025
(1612853199.706179) can0 380#80737E03E3FFFF7F
(1612853199.706182) can0 38A#000000000000002B
(1612853199.706185) can0 350#01FFAFEF00007F00
(1612853199.714173) can0 360#0000000000240034
(1612853199.714189) can0 380#80727E03E3FFFF7F
(1612853199.714193) can0 38A#000000000000003A
(1612853199.714195) can0 3BA#0000000000000000
(1612853199.722174) can0 3A0#418001000000000F
(1612853199.722178) can0 350#01FFB01300007F00
(1612853199.722181) can0 360#0000000000240043
(1612853199.722184) can0 39E#05817F0000000000
(1612853199.730172) can0 33A#0006000000000000
(1612853199.730177) can0 39F#00040004000000AB
(1612853199.730180) can0 340#0004000000000000
(1612853199.730182) can0 380#80737E03E3FFFF7F
(1612853199.738169) can0 38A#0000000000000058
(1612853199.738173) can0 316#81500AF07A9B0200
(1612853199.738176) can0 39E#05817F0000000000
(1612853199.738178) can0 350#01FFAFFB00007F00
(1612853199.746169) can0 360#0000000000240061
(1612853199.746173) can0 380#80727E03E3FFFF7F
(1612853199.746176) can0 38A#0000000000000067
(1612853199.746179) can1 461#87586C003EC20000
(1612853199.754180) can1 46A#646DFF00FF4E113A
(1612853199.754184) can1 521#0000000000000022
(1612853199.754187) can1 523#0000000000000000
(1612853199.754190) can0 3BA#0000000000000000
(1612853199.762166) can0 3C5#96D0000000000000
(1612853199.762170) can0 3C9#FFFFFFFFFFFFFFFF
(1612853199.762173) can0 3A0#418001000000001E
(1612853199.762176) can0 39E#05817F0000000000
(1612853199.770177) can0 33A#0006000000000000
(1612853199.770181) can0 39F#00040004000000C9
(1612853199.770184) can0 340#0004000000000000
(1612853199.770186) can0 360#000000000024009E
(1612853199.778161) can0 380#80707E03E3FFFF7F
(1612853199.778165) can0 38A#0000000000000094
(1612853199.778168) can0 316#81500AF07A820200
(1612853199.778172) can1 43C#00000000000000F0
(1612853199.786163) can1 505#0B00A00000001000
(1612853199.786167) can1 50C#0000000000000000
(1612853199.786170) can1 514#0123010000000000
(1612853199.786173) can0 350#01FFAFEF00007F00
(1612853199.794158) can0 360#00000000002400BC
(1612853199.794162) can0 380#80737E03E8FFFF7F
(1612853199.794165) can0 38A#00000000000000B2
(1612853199.794168) can0 3BA#0000000000000000
(1612853199.802159) can0 3A0#418001000000002D
(1612853199.802162) can0 350#01FFB01300007F00
(1612853199.802166) can0 360#00000000002400CB
(1612853199.802168) can0 39E#05817F0000000000
(1612853199.810159) can0 33A#0006000000000000
(1612853199.810163) can0 39F#00040004000000E7
(1612853199.810165) can0 340#0004000000000000
(1612853199.810168) can0 380#80727E03E8FFFF7F
(1612853199.818167) can0 38A#00000000000000D0
(1612853199.818171) can0 525#0000000000198200
(1612853199.818174) can0 316#81500AF07A810200
(1612853199.818177) can0 350#01FFAFFB00007F00
(1612853199.826153) can0 360#00000000002400E9
(1612853199.826157) can0 380#80727E03E8FFFF7F
(1612853199.826160) can0 38A#00000000000000EF
(1612853199.826162) can0 436#0080000000000000
(1612853199.834152) can0 440#0200000000000000
(1612853199.834156) can0 445#FF00030000000000
(1612853199.834159) can0 44D#0000000000000000
(1612853199.834162) can0 3BA#0000000000000000
(1612853199.842151) can0 3A0#418001000000003C
(1612853199.842155) can0 350#01FFB01300007F00
(1612853199.842158) can0 360#0000000000240007
(1612853199.842161) can0 39E#05817F0000000000
(1612853199.850145) can0 33A#0006000000000000
(1612853199.850148) can0 39F#0004000400000005
(1612853199.850151) can0 340#0004000000000000
(1612853199.850154) can0 380#80737E03E8FFFF7F
(1612853199.858150) can0 38A#000000000000001C
(1612853199.858156) can0 511#000027B400000000
(1612853199.858185) can0 316#81500AF07A9A0200
(1612853199.858192) can0 350#01FFAFFB00007F00
(1612853199.866131) can0 360#0000000000240025
(1612853199.866137) can0 380#80727E03E8FFFF7F
(1612853199.866140) can0 38A#000000000000002B
(1612853199.866143) can1 4AA#0100000000000000
(1612853199.874004) can0 530#0000000000000008
(1612853199.874008) can1 4B2#0000000000000000
(1612853199.874011) can1 4F1#0000000000000000
(1612853199.874014) can0 5E3#0C000E5C0E570E65
(1612853199.881959) can0 5E4#0C000E5F0E660E5F
(1612853199.881963) can0 5E5#103E3E3E3E3E3E3E
(1612853199.881966) can0 3BA#0000000000000000
(1612853199.881969) can0 39E#05817F0000000000
(1612853199.890141) can1 505#0B00A00000001000
(1612853199.890146) can0 33A#0006000000000000
(1612853199.890149) can1 50C#0000000000000000
(1612853199.890152) can0 380#80727E03E8FFFF7F
(1612853199.898167) can0 38A#0000000000000058
(1612853199.898172) can0 316#81500AF07A9A0200
(1612853199.898174) can0 39E#05817F0000000000
(1612853199.898177) can0 350#01FFAFFB00007F00
(1612853199.906135) can0 360#0000000000240061
(1612853199.906139) can0 380#80727E03E8FFFF7F
(1612853199.906142) can0 38A#0000000000000067
(1612853199.906145) can0 350#01FFAFEF00007F00
(1612853199.914137) can0 360#0000000000240070
(1612853199.914142) can0 380#80727E03E8FFFF7F
(1612853199.914145) can0 38A#0000000000000076
(1612853199.914148) can0 3BA#0000000000000000
(1612853199.922139) can0 3A0#418001000000005A
(1612853199.922142) can0 350#01FFB01300007F00
(1612853199.922145) can0 360#000000000024008F
(1612853199.922148) can0 39E#05817F0000000000
(1612853199.930140) can0 33A#0006000000000000
(1612853199.930144) can0 39F#0004000400000041
(1612853199.930147) can0 340#0004000000000000
(1612853199.930149) can0 380#80717E03E8FFFF7F
(1612853199.937994) can0 38A#0000000000000094
(1612853199.937999) can0 316#81500AF07A500200
(1612853199.938002) can0 39E#05817F0000000000
(1612853199.938005) can0 350#01FFAFFB00007F00
(1612853199.946136) can0 360#00000000002400AD
(1612853199.946139) can0 380#80727E03E8FFFF7F
(1612853199.946142) can0 38A#00000000000000A3
(1612853199.946146) can1 461#87586C003EC20000
(1612853199.954102) can1 46A#646DFF00FF4E113A
(1612853199.954106) can1 521#0000000000000022
(1612853199.954109) can1 523#0000000000000000
(1612853199.954112) can0 3BA#0000000000000000
(1612853199.962128) can0 3C5#96D0000000000000
(1612853199.962132) can0 3C9#FFFFFFFFFFFFFFFF
(1612853199.962135) can0 3A0#4180010000000069
(1612853199.962138) can0 39E#05817F0000000000
(1612853199.970118) can0 33A#0006000000000000
(1612853199.970122) can0 39F#000400040000006F
(1612853199.970125) can0 340#0004000000000000
(1612853199.970128) can0 380#80737E03E8FFFF7F
(1612853199.978133) can0 38A#00000000000000D0
(1612853199.978136) can0 316#81500AF07A500200
(1612853199.978139) can0 39E#05817F0000000000
(1612853199.978143) can1 43C#00000000000000F0
(1612853199.986124) can1 505#0B00A00000001000
(1612853199.986128) can1 50C#0000000000000000
(1612853199.986131) can1 514#0123010000000000
(1612853199.986134) can0 350#01FFAFEF00007F00
(1612853199.994123) can0 360#00000000002400F8
(1612853199.994127) can0 380#80727E03E8FFFF7F
(1612853199.994130) can0 38A#00000000000000FE
(1612853199.994133) can0 3BA#0000000000000000
(1612853200.002120) can0 3A0#4180010000000078
(1612853200.002125) can0 350#01FFB01300007F00
(1612853200.002128) can0 360#0000000000240007
(1612853200.002144) can0 39E#05817F0000000000
(1612853200.010120) can0 33A#0006000000000000
(1612853200.010124) can0 39F#000400040000008D
(1612853200.010127) can0 340#0004000000000000
(1612853200.010129) can0 380#80727E03EDFFFF7F
(1612853200.018117) can0 38A#000000000000001C
(1612853200.018121) can0 525#0000000000198200
(1612853200.018123) can0 316#81500AF07A690200
(1612853200.018126) can0 350#01FFAFFB00007F00
(1612853200.026117) can0 360#0000000000240025
(1612853200.026122) can0 380#80737E03EDFFFF7F
(1612853200.026125) can0 38A#000000000000002B
(1612853200.026128) can0 436#0080000000000000
(1612853200.034115) can0 440#0200000000000000
(1612853200.034119) can0 445#FF00030000000000
(1612853200.034122) can0 44D#0000000000000000
(1612853200.034125) can0 3BA#0000000000000000
(1612853200.042103) can0 3A0#4180010000000087
(1612853200.042107) can0 350#01FFB01300007F00
(1612853200.042110) can0 360#0000000000240043
(1612853200.042113) can0 39E#05817F0000000000
(1612853200.050121) can0 33A#0006000000000000
(1612853200.050126) can0 39F#00040004000000AB
(1612853200.050129) can0 340#0004000000000000
(1612853200.050132) can0 360#0000000000240052
(1612853200.058112) can0 380#80727E03E8FFFF7F
(1612853200.058115) can0 38A#0000000000000058
(1612853200.058118) can0 316#81500AF07A690200
(1612853200.058122) can0 350#01FFAFFB00007F00
(1612853200.066101) can0 360#0000000000240061
(1612853200.066104) can0 380#80737E03E8FFFF7F
(1612853200.066107) can0 38A#0000000000000067
(1612853200.066111) can1 4B2#0000000000000000
(1612853200.074108) can0 530#0000000000000008
(1612853200.074113) can1 4F1#0000000000000000
(1612853200.074116) can1 519#0000000000000000
(1612853200.074119) can0 5E3#14000E660E660E58
(1612853200.082086) can0 5E4#14000E600E630E67
(1612853200.082090) can0 3BA#0000000000000000
(1612853200.082093) can0 5E5#303E3E413E3E3EFF
(1612853200.082096) can1 505#0B00A00000001000
(1612853200.090105) can0 39E#05817F0000000000
(1612853200.090109) can1 50C#0000000000000000
(1612853200.090112) can0 33A#0006000000000000
(1612853200.090115) can0 360#000000000024009E
(1612853200.097925) can0 380#80727E03E8FFFF7F
(1612853200.097930) can0 38A#0000000000000094
(1612853200.097934) can0 316#81500AF07A690200
(1612853200.097937) can0 350#01FFAFFB00007F00
(1612853200.106099) can0 360#00000000002400AD
(1612853200.106102) can0 380#80727E03E8FFFF7F
(1612853200.106105) can0 38A#00000000000000A3
(1612853200.106108) can0 350#01FFAFEF00007F00
(1612853200.114098) can0 360#00000000002400BC
(1612853200.114102) can0 380#80737E03E8FFFF7F
(1612853200.114105) can0 38A#00000000000000B2
(1612853200.114108) can0 3BA#0000000000000000
(1612853200.122094) can0 3A0#41800100000000A5
(1612853200.122099) can0 350#01FFB01300007F00
(1612853200.122102) can0 360#00000000002400CB
(1612853200.122105) can0 39E#05817F0000000000
(1612853200.130100) can0 33A#0006000000000000
(1612853200.130103) can0 39F#00040004000000E7
(1612853200.130106) can0 340#0004000000000000
(1612853200.130109) can0 360#00000000002400DA
(1612853200.138098) can0 380#80727E03E8FFFF7F
(1612853200.138102) can0 38A#00000000000000D0
(1612853200.138105) can0 316#81500AF07A680200
(1612853200.138108) can0 350#01FFAFFB00007F00
(1612853200.146092) can0 360#00000000002400E9
(1612853200.146097) can0 380#80727E03E8FFFF7F
(1612853200.146100) can0 38A#00000000000000EF
(1612853200.146103) can1 461#87586C003EC20000
(1612853200.154088) can1 46A#646DFF00FF4E113A
(1612853200.154093) can1 521#0000000000000022
(1612853200.154096) can1 523#0000000000000000
(1612853200.154099) can0 3BA#0000000000000000
(1612853200.162093) can0 3C5#96D0000000000000
(1612853200.162097) can0 3C9#FFFFFFFFFFFFFFFF
(1612853200.162100) can0 3A0#41800100000000B4
(1612853200.162103) can0 335#0000000000000000
(1612853200.170087) can0 39E#05817F0000000000
(1612853200.170092) can0 33A#0006000000000000
(1612853200.170095) can0 39A#20FB000B58000000
(1612853200.170098) can0 360#0000000000240016
(1612853200.177975) can0 380#80737E03E8FFFF7F
(1612853200.177979) can0 38A#000000000000001C
(1612853200.177982) can0 316#81500AF07A690200
(1612853200.177986) can1 43C#00000000000000F0
(1612853200.186088) can1 505#0B00A00000001000
(1612853200.186092) can1 50C#0000000000000000
(1612853200.186095) can1 514#0123010000000000
(1612853200.186098) can0 350#01FFAFEF00007F00
(1612853200.194088) can0 360#0000000000240034
(1612853200.194092) can0 380#80737E03E8FFFF7F
(1612853200.194095) can0 38A#000000000000003A
(1612853200.194098) can0 3BA#0000000000000000
(1612853200.202087) can0 3A0#41800100000000C3
(1612853200.202091) can0 350#01FFB01300007F00
(1612853200.202094) can0 360#0000000000240043
(1612853200.202097) can0 39E#05817F0000000000
(1612853200.209899) can0 33A#0006000000000000
(1612853200.209904) can0 39A#20FB000B94000000
(1612853200.209906) can0 340#0004000000000000
(1612853200.209909) can0 360#0000000000240052
(1612853200.218081) can0 380#80717E03E8FFFF7F
(1612853200.218087) can0 38A#0000000000000058
(1612853200.218090) can0 525#0000000000118100
(1612853200.218093) can0 350#01FFAFFB00007F00
(1612853200.225893) can0 360#0000000000240061
(1612853200.225897) can0 380#80727E03E8FFFF7F
(1612853200.225900) can0 38A#0000000000000067
(1612853200.225903) can0 436#0080000000000000
(1612853200.233939) can0 440#0200000000000000
(1612853200.233943) can0 445#FF00030000000000
(1612853200.233946) can0 44D#0000000000000000
(1612853200.233949) can0 3BA#0000000000000000
(1612853200.242079) can0 3CA#801780170CB08074
(1612853200.242084) can0 70B#0006000000000000
(1612853200.242087) can0 705#0006000000000000
(1612853200.242090) can0 396#00040004AD00004A
(1612853200.249882) can0 33A#0006000000000000
(1612853200.249886) can0 39E#05817F0000000000
(1612853200.249889) can0 340#0004000000000000
(1612853200.249892) can0 360#000000000024009E
(1612853200.258076) can0 380#80727E03E8FFFF7F
(1612853200.258080) can0 38A#0000000000000094
(1612853200.258082) can0 316#81500AF07AB30200
(1612853200.258085) can0 350#01FFAFFB00007F00
(1612853200.265881) can0 360#00000000002400AD
(1612853200.265886) can0 380#80737E03E8FFFF7F
(1612853200.265889) can0 38A#00000000000000A3
(1612853200.265892) can0 517#0000005D05020000
(1612853200.273980) can1 4B2#0000000000000000
(1612853200.273984) can0 530#0000000000000008
(1612853200.273987) can1 4F1#0000000000000000
(1612853200.273990) can0 401#00007F0620000000
(1612853200.281897) can0 5E3#1C000E490E630E66
(1612853200.281901) can0 3BA#0000000000000000
(1612853200.281904) can0 5E4#1C000E660E610E68
(1612853200.281907) can1 505#0B00A00000001000
(1612853200.289918) can0 39E#05817F0000000000
(1612853200.289923) can1 50C#0000000000000000
(1612853200.289926) can0 33A#0006000000000000
(1612853200.289929) can0 360#00000000002400DA
(1612853200.297882) can0 380#80727E03E8FFFF7F
(1612853200.297898) can0 38A#00000000000000D0
(1612853200.297901) can0 316#81500AF07AB30200
(1612853200.297904) can0 350#01FFAFFB00007F00
(1612853200.305916) can0 360#00000000002400E9
(1612853200.305920) can0 380#80737E03E8FFFF7F
(1612853200.305923) can0 38A#00000000000000EF
(1612853200.305926) can0 3F0#0000000000000000
(1612853200.313926) can0 350#01FFAFEF00007F00
(1612853200.313931) can0 360#00000000002400F8
(1612853200.313934) can0 380#80717E03E8FFFF7F
(1612853200.313937) can0 3BA#0000000000000000
(1612853200.321913) can0 3A0#41800100000000F0
(1612853200.321917) can0 350#01FFB01300007F00
(1612853200.321920) can0 360#0000000000240007
(1612853200.321923) can0 396#00040004AD000086
(1612853200.329951) can0 33A#0006000000000000
(1612853200.329955) can0 39E#05817F0000000000
(1612853200.329958) can0 340#0004000000000000
(1612853200.329961) can0 360#0000000000240016
(1612853200.338057) can0 380#80727E03E8FFFF7F
(1612853200.338063) can0 38A#000000000000001C
(1612853200.338066) can0 316#81500AF07AB30200
(1612853200.338068) can0 350#01FFAFFB00007F00
(1612853200.346057) can0 360#0000000000240025
(1612853200.346061) can0 380#80727E03E8FFFF7F
(1612853200.346064) can0 38A#000000000000002B
(1612853200.346070) can1 461#87586C003EC20000
(1612853200.353876) can1 46A#646DFF00FF4E113A
(1612853200.353881) can1 521#0000000000000022
(1612853200.353884) can1 523#0000000000000000
(1612853200.353889) can0 3C5#96D0000000000000
(1612853200.361905) can0 3C9#FFFFFFFFFFFFFFFF
(1612853200.361909) can0 5CF#0001000000060000
(1612853200.361912) can0 3A0#418001000000000F
(1612853200.361915) can0 396#00040004AD0000A4
(1612853200.369888) can0 33A#0006000000000000
(1612853200.369892) can0 39E#05817F0000000000
(1612853200.369895) can0 340#0004000000000000
(1612853200.369898) can0 360#0000000000240052
(1612853200.377864) can0 380#80727E03E8FFFF7F
(1612853200.377868) can0 38A#0000000000000058
(1612853200.377871) can0 316#81500AF07AB30200
(1612853200.377874) can1 43C#00000000000000F0
(1612853200.385947) can1 505#0B00A00000001000
(1612853200.385951) can1 50C#0000000000000000
(1612853200.385956) can1 514#0123010000000000
(1612853200.385959) can0 350#01FFAFEF00007F00
(1612853200.393909) can0 360#0000000000240070
(1612853200.393912) can0 380#80727E03E8FFFF7F
(1612853200.393915) can0 38A#0000000000000076
(1612853200.393918) can0 3A0#418001000000001E
(1612853200.401918) can0 350#01FFB01300007F00
(1612853200.401923) can0 360#000000000024008F
(1612853200.401927) can0 380#80727E03E8FFFF7F
(1612853200.401931) can0 396#00040004AD0000C2
(1612853200.409954) can0 33A#0006000000000000
(1612853200.409960) can0 39E#05817F0000000000
(1612853200.409963) can0 340#0004000000000000
(1612853200.409966) can0 360#000000000024009E
(1612853200.417957) can0 380#80727E03E8FFFF7F
(1612853200.417962) can0 38A#0000000000000094
(1612853200.417966) can0 316#81500AF07AB30200
(1612853200.417970) can0 350#01FFAFFB00007F00
(1612853200.425986) can0 360#00000000002400AD
(1612853200.425992) can0 380#80717E03E8FFFF7F
(1612853200.425996) can0 38A#00000000000000A3
(1612853200.426000) can0 436#0080000000000000
(1612853200.433965) can0 440#0200000000000000
(1612853200.433971) can0 445#FF00030000000000
(1612853200.433975) can0 44D#0000000000000000
(1612853200.433981) can0 3A0#418001000000002D
(1612853200.441951) can0 350#01FFB01300007F00
(1612853200.441956) can0 360#00000000002400CB
(1612853200.441975) can0 380#80727E03E8FFFF7F
(1612853200.441979) can0 396#00040004AD0000E0
(1612853200.450095) can0 33A#0006000000000000
(1612853200.450099) can0 39E#05817F0000000000
(1612853200.450101) can0 340#0004000000000000
(1612853200.450104) can0 360#00000000002400DA
(1612853200.457851) can0 380#80707E03E8FFFF7F
(1612853200.457857) can0 38A#00000000000000D0
(1612853200.457860) can0 316#81500AF07ACC0200
(1612853200.457866) can0 350#01FFAFFB00007F00
(1612853200.465896) can0 360#00000000002400E9
(1612853200.465900) can0 380#80727E03E8FFFF7F
(1612853200.465903) can0 38A#00000000000000EF
(1612853200.465907) can1 4A9#0000000000000000
(1612853200.473844) can0 517#0000005D05020000
(1612853200.473850) can1 4AA#0100000000000000
(1612853200.473854) can0 530#0000000000000008
(1612853200.473858) can0 5D1#01043F4E204E203F
(1612853200.481848) can0 5D2#0000000CA0271000
(1612853200.481852) can0 5D3#0000000000000000
(1612853200.481855) can0 5E1#04000E590E5A0E59
(1612853200.481859) can1 567#090D44473032444D
(1612853200.489847) can0 396#00040004AD00000E
(1612853200.489854) can1 5C4#00CA022000000000
(1612853200.489857) can0 33A#0006000000000000
(1612853200.489861) can0 360#0000000000240016
(1612853200.497929) can0 380#80717E03E8FFFF7F
(1612853200.497933) can0 38A#000000000000001C
(1612853200.497936) can0 316#81500AF07AE40200
(1612853200.497939) can0 350#01FFAFFB00007F00
(1612853200.505845) can0 360#0000000000240025
(1612853200.505850) can0 380#80727E03E8FFFF7F
(1612853200.505854) can0 38A#000000000000002B
(1612853200.505858) can0 350#01FFAFEF00007F00
(1612853200.513885) can0 360#0000000000240034
(1612853200.513889) can0 380#80727E03E8FFFF7F
(1612853200.513892) can0 38A#000000000000003A
(1612853200.513895) can0 3C0#00000A327FFF4401
(1612853200.521843) can0 3CA#801E801E0CAD8074
(1612853200.521848) can0 3A0#418001000000004B
(1612853200.521852) can0 350#01FFB01300007F00
(1612853200.521857) can0 396#00040004AD00002C
(1612853200.529906) can0 33A#0006000000000000
(1612853200.529910) can0 39E#05817F0000000000
(1612853200.529913) can0 340#0004000000000000
(1612853200.529916) can0 360#0000000000240052
(1612853200.537865) can0 380#80727E03E8FFFF7F
(1612853200.537870) can0 38A#0000000000000058
(1612853200.537876) can0 316#81500AF07AE40200
(1612853200.537879) can0 350#01FFAFFB00007F00
(1612853200.545837) can0 360#0000000000240061
(1612853200.545843) can0 380#80737E03E8FFFF7F
(1612853200.545846) can0 38A#0000000000000067
(1612853200.545850) can1 461#87586C003EC20000
(1612853200.553904) can1 46A#646DFF00FF4E113A
(1612853200.553907) can1 521#0000000000000022
(1612853200.553910) can1 523#0000000000000000
(1612853200.553914) can0 3C9#FFFFFFFFFFFFFFFF
(1612853200.561901) can0 3A0#418001000000005A
(1612853200.561904) can0 350#01FFB01300007F00
(1612853200.561907) can0 360#000000000024008F
(1612853200.561910) can0 396#00040004AD00004A
(1612853200.569879) can0 33A#0006000000000000
(1612853200.569884) can0 39E#05817F0000000000
(1612853200.569887) can0 340#0004000000000000
(1612853200.569891) can0 360#000000000024009E
(1612853200.577832) can0 380#80737E03E8FFFF7F
(1612853200.577838) can0 38A#0000000000000094
(1612853200.577842) can0 316#81500AF07A690200
(1612853200.577846) can1 43C#00000000000000F0
(1612853200.586008) can1 505#0B00A00000001000
(1612853200.586012) can1 50C#0000000000000000
(1612853200.586014) can1 514#0123010000000000
(1612853200.586030) can0 350#01FFAFEF00007F00
(1612853200.594008) can0 360#00000000002400BC
(1612853200.594012) can0 380#80737E03E8FFFF7F
(1612853200.594015) can0 38A#00000000000000B2
(1612853200.594018) can0 3A0#4180010000000069
(1612853200.601896) can0 350#01FFB01300007F00
(1612853200.601900) can0 360#00000000002400CB
(1612853200.601903) can0 380#80737E03E8FFFF7F
(1612853200.601906) can0 396#00040004AD000068
(1612853200.609899) can0 33A#0006000000000000
(1612853200.609903) can0 39E#05817F0000000000
(1612853200.609906) can0 340#0004000000000000
(1612853200.609909) can0 360#00000000002400DA
(1612853200.618015) can0 380#80717E03E3FFFF7F
(1612853200.618019) can0 38A#00000000000000D0
(1612853200.618022) can0 316#81500AF07A690200
(1612853200.618025) can0 350#01FFAFFB00007F00
(1612853200.626005) can0 360#00000000002400E9
(1612853200.626009) can0 380#80707E03E3FFFF7F
(1612853200.626011) can0 316#81500AF07A690200
(1612853200.626014) can0 436#0080000000000000
(1612853200.634002) can0 440#0200000000000000
(1612853200.634006) can0 445#FF00030000000000
(1612853200.634009) can0 44D#0000000000000000
(1612853200.634012) can0 3A0#4180010000000078
(1612853200.642002) can0 350#01FFB01300007F00
(1612853200.642006) can0 360#0000000000240007
(1612853200.642010) can0 380#80737E03E3FFFF7F
(1612853200.642012) can0 38F#7F7FEB2800000000
(1612853200.650000) can0 33A#0006000000000000
(1612853200.650004) can0 396#00040004AD000086
(1612853200.650007) can0 340#0004000000000000
(1612853200.650009) can0 350#01FFB00700007F00
(1612853200.657999) can0 360#0000000000240016
(1612853200.658003) can0 380#80727E03E3FFFF7F
(1612853200.658006) can0 316#81500AF07AB30200
(1612853200.658009) can0 350#01FFAFFB00007F00
(1612853200.665998) can0 360#0000000000240025
(1612853200.666002) can0 380#80737E03E3FFFF7F
(1612853200.666004) can0 316#81500AF07AB30200
(1612853200.666007) can0 47D#00000000001E210F
(1612853200.674001) can1 4B2#0000000000000000
(1612853200.674005) can0 517#0000005D05020000
(1612853200.674008) can1 4F1#0000000000000000
(1612853200.674011) can0 3CA#801780170CAD8074
(1612853200.681898) can0 5E1#0C000E5E0E5D0E5E
(1612853200.681903) can0 5E2#0C000E620E640E63
(1612853200.681907) can0 5E3#0C000E5C0E570E65
(1612853200.681911) can0 38F#7F7FF72A00000000
(1612853200.689892) can1 505#0B00A00000001000
(1612853200.689897) can0 33A#0006000000000000
(1612853200.689900) can1 50C#0000000000000000
(1612853200.689904) can0 350#01FFB00700007F00
(1612853200.697876) can0 360#0000000000240052
(1612853200.697879) can0 380#80717E03E8FFFF7F
(1612853200.697882) can0 316#81500AF07AB30200
(1612853200.697885) can0 350#01FFAFFB00007F00
(1612853200.705879) can0 360#0000000000240061
(1612853200.705885) can0 380#80727E03E8FFFF7F
(1612853200.705889) can0 38A#0000000000000067
(1612853200.705892) can0 350#01FFAFEF00007F00
(1612853200.713884) can0 360#0000000000240070
(1612853200.713890) can0 380#80727E03E8FFFF7F
(1612853200.713893) can0 38A#0000000000000076
(1612853200.713897) can0 3C0#00000A327FFF4401
(1612853200.721882) can0 3CA#800880080CAD8074
(1612853200.721887) can0 3A0#4180010000000096
(1612853200.721891) can0 350#01FFB01300007F00
(1612853200.721897) can0 396#00040004AD0000C2
(1612853200.729866) can0 33A#0006000000000000
(1612853200.729870) can0 39A#20FB000BD0000000
(1612853200.729873) can0 340#0004000000000000
(1612853200.729876) can0 350#01FFB00700007F00
(1612853200.738043) can0 360#000000000024009E
(1612853200.738049) can0 380#80717E03E8FFFF7F
(1612853200.738052) can0 38A#0000000000000094
(1612853200.738055) can0 350#01FFAFFB00007F00
(1612853200.746036) can0 360#00000000002400AD
(1612853200.746041) can0 380#80727E03E8FFFF7F
(1612853200.746043) can0 38A#00000000000000A3
(1612853200.746047) can1 461#87586C003EC20000
(1612853200.753863) can1 46A#646DFF00FF4E113A
(1612853200.753867) can1 521#0000000000000022
(1612853200.753870) can1 523#0000000000000000
(1612853200.753874) can0 3C9#FFFFFFFFFFFFFFFF
(1612853200.761883) can0 3CA#800880080CAB8074
(1612853200.761887) can0 3A0#41800100000000A5
(1612853200.761890) can0 350#01FFB01300007F00
(1612853200.761892) can0 396#00040004AD0000E0
(1612853200.769866) can0 33A#0006000000000000
(1612853200.769870) can0 39A#20FB000B1C000000
(1612853200.769873) can0 340#0004000000000000
(1612853200.769876) can0 350#01FFB00700007F00
(1612853200.777881) can0 360#00000000002400DA
(1612853200.777885) can0 380#80737E03E8FFFF7F
(1612853200.777887) can0 38A#00000000000000D0
(1612853200.777891) can1 43C#00000000000000F0
(1612853200.785862) can1 505#0B00A00000001000
(1612853200.785866) can1 50C#0000000000000000
(1612853200.785869) can1 514#0123010000000000
(1612853200.785873) can0 350#01FFAFEF00007F00
(1612853200.793862) can0 360#00000000002400F8
(1612853200.793867) can0 380#80737E03E8FFFF7F
(1612853200.793870) can0 316#81500AF07ACC0200
(1612853200.793873) can0 3A0#41800100000000B4
(1612853200.801866) can0 350#01FFB01300007F00
(1612853200.801870) can0 360#0000000000240007
(1612853200.801873) can0 380#80727E03EDFFFF7F
(1612853200.801876) can0 396#00040004AD00000E
(1612853200.809864) can0 33A#0006000000000000
(1612853200.809868) can0 39A#20FB000B58000000
(1612853200.809871) can0 340#0004000000000000
(1612853200.809874) can0 350#01FFB00700007F00
(1612853200.817830) can0 360#0000000000240016
(1612853200.817835) can0 380#80717E03EDFFFF7F
(1612853200.817838) can0 316#81500AF07ACC0200
(1612853200.817841) can0 350#01FFAFFB00007F00
(1612853200.825832) can0 360#0000000000240025
(1612853200.825836) can0 380#80727E03EDFFFF7F
(1612853200.825838) can0 316#81500AF07ACC0200
(1612853200.825841) can0 436#0080000000000000
(1612853200.833853) can0 440#0200000000000000
(1612853200.833857) can0 445#FF00030000000000
(1612853200.833860) can0 44D#0000000000000000
(1612853200.833863) can0 3A0#41800100000000C3
(1612853200.841851) can0 350#01FFB01300007F00
(1612853200.841855) can0 360#0000000000240043
(1612853200.841858) can0 380#80727E03EDFFFF7F
(1612853200.841860) can0 38F#7F7F673200000000
(1612853200.849820) can0 33A#0006000000000000
(1612853200.849824) can0 396#00040004AD00002C
(1612853200.849827) can0 340#0004000000000000
(1612853200.849830) can0 350#01FFB00700007F00
(1612853200.857818) can0 360#0000000000240052
(1612853200.857822) can0 380#80727E03E8FFFF7F
(1612853200.857825) can0 316#81500AF07ACC0200
(1612853200.857827) can0 350#01FFAFFB00007F00
(1612853200.865968) can0 360#0000000000240061
(1612853200.865972) can0 380#80727E03E8FFFF7F
(1612853200.865975) can0 316#81500AF07ACC0200
(1612853200.865978) can0 47D#00000000001E210F
(1612853200.873959) can1 4B2#0000000000000000
(1612853200.873963) can0 517#0000005D05020000
(1612853200.873967) can1 4F1#0000000000000000
(1612853200.873969) can0 3CA#801A801A0CAB806B
(1612853200.881965) can0 5E1#14000E590E620E68
(1612853200.881982) can0 5E2#14000E600E610E62
(1612853200.881985) can0 5E3#14000E5E0E610E61
(1612853200.881988) can1 505#0B00A00000001000
(1612853200.889957) can0 33A#0006000000000000
(1612853200.889961) can1 50C#0000000000000000
(1612853200.889964) can0 396#00040004AD00004A
(1612853200.889967) can0 350#01FFB00700007F00
(1612853200.898001) can0 360#000000000024009E
(1612853200.898005) can0 380#80727E03E8FFFF7F
(1612853200.898008) can0 316#81500AF07ACC0200
(1612853200.898010) can0 350#01FFAFFB00007F00
(1612853200.905954) can0 360#00000000002400AD
(1612853200.905958) can0 380#80737E03E8FFFF7F
(1612853200.905961) can0 316#81500AF07ACC0200
(1612853200.905963) can0 350#01FFAFEF00007F00
(1612853200.913857) can0 360#00000000002400BC
(1612853200.913861) can0 380#80737E03EDFFFF7F
(1612853200.913863) can0 316#81500AF07ACC0200
(1612853200.913866) can0 3C0#00000A3C7FFF4401
(1612853200.921953) can0 3CA#801A801A0CB0806B
(1612853200.921956) can0 3A0#41800100000000E1
(1612853200.921959) can0 350#01FFB01300007F00
(1612853200.921962) can0 38F#7F7F5F3600000000
(1612853200.929863) can0 33A#0006000000000000
(1612853200.929879) can0 396#00040004AD000068
(1612853200.929887) can0 340#0004000000000000
(1612853200.929890) can0 350#01FFB00700007F00
(1612853200.937947) can0 360#00000000002400DA
(1612853200.937952) can0 380#80737E03E8FFFF7F
(1612853200.937955) can0 316#81500AF07ACC0200
(1612853200.937958) can0 350#01FFAFFB00007F00
(1612853200.945837) can0 360#00000000002400E9
(1612853200.945841) can0 380#80737E03E8FFFF7F
(1612853200.945844) can0 316#81500AF07ACC0200
(1612853200.945847) can1 461#87586C003EC20000
(1612853200.953766) can1 46A#646DFF00FF4E113A
(1612853200.953771) can1 521#0000000000000022
(1612853200.953776) can1 523#0000000000000000
(1612853200.953781) can0 3C9#FFFFFFFFFFFFFFFF
(1612853200.961770) can0 3CA#801A801A0CB5806B
(1612853200.961776) can0 3A0#41800100000000F0
(1612853200.961779) can0 350#01FFB01300007F00
(1612853200.961783) can0 38F#7F7F0B3800000000
(1612853200.969761) can0 33A#0006000000000000
(1612853200.969766) can0 396#00040004AD000086
(1612853200.969769) can0 340#0004000000000000
(1612853200.969773) can0 350#01FFB00700007F00
(1612853200.977759) can0 360#0000000000240016
(1612853200.977764) can0 380#80727E03EDFFFF7F
(1612853200.977768) can0 316#81500AF07ACC0200
(1612853200.977772) can1 43C#00000000000000F0
(1612853200.985757) can1 505#0B00A00000001000
(1612853200.985763) can1 50C#0000000000000000
(1612853200.985767) can1 514#0123010000000000
(1612853200.985772) can0 350#01FFAFEF00007F00
(1612853200.993765) can0 360#0000000000240034
(1612853200.993772) can0 380#80727E03E8FFFF7F
(1612853200.993775) can0 316#81500AF07ACC0200
(1612853200.993779) can0 3A0#418001000000000F
(1612853201.001754) can0 350#01FFB01300007F00
(1612853201.001760) can0 360#0000000000240043
(1612853201.001764) can0 380#80727E03E8FFFF7F
(1612853201.001768) can0 38F#7F7F173A00000000
(1612853201.009743) can0 33A#0006000000000000
(1612853201.009746) can0 396#00040004AD0000A4
(1612853201.009748) can0 340#0004000000000000
(1612853201.009750) can0 350#01FFB00700007F00
(1612853201.017761) can0 360#0000000000240052
(1612853201.017765) can0 380#80737E03E8FFFF7F
(1612853201.017766) can0 316#81500AF07ACC0200
(1612853201.017768) can0 350#01FFAFFB00007F00
(1612853201.025781) can0 360#0000000000240061
(1612853201.025787) can0 380#80737E03E8FFFF7F
(1612853201.025826) can0 316#81500AF07ACC0200
(1612853201.025827) can0 436#0080000000000000
(1612853201.033882) can0 440#0200000000000000
(1612853201.033883) can0 445#FF00030000000000
(1612853201.033884) can0 44D#0000000000000000
(1612853201.033885) can0 3A0#418001000000001E
(1612853201.041898) can0 350#01FFB01300007F00
(1612853201.041900) can0 360#000000000024008F
(1612853201.041901) can0 380#80727E03E8FFFF7F
(1612853201.041902) can0 38F#7F7F333C00000000
(1612853201.049725) can0 33A#0006000000000000
(1612853201.049727) can0 396#00040004AD0000C2
(1612853201.049728) can0 340#0004000000000000
(1612853201.049729) can0 51A#0000000000000000
(1612853201.057883) can0 350#01FFB00700007F00
(1612853201.057884) can0 360#000000000024009E
(1612853201.057885) can0 380#80727E03E8FFFF7F
(1612853201.057885) can0 350#01FFAFFB00007F00
(1612853201.065872) can0 360#00000000002400AD
(1612853201.065873) can0 380#80727E03EDFFFF7F
(1612853201.065873) can0 316#81500AF07AB30200
(1612853201.065874) can0 47D#00000000001E210F
(1612853201.073898) can1 4B2#0000000000000000
(1612853201.073900) can0 517#0000005D05020000
(1612853201.073901) can1 4F1#0000000000000000
(1612853201.073903) can0 5E1#1C000E590E610E67
(1612853201.081984) can0 5E2#1C000E520E4B0E46
(1612853201.081986) can0 5E3#1C000E4A0E620E5F
(1612853201.081987) can0 5E4#1C000E610E650E68
(1612853201.081988) can1 505#0B00A00000001000
(1612853201.089965) can0 38F#7F7F2F3E00000000
(1612853201.089967) can1 50C#0000000000000000
(1612853201.089968) can0 33A#0006000000000000
(1612853201.089969) can0 350#01FFB00700007F00
(1612853201.097937) can0 360#00000000002400DA
(1612853201.097939) can0 380#80727E03E8FFFF7F
(1612853201.097940) can0 316#81500AF07AB30200
(1612853201.097941) can0 350#01FFAFFB00007F00
(1612853201.105915) can0 360#00000000002400E9
(1612853201.105917) can0 380#80737E03E8FFFF7F
(1612853201.105918) can0 316#81500AF07AB30200
(1612853201.105919) can0 350#01FFAFEF00007F00
(1612853201.113921) can0 360#00000000002400F8
(1612853201.113924) can0 380#80737E03E8FFFF7F
(1612853201.113927) can0 316#81500AF07AB30200
(1612853201.113929) can0 52E#6D282F1000000000
(1612853201.121908) can0 3C0#00000A3C7FFF4401
(1612853201.121912) can0 3CA#801780170CB28074
(1612853201.121915) can0 3A0#418001000000003C
(1612853201.121917) can0 38F#7F7F854000000000
(1612853201.129753) can0 33A#0006000000000000
(1612853201.129759) can0 396#00040004AD00000E
(1612853201.129763) can0 340#0004000000000000
(1612853201.129767) can0 350#01FFB00700007F00
(1612853201.137908) can0 360#0000000000240016
(1612853201.137911) can0 380#80727E03E8FFFF7F
(1612853201.137914) can0 316#81500AF07AB30200
(1612853201.137917) can0 350#01FFAFFB00007F00
(1612853201.145804) can0 360#0000000000240025
(1612853201.145808) can0 380#80737E03E8FFFF7F
(1612853201.145811) can0 316#81500AF07AB30200
(1612853201.145815) can1 461#87586C003EC20000
(1612853201.153917) can1 46A#646DFF00FF4E113A
(1612853201.153920) can1 521#0000000000000022
(1612853201.153923) can1 523#0000000000000000
(1612853201.153927) can0 3C9#FFFFFFFFFFFFFFFF
(1612853201.161918) can0 3CA#801780170CB28074
(1612853201.161922) can0 3A0#418001000000004B
(1612853201.161924) can0 350#01FFB01300007F00
(1612853201.161927) can0 38F#7F7F994200000000
(1612853201.169908) can0 33A#0006000000000000
(1612853201.169912) can0 396#00040004AD00002C
(1612853201.169915) can0 340#0004000000000000
(1612853201.169931) can0 350#01FFB00700007F00
(1612853201.177903) can0 360#0000000000240052
(1612853201.177908) can0 380#80727E03E8FFFF7F
(1612853201.177911) can0 316#81500AF07AB30200
(1612853201.177914) can1 43C#00000000000000F0
(1612853201.185906) can1 505#0B00A00000001000
(1612853201.185910) can1 50C#0000000000000000
(1612853201.185913) can1 514#0123010000000000
(1612853201.185917) can0 350#01FFAFEF00007F00
(1612853201.193894) can0 360#0000000000240070
(1612853201.193898) can0 380#80727E03E8FFFF7F
(1612853201.193901) can0 316#81500AF07AB30200
(1612853201.193904) can0 3A0#418001000000005A
(1612853201.201898) can0 350#01FFB01300007F00
(1612853201.201902) can0 360#000000000024008F
(1612853201.201905) can0 380#80737E03E8FFFF7F
(1612853201.201908) can0 38F#7F7FBD4400000000
(1612853201.209715) can0 33A#0006000000000000
(1612853201.209719) can0 396#00040004AD00004A
(1612853201.209722) can0 340#0004000000000000
(1612853201.209725) can0 350#01FFB00700007F00
(1612853201.217899) can0 360#000000000024009E
(1612853201.217903) can0 380#80727E03E8FFFF7F
(1612853201.217906) can0 316#81500AF07A9A0200
(1612853201.217908) can0 350#01FFAFFB00007F00
(1612853201.225896) can0 360#00000000002400AD
(1612853201.225901) can0 380#80727E03E8FFFF7F
(1612853201.225904) can0 316#81500AF07A9A0200
(1612853201.225907) can0 436#0080000000000000
(1612853201.233891) can0 440#0200000000000000
(1612853201.233895) can0 445#FF00030000000000
(1612853201.233898) can0 44D#0000000000000000
(1612853201.233901) can0 70D#0306000000000000
(1612853201.241891) can0 39A#20FB000B0D000000
(1612853201.241895) can0 3C0#00000A3C7FFF4401
(1612853201.241897) can0 3CA#801380130CAD8074
(1612853201.241900) can0 38F#7F7FA14600000000
(1612853201.249771) can0 33A#0006000000000000
(1612853201.249775) can0 396#00040004AD000068
(1612853201.249778) can0 340#0004000000000000
(1612853201.249781) can0 51A#0000000000000000
(1612853201.257897) can0 350#01FFB00700007F00
(1612853201.257901) can0 360#00000000002400DA
(1612853201.257904) can0 316#81500AF07A9B0200
(1612853201.257907) can0 350#01FFAFFB00007F00
(1612853201.265890) can0 360#00000000002400E9
(1612853201.265894) can0 380#80737E03E8FFFF7F
(1612853201.265897) can0 316#81500AF07A9B0200
(1612853201.265900) can1 4B2#0000000000000000
(1612853201.273886) can0 47D#00000000001E210F
(1612853201.273891) can1 4F1#0000000000000000
(1612853201.273894) can0 517#0000005D05020000
(1612853201.273897) can0 5E1#04000E590E5A0E59
(1612853201.281888) can0 5E2#04000E650E500DF5
(1612853201.281891) can0 5E3#04000E670E660E66
(1612853201.281895) can1 48A#4000000000000000
(1612853201.281898) can1 505#0B00A00000001000
(1612853201.289889) can0 38F#7F7FF54800000000
(1612853201.289894) can1 50C#0000000000000000
(1612853201.289897) can0 33A#0006000000000000
(1612853201.289899) can0 350#01FFB00700007F00
(1612853201.297891) can0 360#0000000000240016
(1612853201.297896) can0 380#80727E03E8FFFF7F
(1612853201.297899) can0 316#81500AF07A9B0200
(1612853201.297902) can0 350#01FFAFFB00007F00
(1612853201.305878) can0 360#0000000000240025
(1612853201.305882) can0 380#80727E03E8FFFF7F
(1612853201.305884) can0 316#81500AF07A9B0200
(1612853201.305887) can0 3C9#FFFFFFFFFFFFFFFF
(1612853201.313862) can0 3CA#801380130CB78074
(1612853201.313866) can0 3F0#0000000000000000
(1612853201.313869) can0 350#01FFAFEF00007F00
(1612853201.313872) can0 52E#6D282F1000000000
(1612853201.321882) can0 3C0#00000A3C7FFF4401
(1612853201.321887) can0 3CA#801380130CA88074
(1612853201.321890) can0 3A0#4180010000000087
(1612853201.321893) can0 38F#7F7FE94A00000000
(1612853201.329702) can0 33A#0006000000000000
(1612853201.329706) can0 396#00040004AD0000A4
(1612853201.329709) can0 340#0004000000000000
(1612853201.329712) can0 350#01FFB00700007F00
(1612853201.337879) can0 360#0000000000240052
(1612853201.337883) can0 380#80737E03E8FFFF7F
(1612853201.337886) can0 316#81500AF07A9A0200
(1612853201.337889) can0 350#01FFAFFB00007F00
(1612853201.345771) can0 360#0000000000240061
(1612853201.345775) can0 380#80727E03E8FFFF7F
(1612853201.345777) can0 316#81500AF07A9A0200
(1612853201.345781) can1 461#87586C003EC20000
(1612853201.353873) can1 46A#646DFF00FF4E113A
(1612853201.353877) can1 521#0000000000000022
(1612853201.353880) can1 523#0000000000000000
(1612853201.353883) can0 3C0#00000A3C7FFF4401
(1612853201.361873) can0 5CF#0001000000060000
(1612853201.361876) can0 3CA#801380130CA88074
(1612853201.361879) can0 3A0#4180010000000096
(1612853201.361882) can0 33A#0006000000000000
(1612853201.369877) can0 38F#7F7FCD4C00000000
(1612853201.369881) can0 340#0004000000000000
(1612853201.369885) can1 600#0400000000000000
(1612853201.369888) can0 350#01FFB00700007F00
(1612853201.377870) can0 360#000000000024009E
(1612853201.377873) can0 316#81500AF07A9A0200
(1612853201.377876) can0 380#80727E03E8FFFF7F
(1612853201.377880) can1 43C#00000000000000F0
(1612853201.385866) can1 505#0B00A00000001000
(1612853201.385870) can1 50C#0000000000000000
(1612853201.385873) can1 514#0123010000000000
(1612853201.385876) can0 350#01FFAFEF00007F00
(1612853201.393864) can0 360#00000000002400BC
(1612853201.393868) can0 316#81500AF07A9A0200
(1612853201.393871) can0 380#80727E03E8FFFF7F
(1612853201.393873) can0 3A0#41800100000000A5
(1612853201.401868) can0 350#01FFB01300007F00
(1612853201.401871) can0 360#00000000002400CB
(1612853201.401874) can0 316#81500AF07A9A0200
(1612853201.401877) can0 33A#0006000000000000
(1612853201.409866) can0 38F#7F7FD14E00000000
(1612853201.409870) can0 340#0004000000000000
(1612853201.409873) can0 396#00040004AD0000E0
(1612853201.409876) can0 350#01FFB00700007F00
(1612853201.417855) can0 360#00000000002400DA
(1612853201.417859) can0 316#81500AF07AB30200
(1612853201.417862) can0 380#80737E03E8FFFF7F
(1612853201.417865) can0 350#01FFAFFB00007F00
(1612853201.425862) can0 360#00000000002400E9
(1612853201.425865) can0 316#81500AF07AB30200
(1612853201.425868) can0 380#80737E03E8FFFF7F
(1612853201.425871) can0 436#0080000000000000
(1612853201.433854) can0 440#0200000000000000
(1612853201.433858) can0 445#FF00030000000000
(1612853201.433861) can0 44D#0000000000000000
(1612853201.433864) can0 3A0#41800100000000B4
(1612853201.441853) can0 350#01FFB01300007F00
(1612853201.441857) can0 360#0000000000240007
(1612853201.441860) can0 316#81500AF07AB30200
(1612853201.441863) can0 38C#0000000050AC7AAD
(1612853201.449855) can0 33A#0006000000000000
(1612853201.449859) can0 38F#7F7F655000000000
(1612853201.449862) can0 340#0004000000000000
(1612853201.449865) can0 51A#0000000000000000
(1612853201.457851) can0 350#01FFB00700007F00
(1612853201.457854) can0 360#0000000000240016
(1612853201.457857) can0 316#81500AF07AB30200
(1612853201.457860) can0 350#01FFAFFB00007F00
(1612853201.465846) can0 360#0000000000240025
(1612853201.465862) can0 316#81500AF07AB30200
(1612853201.465865) can0 380#80727E03E8FFFF7F
(1612853201.465868) can0 47C#0000000000000000
(1612853201.473853) can1 4AA#0100000000000000
(1612853201.473857) can0 47D#00000000001E210F
(1612853201.473860) can1 4B2#0000000000000000
(1612853201.473863) can0 3CA#801780170CBC806B
(1612853201.481848) can0 5D1#01043F4E204E203F
(1612853201.481851) can0 5D2#0000000CA1271000
(1612853201.481855) can0 5D3#0000000000000000
(1612853201.481858) can1 567#090D44473032444D
(1612853201.489782) can0 33A#0006000000000000
(1612853201.489787) can1 5C4#00CA022000000000
(1612853201.489789) can0 38F#7F7F795200000000
(1612853201.489793) can0 350#01FFB00700007F00
(1612853201.497846) can0 360#0000000000240052
(1612853201.497850) can0 316#81500AF07A9B0200
(1612853201.497853) can0 380#80727E03E8FFFF7F
(1612853201.497856) can0 350#01FFAFFB00007F00
(1612853201.505841) can0 360#0000000000240061
(1612853201.505846) can0 316#81500AF07A9B0200
(1612853201.505849) can0 380#80727E03E8FFFF7F
(1612853201.505852) can0 350#01FFAFEF00007F00
(1612853201.513837) can0 360#0000000000240070
(1612853201.513842) can0 316#81500AF07A9B0200
(1612853201.513845) can0 380#80717E03E3FFFF7F
(1612853201.513848) can0 3C0#00000A3C7FFF4401
(1612853201.521666) can0 52E#6D282F1000000000
(1612853201.521672) can0 3CA#801380130CBC806B
(1612853201.521676) can0 3A0#41800100000000D2
(1612853201.521679) can0 38C#0000000054A87FAD
(1612853201.529698) can0 33A#0006000000000000
(1612853201.529702) can0 38F#7F7F5D5400000000
(1612853201.529705) can0 340#0004000000000000
(1612853201.529708) can0 350#01FFB00700007F00
(1612853201.537846) can0 360#000000000024009E
(1612853201.537850) can0 316#81500AF07A9A0200
(1612853201.537853) can0 380#80727E03E3FFFF7F
(1612853201.537856) can0 350#01FFAFFB00007F00
(1612853201.545663) can0 360#00000000002400AD
(1612853201.545668) can0 316#81500AF07A9A0200
(1612853201.545672) can0 380#80737E03E3FFFF7F
(1612853201.545678) can1 461#87586C003EC20000
(1612853201.553664) can1 46A#646DFF00FF4E113A
(1612853201.553670) can1 521#0000000000000022
(1612853201.553675) can1 523#0000000000000000
(1612853201.553679) can0 3C9#FFFFFFFFFFFFFFFF
(1612853201.561711) can0 3C0#00000A3C7FFF4401
(1612853201.561717) can0 3CA#801380130CB58074
(1612853201.561720) can0 3A0#41800100000000E1
(1612853201.561724) can0 38C#0000000056B47FAD
(1612853201.569747) can0 33A#0006000000000000
(1612853201.569751) can0 38F#7F7F415600000000
(1612853201.569754) can0 340#0004000000000000
(1612853201.569757) can0 350#01FFB00700007F00
(1612853201.577781) can0 360#00000000002400DA
(1612853201.577787) can0 316#81500AF07A9A0200
(1612853201.577790) can0 380#80727E03E3FFFF7F
(1612853201.577794) can1 43C#00000000000000F0
(1612853201.585789) can1 505#0B00A00000001000
(1612853201.585794) can1 50C#0000000000000000
(1612853201.585798) can1 514#0123010000000000
(1612853201.585806) can0 350#01FFAFEF00007F00
(1612853201.593769) can0 360#00000000002400F8
(1612853201.593773) can0 316#81500AF07A9A0200
(1612853201.593776) can0 380#80727E03E8FFFF7F
(1612853201.593778) can0 3CA#801380130CB58074
(1612853201.601781) can0 3A0#41800100000000F0
(1612853201.601787) can0 350#01FFB01300007F00
(1612853201.601791) can0 360#0000000000240007
(1612853201.601793) can0 38C#0000000058DC7AAD
(1612853201.609712) can0 33A#0006000000000000
(1612853201.609716) can0 38F#7F7F155800000000
(1612853201.609731) can0 340#0004000000000000
(1612853201.609734) can0 525#0000000000118100
(1612853201.617734) can0 350#01FFB00700007F00
(1612853201.617739) can0 316#81500AF07A9A0200
(1612853201.617742) can0 360#0000000000240016
(1612853201.617744) can0 350#01FFAFFB00007F00
(1612853201.625874) can0 360#0000000000240025
(1612853201.625878) can0 316#81500AF07A9A0200
(1612853201.625881) can0 380#80737E03E8FFFF7F
(1612853201.625883) can0 436#0080000000000000
(1612853201.633736) can0 440#0200000000000000
(1612853201.633741) can0 445#FF00030000000000
(1612853201.633744) can0 44D#0000000000000000
(1612853201.633746) can0 3CA#801380130CB08074
(1612853201.641710) can0 3A0#418001000000000F
(1612853201.641713) can0 350#01FFB01300007F00
(1612853201.641716) can0 360#0000000000240043
(1612853201.641719) can0 38C#000000005AC07AAD
(1612853201.649636) can0 33A#0006000000000000
(1612853201.649641) can0 38F#7F7F095A00000000
(1612853201.649644) can0 340#0004000000000000
(1612853201.649648) can0 51A#0000000000000000
(1612853201.657813) can0 350#01FFB00700007F00
(1612853201.657818) can0 360#0000000000240052
(1612853201.657822) can0 316#81500AF07A500200
(1612853201.657825) can0 350#01FFAFFB00007F00
(1612853201.665818) can0 360#0000000000240061
(1612853201.665822) can0 316#81500AF07A500200
(1612853201.665825) can0 380#80727E03E8FFFF7F
(1612853201.665828) can0 401#00007F0620000000
(1612853201.673810) can1 4B2#0000000000000000
(1612853201.673815) can0 47C#0000000000000000
(1612853201.673818) can1 4F1#0000000000000000
(1612853201.673821) can0 3CA#800880080CB08074
(1612853201.681817) can0 5E1#14000E5F0E670E65
(1612853201.681822) can0 5E2#14000E600E650E62
(1612853201.681825) can0 5E3#14000E650E650E59
(1612853201.681829) can1 505#0B00A00000001000
(1612853201.689809) can0 38C#000000005CE47AAD
(1612853201.689814) can1 50C#0000000000000000
(1612853201.689817) can0 33A#0006000000000000
(1612853201.689820) can0 70A#0006000000000000
(1612853201.697818) can0 350#01FFB00700007F00
(1612853201.697822) can0 316#81500AF07A500200
(1612853201.697825) can0 360#000000000024009E
(1612853201.697828) can0 350#01FFAFFB00007F00
(1612853201.705809) can0 360#00000000002400AD
(1612853201.705814) can0 316#81500AF07A500200
(1612853201.705817) can0 380#80727E03E8FFFF7F
(1612853201.705820) can0 52C#006DB000FE00A100
(1612853201.713799) can0 350#01FFAFEF00007F00
(1612853201.713803) can0 316#81500AF07A500200
(1612853201.713805) can0 360#00000000002400BC
(1612853201.713808) can0 3C0#00000A3C7FFF4401
(1612853201.721807) can0 52E#6D282F1000000000
(1612853201.721811) can0 3CA#800880080CB08074
(1612853201.721813) can0 3A0#418001000000002D
(1612853201.721816) can0 38C#000000005EF87AAD
(1612853201.729790) can0 33A#0006000000000000
(1612853201.729795) can0 38F#7F7F315E00000000
(1612853201.729798) can0 340#0004000000000000
(1612853201.729801) can0 350#01FFB00700007F00
(1612853201.737801) can0 360#00000000002400DA
(1612853201.737805) can0 316#81500AF07A500200
(1612853201.737808) can0 380#80727E03E8FFFF7F
(1612853201.737811) can0 350#01FFAFFB00007F00
(1612853201.745639) can0 360#00000000002400E9
(1612853201.745646) can0 316#81500AF07A500200
(1612853201.745650) can0 380#80737E03E8FFFF7F
(1612853201.745654) can1 461#87586C003EC20000
(1612853201.753794) can1 46A#646DFF00FF4E113A
(1612853201.753799) can1 521#0000000000000022
(1612853201.753802) can1 523#0000000000000000
(1612853201.753817) can0 3C9#FFFFFFFFFFFFFFFF
(1612853201.761698) can0 3C0#00000A3C7FFF4401
(1612853201.761702) can0 3CA#800880080CA88074
(1612853201.761705) can0 3A0#418001000000003C
(1612853201.761708) can0 38C#0000000060A37AAD
(1612853201.769790) can0 33A#0006000000000000
(1612853201.769794) can0 38F#7F7F6A6000000000
(1612853201.769797) can0 340#0004000000000000
(1612853201.769799) can0 350#01FFB00700007F00
(1612853201.777798) can0 360#0000000000240016
(1612853201.777803) can0 316#81500AF07A500200
(1612853201.777806) can0 380#80727E03E8FFFF7F
(1612853201.777810) can1 505#0B00A00000001000
(1612853201.785793) can1 50C#0000000000000000
(1612853201.785797) can1 514#0123010000000000
(1612853201.785800) can0 650#A000000000000000
(1612853201.785804) can0 350#01FFAFEF00007F00
(1612853201.793792) can0 360#0000000000240034
(1612853201.793796) can0 316#81500AF07A810200
(1612853201.793799) can0 380#80727E03E8FFFF7F
(1612853201.793802) can0 3CA#800F800F0CA88074
(1612853201.801790) can0 3A0#418001000000004B
(1612853201.801795) can0 350#01FFB01300007F00
(1612853201.801798) can0 360#0000000000240043
(1612853201.801801) can0 38C#0000000062BF7AAD
(1612853201.809615) can0 33A#0006000000000000
(1612853201.809620) can0 38F#7F7F766200000000
(1612853201.809622) can0 340#0004000000000000
(1612853201.809625) can0 525#0000000000118100
(1612853201.817687) can0 350#01FFB00700007F00
(1612853201.817691) can0 316#81500AF07A810200
(1612853201.817694) can0 360#0000000000240052
(1612853201.817697) can0 350#01FFAFFB00007F00
(1612853201.825787) can0 360#0000000000240061
(1612853201.825792) can0 316#81500AF07A810200
(1612853201.825795) can0 380#80737E03E8FFFF7F
(1612853201.825798) can0 433#0000000000000000
(1612853201.833781) can0 436#0080000000000000
(1612853201.833784) can0 440#0200000000000000
(1612853201.833787) can0 445#FF00030000000000
(1612853201.833790) can0 3CA#800F800F0CAB8074
(1612853201.841777) can0 3A0#418001000000005A
(1612853201.841781) can0 350#01FFB01300007F00
(1612853201.841784) can0 316#81500AF07A810200
(1612853201.841787) can0 33A#0006000000000000
(1612853201.849781) can0 38C#00000000649B7AAD
(1612853201.849786) can0 340#0004000000000000
(1612853201.849789) can1 600#0400000000000000
(1612853201.849792) can0 51A#0000000000000000
(1612853201.857780) can0 350#01FFB00700007F00
(1612853201.857784) can0 360#000000000024009E
(1612853201.857787) can0 316#81500AF07A810200
(1612853201.857790) can0 350#01FFAFFB00007F00
(1612853201.865777) can0 316#81500AF07A810200
(1612853201.865781) can0 360#00000000002400AD
(1612853201.865784) can0 329#004000000000218B
(1612853201.865787) can0 470#0000000000000000
(1612853201.873777) can1 4B2#0000000000000000
(1612853201.873782) can0 47C#0000000000000000
(1612853201.873785) can1 4F1#0000000000000000
(1612853201.873788) can0 3CA#800F800F0CAB8074
(1612853201.881669) can0 5E1#1C000E600E680E63
(1612853201.881673) can0 5E2#1C000E500E520E43
(1612853201.881676) can0 5E3#1C000E480E630E66
(1612853201.881680) can1 505#0B00A00000001000
(1612853201.889775) can0 38C#0000000066877AAD
(1612853201.889779) can1 50C#0000000000000000
(1612853201.889782) can0 33A#0006000000000000
(1612853201.889785) can0 350#01FFB00700007F00
(1612853201.897774) can0 316#81500AF07A820200
(1612853201.897779) can0 360#00000000002400DA
(1612853201.897782) can0 329#004000000000218B
(1612853201.897785) can0 350#01FFAFFB00007F00
(1612853201.905773) can0 360#00000000002400E9
(1612853201.905777) can0 316#81500AF07A820200
(1612853201.905779) can0 380#80737E03E8FFFF7F
(1612853201.905783) can0 52C#006DB000FE00A100
(1612853201.913778) can0 350#01FFAFEF00007F00
(1612853201.913782) can0 316#81500AF07A820200
(1612853201.913784) can0 360#00000000002400F8
(1612853201.913787) can0 3C0#00000A3C7FFF4401
(1612853201.921762) can0 52E#6D282F1000000000
(1612853201.921767) can0 3CA#800F800F0CB2806B
(1612853201.921770) can0 3A0#4180010000000078
(1612853201.921773) can0 33A#0006000000000000
(1612853201.929765) can0 38C#0000000068D37AAD
(1612853201.929769) can0 340#0004000000000000
(1612853201.929772) can1 600#0400000000000000
(1612853201.929775) can0 350#01FFB00700007F00
(1612853201.937766) can0 316#81500AF07A9A0200
(1612853201.937770) can0 360#0000000000240016
(1612853201.937772) can0 329#004000000000218B
(1612853201.937775) can0 350#01FFAFFB00007F00
(1612853201.945802) can0 316#81500AF07A9A0200
(1612853201.945807) can0 360#0000000000240025
(1612853201.945810) can0 329#004000000000218B
(1612853201.945813) can1 456#0FFF0FFF0FFF0FFF
(1612853201.953761) can1 457#01FF01FF01FF01FF
(1612853201.953765) can1 461#87586C003EC20000
(1612853201.953767) can1 46A#646DFF00FF4E113A
(1612853201.953771) can0 3C0#00000A3C7FFF4401
(1612853201.961594) can0 3C9#FFFFFFFFFFFFFFFF
(1612853201.961599) can0 3CA#801380130CB2806B
(1612853201.961602) can0 3A0#4180010000000087
(1612853201.961606) can0 33A#0006000000000000
(1612853201.969759) can0 38C#000000006ACF7AAD
(1612853201.969763) can0 340#0004000000000000
(1612853201.969767) can1 600#0400000000000000
(1612853201.969770) can0 350#01FFB00700007F00
(1612853201.977757) can0 316#81500AF07A9A0200
(1612853201.977761) can0 360#0000000000240052
(1612853201.977764) can0 329#004000000000218B
(1612853201.977767) can1 505#0B00A00000001000
(1612853201.985755) can1 50C#0000000000000000
(1612853201.985759) can1 514#0123010000000000
(1612853201.985762) can1 538#0000000040007FFF
(1612853201.985765) can0 350#01FFAFEF00007F00
(1612853201.993754) can0 316#81500AF07A9A0200
(1612853201.993758) can0 360#0000000000240070
(1612853201.993761) can0 329#004000000000218B
(1612853201.993764) can0 3CA#801380130CAB806B
(1612853202.001753) can0 3A0#4180010000000096
(1612853202.001757) can0 350#01FFB01300007F00
(1612853202.001759) can0 316#81500AF07A9A0200
(1612853202.001762) can0 33A#0006000000000000
(1612853202.009760) can0 38C#000000006CEB7AAD
(1612853202.009764) can0 340#0004000000000000
(1612853202.009768) can1 600#0400000000000000
(1612853202.009771) can0 525#0000000000128140
(1612853202.017750) can0 350#01FFB00700007F00
(1612853202.017754) can0 316#81500AF07A9A0200
(1612853202.017757) can0 360#000000000024009E
(1612853202.017760) can0 350#01FFAFFB00007F00
(1612853202.025744) can0 316#81500AF07A9A0200
(1612853202.025748) can0 360#00000000002400AD
(1612853202.025751) can0 329#004000000000218B
(1612853202.025754) can0 433#0000000000000000
(1612853202.033747) can0 436#0080000000000000
(1612853202.033751) can0 440#0200000000000000
(1612853202.033754) can0 445#FF00030000000000
(1612853202.033757) can0 3C0#00000A3C7FFF4401
(1612853202.041646) can0 3CA#801380130CA88074
(1612853202.041651) can0 3A0#41800100000000A5
(1612853202.041653) can0 350#01FFB01300007F00
(1612853202.041656) can0 38A#00000000000000C1
(1612853202.049745) can0 33A#0006000000000000
(1612853202.049761) can0 38C#000000006EF77AAD
(1612853202.049764) can0 340#0004000000000000
(1612853202.049767) can0 51A#0000000000000000
(1612853202.057742) can0 350#01FFB00700007F00
(1612853202.057746) can0 316#81500AF07A9A0200
(1612853202.057749) can0 360#00000000002400DA
(1612853202.057752) can0 350#01FFAFFB00007F00
(1612853202.065742) can0 316#81500AF07A9A0200
(1612853202.065746) can0 360#00000000002400E9
(1612853202.065749) can0 329#004000000000218B
(1612853202.065752) can0 470#0000000000000000
(1612853202.073633) can1 4B2#0000000000000000
(1612853202.073637) can1 4F1#0000000000000000
(1612853202.073640) can0 47C#0000000000000000
(1612853202.073643) can0 3C0#00000A3C7FFF4401
(1612853202.081638) can0 3CA#800880080CA88074
(1612853202.081643) can0 5E1#04000E580E5E0E59
(1612853202.081646) can0 5E2#04000E640E510DF5
(1612853202.081650) can1 505#0B00A00000001000
(1612853202.089732) can0 33A#0006000000000000
(1612853202.089736) can1 50C#0000000000000000
(1612853202.089739) can0 38C#0000000070437AAD
(1612853202.089742) can0 350#01FFB00700007F00
(1612853202.097737) can0 316#81500AF07A500200
(1612853202.097741) can0 360#0000000000240016
(1612853202.097743) can0 329#004000000000218B
(1612853202.097747) can0 350#01FFAFFB00007F00
(1612853202.105731) can0 316#81500AF07A500200
(1612853202.105736) can0 360#0000000000240025
(1612853202.105739) can0 329#004000000000218B
(1612853202.105742) can0 52C#006DB000FE00A100
(1612853202.113739) can0 52D#4E0000003E6D0000
(1612853202.113743) can0 316#81500AF07A500200
(1612853202.113746) can0 350#01FFAFEF00007F00
(1612853202.113749) can0 3C0#00000A3C7FFF4401
(1612853202.121728) can0 52E#6D282F1000000000
(1612853202.121732) can0 3CA#800880080CB58074
(1612853202.121735) can0 3A0#41800100000000C3
(1612853202.121738) can0 38A#0000000000000049
(1612853202.129742) can0 33A#0006000000000000
(1612853202.129747) can0 38C#00000000725F7AAD
(1612853202.129750) can0 340#0004000000000000
(1612853202.129753) can0 350#01FFB00700007F00
(1612853202.137733) can0 316#81500AF07A9A0200
(1612853202.137737) can0 360#0000000000240052
(1612853202.137740) can0 329#004000000000218B
(1612853202.137743) can0 350#01FFAFFB00007F00
(1612853202.145713) can0 316#81500AF07A9A0200
(1612853202.145717) can0 360#0000000000240061
(1612853202.145719) can0 329#004000000000218B
(1612853202.145723) can1 459#4100410041004100
(1612853202.153550) can1 456#0FFF0FFF0FFF0FFF
(1612853202.153555) can1 457#01FF01FF01FF01FF
(1612853202.153558) can1 461#87586C003EC20000
(1612853202.153561) can0 3C5#96D0000000000000
(1612853202.161553) can0 3C0#00000A3C7FFF4401
(1612853202.161558) can0 3C9#FFFFFFFFFFFFFFFF
(1612853202.161561) can0 3CA#801380130CB58074
(1612853202.161565) can0 38A#0000000000000085
(1612853202.169724) can0 33A#0006000000000000
(1612853202.169728) can0 38C#00000000747B7AAD
(1612853202.169731) can0 340#0004000000000000
(1612853202.169734) can0 350#01FFB00700007F00
(1612853202.177622) can0 316#81500AF07A9A0200
(1612853202.177626) can0 360#000000000024009E
(1612853202.177629) can0 329#004000000000218B
(1612853202.177633) can1 43C#00000000000000F0
(1612853202.185717) can1 505#0B00A00000001000
(1612853202.185721) can1 50C#0000000000000000
(1612853202.185724) can1 514#0123010000000000
(1612853202.185727) can0 350#01FFAFEF00007F00
(1612853202.193775) can0 316#81500AF07A9A0200
(1612853202.193779) can0 360#00000000002400BC
(1612853202.193795) can0 329#004000000000218B
(1612853202.193798) can0 3C0#00000A3C7FFF4401
(1612853202.201713) can0 3CA#801380130CAD8074
(1612853202.201718) can0 3A0#41800100000000E1
(1612853202.201721) can0 350#01FFB01300007F00
(1612853202.201724) can0 38A#00000000000000C1
(1612853202.209690) can0 33A#0006000000000000
(1612853202.209694) can0 38C#0000000076677AAD
(1612853202.209697) can0 340#0004000000000000
(1612853202.209700) can0 525#0000000000128140
(1612853202.217656) can0 52C#006DB000FE00A100
(1612853202.217660) can0 316#81500AF07A9A0200
(1612853202.217663) can0 350#01FFB00700007F00
(1612853202.217665) can0 350#01FFAFFB00007F00
(1612853202.225576) can0 316#81500AF07A9A0200
(1612853202.225581) can0 360#00000000002400E9
(1612853202.225584) can0 329#004000000000218B
(1612853202.225586) can0 433#0000000000000000
(1612853202.233599) can0 436#0080000000000000
(1612853202.233603) can0 440#0200000000000000
(1612853202.233606) can0 445#FF00030000000000
(1612853202.233609) can0 70B#0006000000000000
(1612853202.241524) can0 3C0#00000A3C7FFF4401
(1612853202.241528) can0 70D#0306000000000000
(1612853202.241531) can0 39A#20FB000B49000000
(1612853202.241534) can0 38A#000000000000000D
(1612853202.249581) can0 33A#0006000000000000
(1612853202.249586) can0 38C#0000000078337AAD
(1612853202.249589) can0 340#0004000000000000
(1612853202.249592) can0 51A#0000000000000000
(1612853202.257573) can0 350#01FFB00700007F00
(1612853202.257577) can0 316#81500AF07A9A0200
(1612853202.257579) can0 360#0000000000240016
(1612853202.257582) can0 350#01FFAFFB00007F00
(1612853202.265564) can0 316#81500AF07A9A0200
(1612853202.265568) can0 360#0000000000240025
(1612853202.265572) can0 329#004000000000218B
(1612853202.265574) can0 409#0000000000000000
(1612853202.273532) can1 4B2#0000000000000000
(1612853202.273539) can0 470#0000000000000000
(1612853202.273543) can1 4F1#0000000000000000
(1612853202.273547) can0 3C0#00000A3C7FFF4401
(1612853202.281560) can0 3CA#801380130CAD806B
(1612853202.281564) can0 5E1#0C000E5E0E5D0E5E
(1612853202.281566) can0 5E2#0C000E620E640E62
(1612853202.281570) can1 505#0B00A00000001000
(1612853202.289523) can0 38A#0000000000000049
(1612853202.289529) can1 50C#0000000000000000
(1612853202.289533) can0 33A#0006000000000000
(1612853202.289536) can0 350#01FFB00700007F00
(1612853202.297557) can0 316#81500AF07A690200
(1612853202.297561) can0 360#0000000000240052
(1612853202.297564) can0 329#004000000000218B
(1612853202.297567) can0 350#01FFAFFB00007F00
(1612853202.305557) can0 316#81500AF07A690200
(1612853202.305562) can0 360#0000000000240061
(1612853202.305566) can0 329#004000000000218B
(1612853202.305570) can0 3C5#96D0000000000000
(1612853202.313558) can0 3C9#FFFFFFFFFFFFFFFF
(1612853202.313561) can0 3BA#0000000000000000
(1612853202.313564) can0 3CA#800C800C0CAD806B
(1612853202.313567) can0 3C0#00000A3C7FFF4401
(1612853202.321510) can0 3CA#800C800C0CAD806B
(1612853202.321514) can0 3A0#418001000000001E
(1612853202.321517) can0 350#01FFB01300007F00
(1612853202.321520) can0 38A#0000000000000085
(1612853202.329554) can0 33A#0006000000000000
(1612853202.329558) can0 38C#000000007C0B7AAD
(1612853202.329561) can0 340#0004000000000000
(1612853202.329564) can0 350#01FFB00700007F00
(1612853202.337693) can0 316#81500AF07A690200
(1612853202.337697) can0 360#000000000024009E
(1612853202.337700) can0 329#004000000000218B
(1612853202.337715) can0 350#01FFAFFB00007F00
(1612853202.345686) can0 316#81500AF07A690200
(1612853202.345690) can0 360#00000000002400AD
(1612853202.345693) can0 329#004000000000218B
(1612853202.345696) can1 455#3F3F3F3FFFFFFFFF
(1612853202.353562) can1 459#4100410041004100
(1612853202.353566) can1 456#0FFF0FFF0FFF0FFF
(1612853202.353568) can1 457#01FF01FF01FF01FF
(1612853202.353572) can0 3C5#96D0000000000000
(1612853202.361549) can0 3C0#00000A3C7FFF4401
(1612853202.361553) can0 3C9#FFFFFFFFFFFFFFFF
(1612853202.361556) can0 3CA#800F800F0CAD806B
(1612853202.361558) can0 38A#00000000000000C1
(1612853202.369731) can0 33A#0006000000000000
(1612853202.369735) can0 38C#000000007E177AAD
(1612853202.369739) can1 600#0400000000000000
(1612853202.369742) can0 350#01FFB00700007F00
(1612853202.377572) can0 316#81500AF07A810200
(1612853202.377575) can0 360#00000000002400DA
(1612853202.377578) can0 329#004000000000218B
(1612853202.377582) can1 505#0B00A00000001000
(1612853202.385569) can1 50C#0000000000000000
(1612853202.385573) can1 514#0123010000000000
(1612853202.385576) can0 650#A000000000000000
(1612853202.385578) can0 3BA#0000000000000000
(1612853202.393584) can0 316#81500AF07A810200
(1612853202.393589) can0 350#01FFAFEF00007F00
(1612853202.393592) can0 329#004000000000218B
(1612853202.393595) can0 3C0#00000A3C7FFF4401
(1612853202.401683) can0 3CA#800F800F0CA8806B
(1612853202.401686) can0 3A0#418001000000003C
(1612853202.401689) can0 3C5#96D0000000000000
(1612853202.401692) can0 380#80737E03E8FFFF7F
(1612853202.409579) can0 33A#0006000000000000
(1612853202.409582) can0 38A#000000000000000D
(1612853202.409585) can0 340#0004000000000000
(1612853202.409588) can0 525#0000000000128140
(1612853202.417680) can0 52C#006DB000FE00A100
(1612853202.417685) can0 316#81500AF07A810200
(1612853202.417687) can0 350#01FFB00700007F00
(1612853202.417690) can0 350#01FFAFFB00007F00
(1612853202.425676) can0 316#81500AF07A810200
(1612853202.425680) can0 360#0000000000240025
(1612853202.425683) can0 329#004000000000218B
(1612853202.425686) can0 431#33FCE301004293B1
(1612853202.433676) can0 433#0000000000000000
(1612853202.433680) can0 436#0080000000000000
(1612853202.433683) can0 440#0200000000000000
(1612853202.433686) can0 3C0#00000A3C7FFF4401
(1612853202.441672) can0 3CA#801A801A0CA8806B
(1612853202.441677) can0 3A0#418001000000004B
(1612853202.441680) can0 316#81500AF07ACB0200
(1612853202.441683) can0 33A#0006000000000000
(1612853202.449674) can0 38A#0000000000000049
(1612853202.449678) can0 340#0004000000000000
(1612853202.449681) can1 600#0400000000000000
(1612853202.449684) can0 51A#0000000000000000
(1612853202.457671) can0 3BA#0000000000000000
(1612853202.457675) can0 316#81500AF07ACB0200
(1612853202.457678) can0 350#01FFB00700007F00
(1612853202.457681) can0 316#81500AF07ACB0200
(1612853202.465571) can0 350#01FFAFFB00007F00
(1612853202.465577) can0 329#004000000000218B
(1612853202.465592) can0 360#0000000000240061
(1612853202.465598) can0 409#0000000000000000
(1612853202.473567) can1 4AA#0100000000000000
(1612853202.473572) can0 470#0000000000000000
(1612853202.473575) can1 4B2#0000000000000000
(1612853202.473578) can0 3CA#801A801A0CA3807E
(1612853202.481674) can0 5D1#01043F4E204E203F
(1612853202.481678) can0 5D2#0000000CA1271000
(1612853202.481681) can1 48A#4000000000000000
(1612853202.481684) can0 33A#0006000000000000
(1612853202.489666) can1 5C4#00CA022000000000
(1612853202.489670) can0 38A#0000000000000085
(1612853202.489673) can1 5D3#0000000000000000
(1612853202.489676) can0 3BA#0000000000000000
(1612853202.497667) can0 316#81500AF07ACB0200
(1612853202.497671) can0 350#01FFB00700007F00
(1612853202.497674) can0 329#004000000000218B
(1612853202.497677) can0 3C5#96D0000000000000
(1612853202.505659) can0 3C9#FFFFFFFFFFFFFFFF
(1612853202.505663) can0 316#81500AF07ACB0200
(1612853202.505666) can0 350#01FFAFFB00007F00
(1612853202.505668) can0 52C#006DB000FE00A100
(1612853202.513664) can0 3BA#0000000000000000
(1612853202.513668) can0 316#81500AF07ACB0200
(1612853202.513671) can0 350#01FFAFEF00007F00
(1612853202.513674) can0 3C0#00000A3C7FFF4401
(1612853202.521655) can0 52E#6D282F1000000000
(1612853202.521659) can0 3CA#801A801A0CA3807E
(1612853202.521662) can0 3A0#4180010000000069
(1612853202.521665) can0 33A#0006000000000000
(1612853202.529661) can0 38A#00000000000000C1
(1612853202.529665) can0 340#0004000000000000
(1612853202.529669) can1 600#0400000000000000
(1612853202.529672) can0 3BA#0000000000000000
(1612853202.537655) can0 316#81500AF07ACB0200
(1612853202.537659) can0 350#01FFB00700007F00
(1612853202.537662) can0 329#004000000000218B
(1612853202.537665) can0 316#81500AF07ACB0200
(1612853202.545659) can0 350#01FFAFFB00007F00
(1612853202.545663) can0 329#004000000000218B
(1612853202.545666) can0 360#00000000002400E9
(1612853202.545669) can1 445#FF000B0000040001
(1612853202.553646) can1 455#3F3F3F3FFFFFFFFF
(1612853202.553650) can1 459#4100410041004100
(1612853202.553653) can1 461#87586C003EC20000
(1612853202.553656) can0 3C0#00000A3C7FFF4401
(1612853202.561667) can0 3C9#FFFFFFFFFFFFFFFF
(1612853202.561671) can0 3CA#801A801A0CAB807E
(1612853202.561673) can0 3A0#4180010000000078
(1612853202.561676) can0 33A#0006000000000000
(1612853202.569486) can0 38A#000000000000000D
(1612853202.569492) can0 340#0004000000000000
(1612853202.569496) can1 600#0400000000000000
(1612853202.569499) can0 3BA#0000000000000000
(1612853202.577483) can0 316#81500AF07ACC0200
(1612853202.577488) can0 350#01FFB00700007F00
(1612853202.577492) can0 329#004000000000218B
(1612853202.577496) can1 505#0B00A00000001000
(1612853202.585648) can1 50C#0000000000000000
(1612853202.585652) can1 514#0123010000000000
(1612853202.585656) can0 650#A000000000000000
(1612853202.585658) can0 3BA#0000000000000000
(1612853202.593543) can0 316#81500AF07ACC0200
(1612853202.593548) can0 350#01FFAFEF00007F00
(1612853202.593551) can0 329#004000000000218B
(1612853202.593554) can0 3CA#801A801A0CAB8074
(1612853202.601645) can0 3A0#4180010000000087
(1612853202.601649) can0 3C5#96D0000000000000
(1612853202.601652) can0 3C9#FFFFFFFFFFFFFFFF
(1612853202.601655) can0 33A#0006000000000000
(1612853202.609629) can0 38A#0000000000000049
(1612853202.609633) can0 340#0004000000000000
(1612853202.609637) can1 600#0400000000000000
(1612853202.609640) can0 3BA#0000000000000000
(1612853202.617691) can0 525#0000000000128140
(1612853202.617696) can0 52C#006DB000FE00A100
(1612853202.617700) can0 316#81500AF07ACC0200
(1612853202.617703) can0 316#81500AF07ACC0200
(1612853202.625697) can0 350#01FFAFFB00007F00
(1612853202.625701) can0 329#004000000000218B
(1612853202.625703) can0 360#0000000000240061
(1612853202.625706) can0 431#33FCE301004293B1
(1612853202.633542) can0 433#0000000000000000
(1612853202.633562) can0 436#0080000000000000
(1612853202.633566) can0 440#0200000000000000
(1612853202.633570) can0 3CA#801A801A0CB08074
(1612853202.641689) can0 3A0#4180010000000096
(1612853202.641693) can0 316#81500AF07ACC0200
(1612853202.641696) can0 350#01FFB01300007F00
(1612853202.641699) can0 33A#0006000000000000
(1612853202.649537) can0 38A#0000000000000085
(1612853202.649543) can0 340#0004000000000000
(1612853202.649549) can1 600#0400000000000000
(1612853202.649553) can0 51A#0000000000000000
(1612853202.657687) can0 3BA#0000000000000000
(1612853202.657692) can0 3C5#96D0000000000000
(1612853202.657695) can0 316#81500AF07ACC0200
(1612853202.657698) can0 401#00007F0620000000
(1612853202.665522) can0 316#81500AF07ACC0200
(1612853202.665527) can0 350#01FFAFFB00007F00
(1612853202.665531) can0 329#004000000000218B
(1612853202.665535) can0 470#0000000000000000
(1612853202.673742) can1 4B2#0000000000000000
(1612853202.673746) can0 47C#0000000000000000
(1612853202.673750) can1 4F1#0000000000000000
(1612853202.673753) can0 3CA#801A801A0CB08074
(1612853202.681510) can0 5E1#1C000E600E660E64
(1612853202.681514) can0 5E2#1C000E510E4E0E44
(1612853202.681517) can0 5E3#1C000E490E630E66
(1612853202.681521) can1 505#0B00A00000001000
(1612853202.689489) can0 33A#0006000000000000
(1612853202.689493) can1 50C#0000000000000000
(1612853202.689496) can0 38A#00000000000000C1
(1612853202.689499) can0 3BA#0000000000000000
(1612853202.697569) can0 316#81500AF07ACC0200
(1612853202.697575) can0 350#01FFB00700007F00
(1612853202.697579) can0 329#004000000000218B
(1612853202.697582) can0 3C5#96D0000000000000
(1612853202.705488) can0 3C9#FFFFFFFFFFFFFFFF
(1612853202.705492) can0 316#81500AF07ACC0200
(1612853202.705495) can0 350#01FFAFFB00007F00
(1612853202.705497) can0 3BA#0000000000000000
(1612853202.713630) can0 52C#006DB000FE00A100
(1612853202.713634) can0 52D#4E0000003E6D0000
(1612853202.713637) can0 316#81500AF07A9A0200
(1612853202.713640) can0 3C0#00000A3C7FFF4401
(1612853202.721644) can0 3CA#801380130CB5806B
(1612853202.721648) can0 3A0#41800100000000B4
(1612853202.721651) can0 316#81500AF07A9A0200
(1612853202.721654) can0 33A#0006000000000000
(1612853202.729495) can0 38A#000000000000000D
(1612853202.729499) can0 340#0004000000000000
(1612853202.729502) can1 600#0400000000000000
(1612853202.729505) can0 3BA#0000000000000000
(1612853202.737486) can0 316#81500AF07A9A0200
(1612853202.737490) can0 350#01FFB00700007F00
(1612853202.737493) can0 329#004000000000218B
(1612853202.737496) can0 316#81500AF07A9A0200
(1612853202.745447) can0 350#01FFAFFB00007F00
(1612853202.745451) can0 329#004000000000218B
(1612853202.745457) can0 360#0000000000240025
(1612853202.745461) can1 445#FF000B0000040001
(1612853202.753518) can1 455#3F3F3F3FFFFFFFFF
(1612853202.753522) can1 461#87586C003EC20000
(1612853202.753524) can1 459#4100410041004100
(1612853202.753528) can0 3C0#00000A3C7FFF4401
(1612853202.761433) can0 3CA#801380130CA6806B
(1612853202.761437) can0 3A0#41800100000000C3
(1612853202.761440) can0 401#00007F0620000000
(1612853202.761443) can0 33A#0006000000000000
(1612853202.769617) can0 380#80737E03EDFFFF7F
(1612853202.769622) can0 340#0004000000000000
(1612853202.769626) can1 600#0400000000000000
(1612853202.769629) can0 316#81500AF07A9A0200
(1612853202.777526) can0 39E#05817F0000000000
(1612853202.777529) can0 329#004000000000218B
(1612853202.777544) can0 350#01FFB00700007F00
(1612853202.777548) can1 505#0B00A00000001000
(1612853202.785446) can1 50C#0000000000000000
(1612853202.785451) can1 514#0123010000000000
(1612853202.785456) can0 650#A000000000000000
(1612853202.785459) can0 3BA#0000000000000000
(1612853202.793475) can0 316#81500AF07AB30200
(1612853202.793482) can0 39E#05817F0000000000
(1612853202.793486) can0 329#004000000000218B
(1612853202.793490) can0 3CA#801780170CA6806B
(1612853202.801625) can0 3A0#41800100000000D2
(1612853202.801630) can0 3C5#96D0000000000000
(1612853202.801632) can0 3C9#FFFFFFFFFFFFFFFF
(1612853202.801635) can0 33A#0006000000000000
(1612853202.809508) can0 38A#0000000000000085
(1612853202.809512) can0 340#0004000000000000
(1612853202.809515) can1 600#0400000000000000
(1612853202.809518) can0 525#0000000000128140
(1612853202.817466) can0 52C#006DB000FE00A100
(1612853202.817471) can0 316#81500AF07AB30200
(1612853202.817473) can0 350#01FFB00700007F00
(1612853202.817476) can0 316#81500AF07AB30200
(1612853202.825474) can0 350#01FFAFFB00007F00
(1612853202.825478) can0 329#004000000000218B
(1612853202.825481) can0 360#00000000002400AD
(1612853202.825484) can0 431#33FCE301004293B1
(1612853202.833434) can0 433#0000000000000000
(1612853202.833439) can0 436#0080000000000000
(1612853202.833444) can0 440#0200000000000000
(1612853202.833448) can0 3CA#801780170CAB806B
(1612853202.841419) can0 3A0#41800100000000E1
(1612853202.841424) can0 316#81500AF07AB30200
(1612853202.841427) can0 39E#05817F0000000000
(1612853202.841430) can0 33A#0006000000000000
(1612853202.849499) can0 380#80727E03E3FFFF7F
(1612853202.849504) can0 340#0004000000000000
(1612853202.849507) can1 600#0400000000000000
(1612853202.849510) can0 3C5#96D0000000000000
(1612853202.857427) can0 3C9#FFFFFFFFFFFFFFFF
(1612853202.857432) can0 511#000027B400000000
(1612853202.857436) can0 316#81500AF07A690200
(1612853202.857439) can0 401#00007F0620000000
(1612853202.865470) can0 316#81500AF07A690200
(1612853202.865475) can0 39E#05817F0000000000
(1612853202.865478) can0 329#004000000000218B
(1612853202.865481) can0 470#0000000000000000
(1612853202.873412) can1 4B2#0000000000000000
(1612853202.873416) can0 47C#0000000000000000
(1612853202.873419) can1 4F1#0000000000000000
(1612853202.873422) can0 3CA#800C800C0CAB806B
(1612853202.881578) can0 5E1#04000E580E5A0E59
(1612853202.881581) can0 5E2#04000E650E500DF5
(1612853202.881584) can0 5E3#04000E660E660E66
(1612853202.881588) can1 505#0B00A00000001000
(1612853202.889410) can0 33A#0006000000000000
(1612853202.889416) can1 50C#0000000000000000
(1612853202.889419) can0 380#80727E03E3FFFF7F
(1612853202.889421) can0 316#81500AF07A680200
(1612853202.897415) can0 39E#05817F0000000000
(1612853202.897421) can0 329#004000000000218B
(1612853202.897426) can0 350#01FFB00700007F00
(1612853202.897430) can0 3C5#96D0000000000000
(1612853202.905436) can0 3C9#FFFFFFFFFFFFFFFF
(1612853202.905440) can0 316#81500AF07A680200
(1612853202.905442) can0 350#01FFAFFB00007F00
(1612853202.905445) can0 3BA#0000000000000000
(1612853202.913581) can0 52C#006DB000FE00A100
(1612853202.913586) can0 52D#4E0000003E6D0000
(1612853202.913589) can0 316#81500AF07A680200
(1612853202.913592) can0 3C0#00000A3C7FFF4401
(1612853202.921581) can0 3CA#800C800C0CA1806B
(1612853202.921585) can0 3A0#418001000000000F
(1612853202.921588) can0 316#81500AF07A680200
(1612853202.921603) can0 33A#0006000000000000
(1612853202.929584) can0 38A#0000000000000049
(1612853202.929588) can0 340#0004000000000000
(1612853202.929591) can1 600#0400000000000000
(1612853202.929594) can0 316#81500AF07A810200
(1612853202.937590) can0 350#01FFB00700007F00
(1612853202.937595) can0 329#004000000000218B
(1612853202.937598) can0 360#0000000000240052
(1612853202.937601) can0 316#81500AF07A810200
(1612853202.945577) can0 350#01FFAFFB00007F00
(1612853202.945581) can0 329#004000000000218B
(1612853202.945584) can0 360#0000000000240061
(1612853202.945587) can1 445#FF000B0000040001
(1612853202.953583) can1 461#87586C003EC20000
(1612853202.953587) can1 455#3F3F3F3FFFFFFFFF
(1612853202.953590) can1 46A#646DFF00FF4E113A
(1612853202.953594) can0 3C0#00000A3C7FFF4401
(1612853202.961583) can0 3CA#800F800F0CA18074
(1612853202.961588) can0 3A0#418001000000001E
(1612853202.961591) can0 401#00007F0620000000
(1612853202.961594) can0 33A#0006000000000000
(1612853202.969566) can0 380#80737E03E8FFFF7F
(1612853202.969570) can0 340#0004000000000000
(1612853202.969573) can1 600#0400000000000000
(1612853202.969576) can0 316#81500AF07A810200
(1612853202.977457) can0 39E#05817F0000000000
(1612853202.977460) can0 329#004000000000218B
(1612853202.977463) can0 350#01FFB00700007F00
(1612853202.977467) can1 505#0B00A00000001000
(1612853202.985443) can1 50C#0000000000000000
(1612853202.985448) can1 514#0123010000000000
(1612853202.985451) can1 538#0000000040007FFF
(1612853202.985454) can0 3BA#0000000000000000
(1612853202.993456) can0 316#81500AF07ACC0200
(1612853202.993461) can0 39E#05817F0000000000
(1612853202.993464) can0 329#004000000000218B
(1612853202.993467) can0 3CA#801A801A0CAD8074
(1612853203.001567) can0 3A0#418001000000002D
(1612853203.001571) can0 3C5#96D0000000000000
(1612853203.001574) can0 3C9#FFFFFFFFFFFFFFFF
(1612853203.001576) can0 33A#0006000000000000
(1612853203.009469) can0 380#80727E03E8FFFF7F
(1612853203.009474) can0 340#0004000000000000
(1612853203.009477) can1 600#0400000000000000
(1612853203.009480) can0 525#0000000000128140
(1612853203.017564) can0 52C#006DB000FE00A100
(1612853203.017568) can0 316#81500AF07ACC0200
(1612853203.017571) can0 350#01FFB00700007F00
(1612853203.017574) can0 316#81500AF07ACC0200
(1612853203.025561) can0 39E#05817F0000000000
(1612853203.025565) can0 329#004000000000218B
(1612853203.025568) can0 350#01FFAFFB00007F00
(1612853203.025571) can0 431#33FCE301004293B1
(1612853203.033468) can0 433#0000000000000000
(1612853203.033473) can0 436#0080000000000000
(1612853203.033476) can0 440#0200000000000000
(1612853203.033479) can0 3CA#801A801A0CAD8074
(1612853203.041401) can0 3A0#418001000000003C
(1612853203.041406) can0 316#81500AF07ACC0200
(1612853203.041409) can0 39E#05817F0000000000
(1612853203.041415) can0 33A#0006000000000000
(1612853203.049623) can0 380#80727E03E8FFFF7F
(1612853203.049628) can0 340#0004000000000000
(1612853203.049636) can1 600#0400000000000000
(1612853203.049640) can0 3C9#FFFFFFFFFFFFFFFF
(1612853203.057630) can0 510#00000000270F0000
(1612853203.057636) can0 511#000027B400000000
(1612853203.057641) can0 316#81500AF07ACB0200
(1612853203.057644) can0 316#81500AF07ACB0200
(1612853203.065627) can0 39E#05817F0000000000
(1612853203.065632) can0 329#004000000000218B
(1612853203.065635) can0 350#01FFAFFB00007F00
(1612853203.065641) can0 470#0000000000000000
(1612853203.073629) can1 4B2#0000000000000000
(1612853203.073634) can0 47C#0000000000000000
(1612853203.073640) can1 4F1#0000000000000000
(1612853203.073644) can0 3CA#801380130CA8806B
(1612853203.081610) can0 5E1#0C000E5E0E5C0E5E
(1612853203.081617) can0 5E2#0C000E620E640E62
(1612853203.081621) can0 5E3#0C000E5C0E560E65
(1612853203.081625) can1 505#0B00A00000001000
(1612853203.089623) can0 33A#0006000000000000
(1612853203.089630) can1 50C#0000000000000000
(1612853203.089634) can0 380#80707E03E8FFFF7F
(1612853203.089639) can0 316#81500AF07A9A0200
(1612853203.097612) can0 39E#05817F0000000000
(1612853203.097619) can0 329#004000000000218B
(1612853203.097623) can0 350#01FFB00700007F00
(1612853203.097626) can0 3C5#96D0000000000000
(1612853203.105620) can0 3C9#FFFFFFFFFFFFFFFF
(1612853203.105628) can0 316#81500AF07A9A0200
(1612853203.105631) can0 39E#05817F0000000000
(1612853203.105636) can0 3BA#0000000000000000
(1612853203.113620) can0 52C#006DB000FE00A100
(1612853203.113625) can0 52D#4E0000003E6D0000
(1612853203.113629) can0 316#81500AF07A9A0200
(1612853203.113634) can0 3C0#00000A3C7FFF4401
(1612853203.121618) can0 3CA#801380130CB5806B
(1612853203.121624) can0 3A0#418001000000005A
(1612853203.121628) can0 316#81500AF07A9A0200
(1612853203.121631) can0 33A#0006000000000000
(1612853203.129449) can0 380#80737E03E8FFFF7F
(1612853203.129454) can0 340#0004000000000000
(1612853203.129458) can1 600#0400000000000000
(1612853203.129461) can0 316#81500AF07AB30200
(1612853203.137444) can0 39E#05817F0000000000
(1612853203.137447) can0 329#004000000000218B
(1612853203.137450) can0 350#01FFB00700007F00
(1612853203.137453) can0 316#81500AF07AB30200
(1612853203.145441) can0 39E#05817F0000000000
(1612853203.145445) can0 329#004000000000218B
(1612853203.145448) can0 350#01FFAFFB00007F00
(1612853203.145451) can1 461#87586C003EC20000
(1612853203.153462) can1 46A#646DFF00FF4E113A
(1612853203.153467) can1 445#FF000B0000040001
(1612853203.153470) can1 521#0000000000000022
(1612853203.153473) can0 3C0#00000A3C7FFF4401
(1612853203.161446) can0 3CA#801780170CB5806B
(1612853203.161450) can0 3A0#4180010000000069
(1612853203.161453) can0 401#00007F0620000000
(1612853203.161456) can0 33A#0006000000000000
(1612853203.169368) can0 380#80727E03E8FFFF7F
(1612853203.169372) can0 340#0004000000000000
(1612853203.169375) can1 600#0400000000000000
(1612853203.169378) can0 316#81500AF07AB30200
(1612853203.177359) can0 39E#05817F0000000000
(1612853203.177364) can0 329#004000000000218B
(1612853203.177367) can0 350#01FFB00700007F00
(1612853203.177371) can1 505#0B00A00000001000
(1612853203.185432) can1 50C#0000000000000000
(1612853203.185436) can1 514#0123010000000000
(1612853203.185440) can0 650#A000000000000000
(1612853203.185443) can0 3BA#0000000000000000
(1612853203.193358) can0 316#81500AF07AB30200
(1612853203.193362) can0 39E#05817F0000000000
(1612853203.193365) can0 329#004000000000218B
(1612853203.193368) can0 3CA#801780170CB2806B
(1612853203.201399) can0 3A0#4180010000000078
(1612853203.201404) can0 3C5#96D0000000000000
(1612853203.201406) can0 3C9#FFFFFFFFFFFFFFFF
(1612853203.201409) can0 33A#0006000000000000
(1612853203.209412) can0 380#80727E03E8FFFF7F
(1612853203.209416) can0 340#0004000000000000
(1612853203.209419) can1 600#0400000000000000
(1612853203.209422) can0 525#0000000000128140
(1612853203.217539) can0 52C#006DB000FE00A100
(1612853203.217560) can0 316#81500AF07AB30200
(1612853203.217563) can0 39E#05817F0000000000
(1612853203.217566) can0 316#81500AF07AB30200
(1612853203.225407) can0 39E#05817F0000000000
(1612853203.225412) can0 329#004000000000218B
(1612853203.225415) can0 350#01FFAFFB00007F00
(1612853203.225417) can0 433#0000000000000000
(1612853203.233378) can0 436#0080000000000000
(1612853203.233381) can0 440#0200000000000000
(1612853203.233384) can0 445#FF00030000000000
(1612853203.233387) can0 39A#20FB000B85000000
(1612853203.241423) can0 3C0#00000A3C7FFF4401
(1612853203.241426) can0 3CA#801780170CB2806B
(1612853203.241429) can0 709#0006000000000000
(1612853203.241432) can0 33A#0006000000000000
(1612853203.249422) can0 380#80737E03E8FFFF7F
(1612853203.249426) can0 340#0004000000000000
(1612853203.249430) can1 600#0400000000000000
(1612853203.249432) can0 51A#0000000000000000
(1612853203.257522) can0 316#81500AF07AB30200
(1612853203.257526) can0 39E#05817F0000000000
(1612853203.257529) can0 329#004000000000218B
(1612853203.257532) can0 316#81500AF07AB30200
(1612853203.265522) can0 39E#05817F0000000000
(1612853203.265525) can0 329#004000000000218B
(1612853203.265528) can0 350#01FFAFFB00007F00
(1612853203.265531) can0 470#0000000000000000
(1612853203.273527) can1 4B2#0000000000000000
(1612853203.273533) can0 47C#0000000000000000
(1612853203.273536) can1 4F1#0000000000000000
(1612853203.273539) can0 3CA#801780170CA18074
(1612853203.281521) can0 5E1#14000E5B0E610E66
(1612853203.281525) can0 5E2#14000E620E610E61
(1612853203.281527) can0 5E3#14000E600E5F0E5E
(1612853203.281531) can1 505#0B00A00000001000
(1612853203.289517) can0 33A#0006000000000000
(1612853203.289522) can1 50C#0000000000000000
(1612853203.289525) can0 380#80727E03E8FFFF7F
(1612853203.289527) can0 316#81500AF07AB20200
(1612853203.297511) can0 39E#05817F0000000000
(1612853203.297516) can0 329#004000000000218B
(1612853203.297519) can0 350#01FFB00700007F00
(1612853203.297522) can0 3C5#96D0000000000000
(1612853203.305512) can0 3C9#FFFFFFFFFFFFFFFF
(1612853203.305516) can0 316#81500AF07AB20200
(1612853203.305519) can0 392#0DE6000000800000
(1612853203.305522) can0 3F0#0000000000000000
(1612853203.313389) can0 3CA#801780170CA18074
(1612853203.313393) can0 3BA#0000000000000000
(1612853203.313396) can0 52C#006DB000FE00A100
(1612853203.313398) can0 3C0#00000A3C7FFF4401
(1612853203.321394) can0 3CA#801780170CA18074
(1612853203.321398) can0 3A0#41800100000000A5
(1612853203.321401) can0 316#81500AF07AB20200
(1612853203.321404) can0 33A#0006000000000000
(1612853203.329391) can0 380#80737E03E8FFFF7F
(1612853203.329395) can0 340#0004000000000000
(1612853203.329398) can1 600#0400000000000000
(1612853203.329401) can0 316#81500AF07AB30200
(1612853203.337325) can0 39E#05817F0000000000
(1612853203.337327) can0 329#004000000000218B
(1612853203.337329) can0 350#01FFB00700007F00
(1612853203.337330) can0 316#81500AF07AB30200
(1612853203.345491) can0 39E#05817F0000000000
(1612853203.345494) can0 329#004000000000218B
(1612853203.345496) can0 350#01FFAFFB00007F00
(1612853203.345498) can1 461#87586C003EC20000
(1612853203.353506) can1 46A#646DFF00FF4E113A
(1612853203.353508) can1 521#0000000000000022
(1612853203.353510) can1 445#FF000B0000040001
(1612853203.353512) can0 3C0#00000A3C7FFF4401
(1612853203.361341) can0 5CF#0001000000060000
(1612853203.361343) can0 3CA#801780170CAB8074
(1612853203.361352) can0 3A0#41800100000000B4
(1612853203.361354) can0 33A#0006000000000000
(1612853203.369507) can0 380#80717E03E8FFFF7F
(1612853203.369510) can0 340#0004000000000000
(1612853203.369513) can1 600#0400000000000000
(1612853203.369515) can0 316#81500AF07ACC0200
(1612853203.377516) can0 39E#05817F0000000000
(1612853203.377519) can0 329#004000000000218B
(1612853203.377520) can0 350#01FFB00700007F00
(1612853203.377523) can1 505#0B00A00000001000
(1612853203.385406) can1 50C#0000000000000000
(1612853203.385408) can1 514#0123010000000000
(1612853203.385410) can0 650#A000000000000000
(1612853203.385411) can0 3BA#0000000000000000
(1612853203.393440) can0 316#81500AF07ACC0200
