(1612344471.696395) can0 316#81500AF07A1E0200
(1612344471.696399) can0 329#004500000000218C
(1612344471.696403) can1 600#0400000000000000
(1612344471.696406) can0 380#80727E03E8FFFF7D
(1612344471.704428) can0 38A#000000000000002B
(1612344471.704432) can0 38C#00000000B9017AAD
(1612344471.704434) can0 38F#7E7FE7B900000000
(1612344471.704437) can0 335#0000000000000000
(1612344471.712387) can1 601#000A006A00000000
(1612344471.712393) can0 33A#0006000000000000
(1612344471.712398) can0 340#0004000000000000
(1612344471.712402) can1 396#0004000400000090
(1612344471.720417) can1 39F#0004000400000090
(1612344471.720422) can0 39E#05817F0000000000
(1612344471.720424) can0 3A0#418001000000000F
(1612344471.720427) can0 3F0#0000000000000000
(1612344471.728611) can0 39E#05817F0000000000
(1612344471.728615) can0 316#81500AF07A380200
(1612344471.728619) can0 329#004500000000218C
(1612344471.728621) can0 39E#05817F0000000000
(1612344471.736378) can0 316#81500AF07A380200
(1612344471.736383) can0 329#004500000000218C
(1612344471.736386) can1 600#0400000000000000
(1612344471.736389) can0 380#80737E03E8FFFF7D
(1612344471.744387) can0 38A#0000000000000067
(1612344471.744393) can0 38C#00000000BB1D7AAD
(1612344471.744397) can0 38F#7E7FFBBB00000000
(1612344471.744401) can0 335#0000000000000000
(1612344471.752384) can1 601#000A006A00000000
(1612344471.752391) can0 33A#0006000000000000
(1612344471.752397) can0 340#0004000000000000
(1612344471.752400) can0 39E#05817F0000000000
(1612344471.760368) can0 3A0#418001000000001E
(1612344471.760371) can0 316#81500AF07A380200
(1612344471.760373) can0 525#0000000000007F00
(1612344471.760376) can0 47C#0000000000000000
(1612344471.768379) can0 3F0#0000000000000000
(1612344471.768382) can1 38A#0000000000000000
(1612344471.768384) can1 396#00040004000000C0
(1612344471.768386) can0 39E#05817F0000000000
(1612344471.776362) can0 316#81500AF07A370200
(1612344471.776365) can0 329#004500000000218C
(1612344471.776367) can1 600#0400000000000000
(1612344471.776369) can0 354#50CD000000000000
(1612344471.784356) can0 360#00000000002400AD
(1612344471.784357) can1 44B#6200000090660000
(1612344471.784359) can0 380#80737E03E8FFFF7D
(1612344471.784360) can0 329#004500000000218C
(1612344471.792457) can1 601#000A006A00000000
(1612344471.792459) can0 44D#0000000000000000
(1612344471.792460) can0 335#0000000000000000
(1612344471.792461) can0 39E#05817F0000000000
(1612344471.800560) can0 705#0006000000000000
(1612344471.800562) can0 316#81500AF07A370200
(1612344471.800564) can1 600#0400000000000000
(1612344471.800565) can0 71A#0006000000000000
(1612344471.808439) can0 5E2#10000E6F0E650E6F
(1612344471.808441) can0 70B#0006000000000000
(1612344471.808442) can0 3BA#0000000000000000
(1612344471.808444) can1 38A#0000000000000000
(1612344471.816598) can1 396#00040004000000E0
(1612344471.816600) can1 39F#00040004000000E0
(1612344471.816602) can0 39E#05817F0000000000
(1612344471.816610) can0 380#80727E03E8FFFF7D
(1612344471.824572) can0 38A#00000000000000EF
(1612344471.824577) can0 38C#00000000BF257AAD
(1612344471.824579) can0 38F#7E7FC3BF00000000
(1612344471.824582) can0 335#0000000000000000
(1612344471.832455) can1 601#000A006A00000000
(1612344471.832460) can0 33A#0006000000000000
(1612344471.832463) can0 340#0004000000000000
(1612344471.832466) can0 39E#05817F0000000000
(1612344471.840611) can0 3A0#418001000000003C
(1612344471.840617) can0 316#81500AF07A370200
(1612344471.840620) can0 329#004500000000218C
(1612344471.840624) can1 468#0000000000000000
(1612344471.848604) can1 475#0000000000000000
(1612344471.848609) can1 48A#4000000000000000
(1612344471.848612) can1 48B#004F000000000000
(1612344471.848616) can0 39E#05817F0000000000
(1612344471.856549) can0 316#81500AF07A380200
(1612344471.856553) can0 52C#005A2000FE00A100
(1612344471.856557) can1 600#0400000000000000
(1612344471.856560) can0 34A#0000000000000000
(1612344471.864454) can1 461#07F86B013EC00000
(1612344471.864459) can0 360#0000000000240025
(1612344471.864462) can1 46A#6371FF00FF4E153A
(1612344471.864465) can1 417#0000320000000000
(1612344471.872609) can0 335#0000000000000000
(1612344471.872614) can1 421#0100000000000010
(1612344471.872617) can0 33A#0006000000000000
(1612344471.872620) can0 39E#05817F0000000000
(1612344471.880597) can0 3A0#418001000000004B
(1612344471.880601) can0 316#81500AF07A380200
(1612344471.880604) can0 329#004500000000218C
(1612344471.880607) can0 3F0#0000000000000000
(1612344471.888605) can0 431#33FCE301004293B2
(1612344471.888609) can0 462#07F8600000000000
(1612344471.888612) can0 46B#6371000000001500
(1612344471.888615) can0 39E#05817F0000000000
(1612344471.896386) can0 316#81500AF07A380200
(1612344471.896391) can0 401#00007F0620000000
(1612344471.896394) can1 600#0400000000000000
(1612344471.896398) can0 360#0000000000240061
(1612344471.904603) can0 380#80727E03E8FFFF7D
(1612344471.904607) can0 38A#0000000000000067
(1612344471.904610) can0 38C#00000000C3937AAD
(1612344471.904613) can0 335#0000000000000000
(1612344471.912564) can1 601#000A006A00000000
(1612344471.912569) can0 33A#0006000000000000
(1612344471.912572) can0 340#0004000000000000
(1612344471.912575) can1 396#0004000400000030
(1612344471.920604) can1 39F#0004000400000030
(1612344471.920608) can0 39E#05817F0000000000
(1612344471.920611) can0 3A0#418001000000005A
(1612344471.920614) can0 3F0#0000000000000000
(1612344471.928607) can0 39E#05817F0000000000
(1612344471.928611) can0 316#81500AF07A380200
(1612344471.928614) can0 329#004500000000218C
(1612344471.928617) can0 39E#05817F0000000000
(1612344471.936607) can0 316#81500AF07A380200
(1612344471.936611) can0 329#004500000000218C
(1612344471.936614) can1 600#0400000000000000
(1612344471.936617) can0 360#00000000002400AD
(1612344471.944605) can0 380#80717E03EDFFFF7D
(1612344471.944609) can0 38A#00000000000000A3
(1612344471.944612) can0 38C#00000000C5B77AAD
(1612344471.944614) can0 335#0000000000000000
(1612344471.952634) can1 601#000A006A00000000
(1612344471.952638) can0 33A#0006000000000000
(1612344471.952641) can0 340#0004000000000000
(1612344471.952644) can0 39E#05817F0000000000
(1612344471.960377) can0 3A0#4180010000000069
(1612344471.960382) can0 316#81500AF07A380200
(1612344471.960385) can0 525#0000000000007F00
(1612344471.960388) can0 47C#0000000000000000
(1612344471.968436) can0 3F0#0000000000000000
(1612344471.968443) can1 38A#0000000000000000
(1612344471.968448) can1 396#0004000400000060
(1612344471.968452) can0 39E#05817F0000000000
(1612344471.976414) can0 316#81500AF07A380200
(1612344471.976418) can0 329#004500000000218C
(1612344471.976422) can1 600#0400000000000000
(1612344471.976425) can0 354#50CD000000000000
(1612344471.984419) can0 360#00000000002400E9
(1612344471.984423) can1 44B#6200000090660000
(1612344471.984425) can0 380#80737E03EDFFFF7D
(1612344471.984428) can0 329#004500000000218C
(1612344471.992386) can1 601#000A006A00000000
(1612344471.992388) can0 44D#0000000000000000
(1612344471.992389) can0 335#0000000000000000
(1612344471.992390) can0 39E#05817F0000000000
(1612344472.000383) can0 401#00007F0620000000
(1612344472.000384) can0 3A0#4180010000000078
(1612344472.000385) can0 316#81500AF07A370200
(1612344472.000385) can0 3F0#0000000000000000
(1612344472.008352) can0 39E#05817F0000000000
(1612344472.008353) can0 316#81500AF07A370200
(1612344472.008353) can0 329#004500000000218C
(1612344472.008354) can0 5E4#18000E6D0E680E64
(1612344472.016555) can0 5E5#103D3D3D3D3D3D3D
(1612344472.016557) can1 38A#0000000000000000
(1612344472.016557) can1 396#0004000400000080
(1612344472.016558) can0 380#80727E03E8FFFF7D
(1612344472.024400) can0 38A#000000000000002B
(1612344472.024401) can0 38C#00000000C9FF7AAD
(1612344472.024402) can0 38F#7E7F19C900000000
(1612344472.024403) can0 335#0000000000000000
(1612344472.032547) can1 601#000A006A00000000
(1612344472.032548) can0 33A#0006000000000000
(1612344472.032548) can0 340#0004000000000000
(1612344472.032549) can0 39E#05817F0000000000
(1612344472.040552) can0 3A0#4180010000000087
(1612344472.040553) can0 316#81500AF07A370200
(1612344472.040553) can0 329#004500000000218C
(1612344472.040554) can1 468#0000000000000000
(1612344472.048695) can1 475#0000000000000000
(1612344472.048696) can1 48A#4000000000000000
(1612344472.048697) can1 48B#004F000000000000
(1612344472.048697) can0 39E#05817F0000000000
(1612344472.056591) can0 316#81500AF07A380200
(1612344472.056592) can0 52C#005A2000FE00A100
(1612344472.056593) can1 600#0400000000000000
(1612344472.056594) can0 34A#0000000000000000
(1612344472.064637) can1 461#07F86B013EC00000
(1612344472.064639) can0 360#0000000000240061
(1612344472.064640) can1 46A#6371FF00FF4E153A
(1612344472.064641) can1 417#0000320000000000
(1612344472.072596) can0 335#0000000000000000
(1612344472.072599) can1 421#0100000000000010
(1612344472.072601) can0 33A#0006000000000000
(1612344472.072602) can0 39E#05817F0000000000
(1612344472.080614) can0 3A0#4180010000000096
(1612344472.080619) can0 316#81500AF07A380200
(1612344472.080622) can0 329#004500000000218C
(1612344472.080624) can0 3F0#0000000000000000
(1612344472.088436) can0 431#33FCE301004293B2
(1612344472.088441) can0 462#07F8600000000000
(1612344472.088444) can0 46B#6371000000001500
(1612344472.088447) can0 401#00007F0620000000
(1612344472.096601) can0 39E#05817F0000000000
(1612344472.096605) can0 316#81500AF07A380200
(1612344472.096608) can0 329#004500000000218C
(1612344472.096611) can0 380#80737E03E8FFFF7D
(1612344472.104606) can0 38A#00000000000000A3
(1612344472.104610) can0 38C#00000000CDB67AAE
(1612344472.104613) can0 38F#7E7F21CD00000000
(1612344472.104616) can0 335#0000000000000000
(1612344472.112599) can1 601#000A006A00000000
(1612344472.112616) can0 33A#0006000000000000
(1612344472.112619) can0 340#0004000000000000
(1612344472.112622) can1 396#00040004000000D0
(1612344472.120601) can1 39F#00040004000000D0
(1612344472.120606) can0 39E#05817F0000000000
(1612344472.120609) can0 3A0#41800100000000A5
(1612344472.120612) can0 3F0#0000000000000000
(1612344472.128600) can0 39E#05817F0000000000
(1612344472.128604) can0 316#81500AF07A370200
(1612344472.128607) can0 329#004500000000218C
(1612344472.128610) can0 39E#05817F0000000000
(1612344472.136603) can0 316#81500AF07A370200
(1612344472.136607) can0 329#004500000000218C
(1612344472.136611) can1 600#0400000000000000
(1612344472.136614) can0 360#00000000002400E9
(1612344472.144605) can0 380#80737E03E8FFFF7D
(1612344472.144609) can0 38A#00000000000000EF
(1612344472.144612) can0 38C#00000000CFDB7AAD
(1612344472.144615) can0 335#0000000000000000
(1612344472.152565) can1 601#000A006A00000000
(1612344472.152570) can0 33A#0006000000000000
(1612344472.152573) can0 340#0004000000000000
(1612344472.152576) can0 39E#05817F0000000000
(1612344472.160594) can0 3A0#41800100000000B4
(1612344472.160599) can0 316#81500AF07A370200
(1612344472.160602) can0 525#0000000000007F00
(1612344472.160604) can0 47C#0000000000000000
(1612344472.168385) can0 3F0#0000000000000000
(1612344472.168392) can1 38A#0000000000000000
(1612344472.168396) can1 396#0004000400000000
(1612344472.168399) can0 39E#05817F0000000000
(1612344472.176375) can0 316#81500AF07A370200
(1612344472.176380) can0 329#004500000000218C
(1612344472.176384) can1 600#0400000000000000
(1612344472.176387) can0 354#50CD000000000000
(1612344472.184565) can0 360#0000000000240025
(1612344472.184570) can0 380#80727E03E8FFFF7D
(1612344472.184574) can1 44B#6200000090660000
(1612344472.184577) can1 601#000A006A00000000
(1612344472.192570) can0 329#004500000000218C
(1612344472.192575) can0 44D#0000000000000000
(1612344472.192578) can0 335#0000000000000000
(1612344472.192581) can0 39E#05817F0000000000
(1612344472.200570) can0 3A0#41800100000000C3
(1612344472.200575) can0 316#81500AF07A370200
(1612344472.200578) can0 329#004500000000218C
(1612344472.200581) can0 3F0#0000000000000000
(1612344472.208448) can0 39E#05817F0000000000
(1612344472.208453) can0 316#81500AF07A370200
(1612344472.208456) can0 329#004500000000218C
(1612344472.208459) can0 5E5#303D3D433D3D3DFF
(1612344472.216592) can1 38A#0000000000000000
(1612344472.216597) can1 396#0004000400000020
(1612344472.216600) can1 39F#0004000400000020
(1612344472.216604) can0 360#0000000000240061
(1612344472.224376) can0 380#80737E03E8FFFF7D
(1612344472.224384) can0 38A#0000000000000067
(1612344472.224389) can0 38C#00000000D3737AAD
(1612344472.224393) can0 329#004500000000218C
(1612344472.232603) can1 601#000A006A00000000
(1612344472.232609) can0 335#0000000000000000
(1612344472.232612) can1 519#0000000000000000
(1612344472.232615) can0 39E#05817F0000000000
(1612344472.240613) can0 3A0#41800100000000D2
(1612344472.240619) can0 316#81500AF07A370200
(1612344472.240622) can0 329#004500000000218C
(1612344472.240626) can1 468#0000000000000000
(1612344472.248601) can1 475#0000000000000000
(1612344472.248607) can1 48A#4000000000000000
(1612344472.248610) can1 48B#004F000000000000
(1612344472.248613) can0 39E#05817F0000000000
(1612344472.256602) can0 316#81500AF07A370200
(1612344472.256608) can0 52C#005A2000FE00A100
(1612344472.256623) can1 600#0400000000000000
(1612344472.256627) can0 34A#0000000000000000
(1612344472.264574) can1 461#07F86B013EC00000
(1612344472.264579) can0 360#00000000002400AD
(1612344472.264582) can1 46A#6371FF00FF4E153A
(1612344472.264585) can1 417#0000320000000000
(1612344472.272612) can0 335#0000000000000000
(1612344472.272618) can1 421#0100000000000010
(1612344472.272621) can0 33A#0006000000000000
(1612344472.272624) can1 539#0000000000001000
(1612344472.280374) can1 724#0006000000000000
(1612344472.280379) can1 72A#0006000000000000
(1612344472.280383) can0 39E#05817F0000000000
(1612344472.280386) can0 3F0#0000000000000000
(1612344472.288430) can0 431#33FCE301004293B2
(1612344472.288436) can0 462#07F8600000000000
(1612344472.288439) can0 46B#6371000000001500
(1612344472.288442) can0 401#00007F0620000000
(1612344472.296578) can0 39E#05817F0000000000
(1612344472.296583) can0 316#81500AF07A370200
(1612344472.296586) can0 329#004500000000218C
(1612344472.296589) can0 360#00000000002400E9
(1612344472.304600) can0 380#80737E03E8FFFF7D
(1612344472.304605) can0 38A#00000000000000EF
(1612344472.304608) can0 38C#00000000D74B7AAD
(1612344472.304612) can1 601#000A006A00000000
(1612344472.312393) can0 335#0000000000000000
(1612344472.312400) can0 33A#0006000000000000
(1612344472.312404) can0 340#0004000000000000
(1612344472.312409) can1 396#0004000400000070
(1612344472.320391) can1 39F#0004000400000070
(1612344472.320396) can0 39E#05817F0000000000
(1612344472.320399) can0 3A0#41800100000000F0
(1612344472.320402) can0 3F0#0000000000000000
(1612344472.328367) can0 39E#05817F0000000000
(1612344472.328372) can0 316#81500AF07A370200
(1612344472.328375) can0 329#004500000000218C
(1612344472.328378) can0 39E#05817F0000000000
(1612344472.336363) can0 316#81500AF07A370200
(1612344472.336368) can0 329#004500000000218C
(1612344472.336372) can1 600#0400000000000000
(1612344472.336375) can0 360#0000000000240025
(1612344472.344362) can0 380#80737E03E8FFFF7D
(1612344472.344367) can0 38A#000000000000002B
(1612344472.344370) can0 38C#00000000D91F7AAD
(1612344472.344374) can1 601#000A006A00000000
(1612344472.352477) can0 335#0000000000000000
(1612344472.352482) can0 33A#0006000000000000
(1612344472.352486) can0 340#0004000000000000
(1612344472.352489) can0 39E#05817F0000000000
(1612344472.360457) can0 3A0#418001000000000F
(1612344472.360464) can0 316#81500AF07A380200
(1612344472.360467) can0 525#0000000000007F00
(1612344472.360470) can0 47C#0000000000000000
(1612344472.368443) can0 3F0#0000000000000000
(1612344472.368452) can1 38A#0000000000000000
(1612344472.368457) can1 396#00040004000000A0
(1612344472.368462) can0 39E#05817F0000000000
(1612344472.376462) can0 316#81500AF07A1E0200
(1612344472.376470) can1 600#0400000000000000
(1612344472.376473) can0 329#004500000000218C
(1612344472.376475) can0 354#50CD000000000000
(1612344472.384439) can0 360#0000000000240061
(1612344472.384445) can0 380#80727E03E8FFFF7D
(1612344472.384449) can1 44B#6200000090660000
(1612344472.384452) can1 601#000A006A00000000
(1612344472.392493) can0 329#004500000000218C
(1612344472.392499) can0 44D#0000000000000000
(1612344472.392502) can0 335#0000000000000000
(1612344472.392505) can0 39E#05817F0000000000
(1612344472.400463) can0 3A0#418001000000001E
(1612344472.400469) can0 316#81500AF07A1E0200
(1612344472.400473) can1 600#0400000000000000
(1612344472.400488) can0 576#00078D980C01635C
(1612344472.408499) can0 577#24BF24A000000000
(1612344472.408505) can0 5D1#0104424E204E2042
(1612344472.408508) can0 5D2#0000000CA0271000
(1612344472.408511) can0 5E5#503D3D3E3DFFFFFF
(1612344472.416507) can1 38A#0000000000000000
(1612344472.416512) can1 396#00040004000000C0
(1612344472.416516) can1 39F#00040004000000C0
(1612344472.416519) can0 360#00000000002400AD
(1612344472.424440) can0 380#80717E03E8FFFF7D
(1612344472.424445) can0 38A#00000000000000A3
(1612344472.424448) can0 38C#00000000DD277AAD
(1612344472.424451) can1 601#000A006A00000000
(1612344472.432368) can0 335#0000000000000000
(1612344472.432374) can0 33A#0006000000000000
(1612344472.432377) can0 340#0004000000000000
(1612344472.432380) can0 39E#05817F0000000000
(1612344472.440367) can0 3A0#418001000000002D
(1612344472.440373) can0 316#81500AF07A370200
(1612344472.440377) can0 329#004500000000218C
(1612344472.440381) can1 468#0000000000000000
(1612344472.448429) can1 475#0000000000000000
(1612344472.448434) can1 48A#4000000000000000
(1612344472.448437) can1 48B#004F000000000000
(1612344472.448441) can0 39E#05817F0000000000
(1612344472.456370) can0 316#81500AF07A370200
(1612344472.456377) can0 52C#005A2000FE00A100
(1612344472.456381) can1 600#0400000000000000
(1612344472.456384) can0 34A#0000000000000000
(1612344472.464437) can1 461#07F86B013EC00000
(1612344472.464442) can0 360#00000000002400E9
(1612344472.464445) can1 46A#6371FF00FF4E153A
(1612344472.464448) can1 417#0000320000000000
(1612344472.472367) can0 335#0000000000000000
(1612344472.472373) can1 421#0100000000000010
(1612344472.472377) can0 33A#0006000000000000
(1612344472.472381) can0 39E#05817F0000000000
(1612344472.480349) can0 3A0#418001000000003C
(1612344472.480352) can0 316#81500AF07A370200
(1612344472.480353) can0 329#004500000000218C
(1612344472.480355) can0 3F0#0000000000000000
(1612344472.488346) can0 431#33FCE301004293B2
(1612344472.488348) can0 462#07F8600000000000
(1612344472.488350) can0 46B#6371000000001500
(1612344472.488351) can0 401#00007F0620000000
(1612344472.496343) can0 39E#05817F0000000000
(1612344472.496345) can0 316#81500AF07A370200
(1612344472.496346) can1 600#0400000000000000
(1612344472.496347) can0 360#0000000000240025
(1612344472.504347) can0 380#80737E03E8FFFF7D
(1612344472.504349) can0 38A#000000000000002B
(1612344472.504349) can0 38C#00000000E1607AAD
(1612344472.504350) can1 601#000A006A00000000
(1612344472.512651) can0 335#0000000000000000
(1612344472.512653) can0 33A#0006000000000000
(1612344472.512654) can0 3BA#0000000000000000
(1612344472.512654) can1 396#0004000400000010
(1612344472.520548) can1 39F#0004000400000010
(1612344472.520549) can0 39E#05817F0000000000
(1612344472.520550) can0 3A0#418001000000004B
(1612344472.520550) can0 3F0#0000000000000000
(1612344472.528655) can0 39E#05817F0000000000
(1612344472.528657) can0 316#81500AF07A1E0200
(1612344472.528657) can0 329#004500000000218C
(1612344472.528658) can1 457#01FF01FF01FF01FF
(1612344472.536544) can1 458#68B668B6C960C960
(1612344472.536545) can0 39E#05817F0000000000
(1612344472.536546) can0 316#81500AF07A1E0200
(1612344472.536547) can0 354#50CD000000000000
(1612344472.544542) can0 360#0000000000240061
(1612344472.544543) can0 380#80737E03E8FFFF7D
(1612344472.544544) can0 38A#0000000000000067
(1612344472.544544) can1 601#000A006A00000000
(1612344472.552529) can0 335#0000000000000000
(1612344472.552530) can0 3BA#0000000000000000
(1612344472.552530) can0 33A#0006000000000000
(1612344472.552531) can0 39E#05817F0000000000
(1612344472.560516) can0 3A0#418001000000005A
(1612344472.560517) can0 316#81500AF07A1E0200
(1612344472.560518) can1 600#0400000000000000
(1612344472.560519) can0 47C#0000000000000000
(1612344472.568493) can0 3F0#0000000000000000
(1612344472.568494) can1 38A#0000000000000000
(1612344472.568495) can1 396#0004000400000040
(1612344472.568496) can0 39E#05817F0000000000
(1612344472.576472) can0 316#81500AF07A1E0200
(1612344472.576474) can1 600#0400000000000000
(1612344472.576475) can0 329#004500000000218C
(1612344472.576476) can0 354#50CD000000000000
(1612344472.584450) can0 360#00000000002400AD
(1612344472.584452) can0 380#80707E03E8FFFF7D
(1612344472.584454) can1 44B#6200000090660000
(1612344472.584455) can1 601#000A006A00000000
(1612344472.592443) can0 329#004500000000218C
(1612344472.592445) can0 3BA#0000000000000000
(1612344472.592446) can0 335#0000000000000000
(1612344472.592447) can0 39E#05817F0000000000
(1612344472.600364) can0 3A0#4180010000000069
(1612344472.600367) can0 316#81500AF07A1E0200
(1612344472.600369) can1 600#0400000000000000
(1612344472.600371) can0 3F0#0000000000000000
(1612344472.608483) can0 39E#05817F0000000000
(1612344472.608487) can0 316#81500AF07A1E0200
(1612344472.608490) can1 600#0400000000000000
(1612344472.608493) can0 5E5#203D3D3D3D3E3DFF
(1612344472.616403) can1 38A#0000000000000000
(1612344472.616408) can1 396#0004000400000060
(1612344472.616411) can1 39F#0004000400000060
(1612344472.616413) can0 360#00000000002400E9
(1612344472.624360) can0 380#80717E03E8FFFF7D
(1612344472.624364) can0 38A#00000000000000EF
(1612344472.624367) can0 38C#00000000E7447AAD
(1612344472.624370) can1 601#000A006A00000000
(1612344472.632589) can0 335#0000000000000000
(1612344472.632593) can0 3BA#0000000000000000
(1612344472.632595) can0 33A#0006000000000000
(1612344472.632598) can0 3A0#4180010000000078
(1612344472.640389) can0 39E#05817F0000000000
(1612344472.640393) can0 316#81500AF07A1E0200
(1612344472.640396) can1 600#0400000000000000
(1612344472.640399) can1 475#0000000000000000
(1612344472.648664) can1 48A#4000000000000000
(1612344472.648670) can1 48B#004F000000000000
(1612344472.648674) can0 3F0#0000000000000000
(1612344472.648676) can0 39E#05817F0000000000
(1612344472.656402) can0 316#81500AF07A1E0200
(1612344472.656407) can1 600#0400000000000000
(1612344472.656411) can0 52C#005A2000FE00A100
(1612344472.656415) can0 350#01FFAFFB00007F00
(1612344472.664647) can1 461#07F86B013EC00000
(1612344472.664653) can0 354#50CD000000000000
(1612344472.664657) can1 46A#6371FF00FF4E153A
(1612344472.664659) can1 417#0000320000000000
(1612344472.672401) can0 335#0000000000000000
(1612344472.672406) can1 421#0100000000000010
(1612344472.672409) can0 3BA#0000000000000000
(1612344472.672411) can0 3A0#4180010000000087
(1612344472.680608) can0 39E#05817F0000000000
(1612344472.680615) can0 316#81500AF07A370200
(1612344472.680620) can1 600#0400000000000000
(1612344472.680623) can0 3F0#0000000000000000
(1612344472.688400) can0 431#33FCE301004293B2
(1612344472.688404) can0 462#07F8600000000000
(1612344472.688407) can0 46B#6371000000001500
(1612344472.688409) can0 401#00007F0620000000
(1612344472.696482) can0 39E#05817F0000000000
(1612344472.696499) can0 316#81500AF07A370200
(1612344472.696502) can1 600#0400000000000000
(1612344472.696504) can0 360#0000000000240061
(1612344472.704422) can0 380#80727E03E8FFFF7D
(1612344472.704427) can0 38A#0000000000000067
(1612344472.704430) can0 38C#00000000EB0C7AAD
(1612344472.704433) can1 601#000A006A00000000
(1612344472.712430) can0 335#0000000000000000
(1612344472.712434) can0 3BA#0000000000000000
(1612344472.712437) can0 33A#0006000000000000
(1612344472.712440) can1 396#00040004000000B0
(1612344472.720427) can1 39F#00040004000000B0
(1612344472.720431) can0 3A0#4180010000000096
(1612344472.720434) can0 39E#05817F0000000000
(1612344472.720436) can0 3F0#0000000000000000
(1612344472.728361) can0 39E#05817F0000000000
(1612344472.728367) can0 316#81500AF07A370200
(1612344472.728372) can1 600#0400000000000000
(1612344472.728375) can1 456#0FFF0FFF0FFF0FFF
(1612344472.736588) can1 457#01FF01FF01FF01FF
(1612344472.736593) can0 39E#05817F0000000000
(1612344472.736596) can0 316#81500AF07A370200
(1612344472.736598) can0 350#01FFAFFB00007F00
(1612344472.744589) can0 360#00000000002400AD
(1612344472.744593) can0 380#80737E03E8FFFF7D
(1612344472.744596) can0 38A#00000000000000A3
(1612344472.744599) can1 601#000A006A00000000
(1612344472.752363) can0 335#0000000000000000
(1612344472.752368) can0 3BA#0000000000000000
(1612344472.752371) can0 33A#0006000000000000
(1612344472.752375) can0 3A0#41800100000000A5
(1612344472.760361) can0 39E#05817F0000000000
(1612344472.760367) can0 316#81500AF07A370200
(1612344472.760372) can1 600#0400000000000000
(1612344472.760376) can0 47C#0000000000000000
(1612344472.768364) can0 3F0#0000000000000000
(1612344472.768370) can1 38A#0000000000000000
(1612344472.768373) can1 396#00040004000000E0
(1612344472.768378) can0 39E#05817F0000000000
(1612344472.776348) can0 316#81500AF07A370200
(1612344472.776350) can1 600#0400000000000000
(1612344472.776352) can0 329#004500000000218C
(1612344472.776353) can0 350#01FFAFFB00007F00
(1612344472.784346) can0 360#00000000002400E9
(1612344472.784347) can0 380#80727E03E8FFFF7D
(1612344472.784349) can0 38A#00000000000000EF
(1612344472.784350) can1 601#000A006A00000000
(1612344472.792346) can0 329#004500000000218C
(1612344472.792347) can0 3BA#0000000000000000
(1612344472.792348) can0 335#0000000000000000
(1612344472.792349) can0 3A0#41800100000000B4
(1612344472.800384) can0 39E#05817F0000000000
(1612344472.800385) can0 316#81500AF07A370200
(1612344472.800387) can1 600#0400000000000000
(1612344472.800387) can0 3BA#0000000000000000
(1612344472.808536) can0 3F0#0000000000000000
(1612344472.808537) can0 4A2#130101082F000000
(1612344472.808538) can0 70F#0006000000000000
(1612344472.808538) can0 708#0006000000000000
(1612344472.816527) can1 38A#0000000000000000
(1612344472.816528) can1 396#0004000400000000
(1612344472.816528) can1 39F#0004000400000000
(1612344472.816529) can0 350#01FFAFFB00007F00
(1612344472.824413) can0 360#0000000000240025
(1612344472.824414) can0 380#80727E03E8FFFF7D
(1612344472.824415) can0 38A#000000000000002B
(1612344472.824416) can1 601#000A006A00000000
(1612344472.832532) can0 3BA#0000000000000000
(1612344472.832534) can0 335#0000000000000000
(1612344472.832534) can0 33A#0006000000000000
(1612344472.832535) can0 3A0#41800100000000C3
(1612344472.840544) can0 39E#05817F0000000000
(1612344472.840545) can0 316#81500AF07A380200
(1612344472.840549) can1 600#0400000000000000
(1612344472.840550) can1 475#0000000000000000
(1612344472.848402) can1 48A#4000000000000000
(1612344472.848407) can1 48B#004F000000000000
(1612344472.848411) can0 3F0#0000000000000000
(1612344472.848414) can0 39E#05817F0000000000
(1612344472.856364) can0 316#81500AF07A380200
(1612344472.856371) can1 600#0400000000000000
(1612344472.856375) can0 52C#005A2000FE00A100
(1612344472.856379) can0 350#01FFAFFB00007F00
(1612344472.864360) can1 461#07F86B013EC00000
(1612344472.864365) can0 354#50CD000000000000
(1612344472.864369) can1 46A#6371FF00FF4E153A
(1612344472.864371) can1 417#0000320000000000
(1612344472.872370) can0 3BA#0000000000000000
(1612344472.872377) can1 421#0100000000000010
(1612344472.872381) can0 335#0000000000000000
(1612344472.872386) can0 3A0#41800100000000D2
(1612344472.880404) can0 39E#05817F0000000000
(1612344472.880409) can0 316#81500AF07A380200
(1612344472.880413) can1 600#0400000000000000
(1612344472.880416) can0 3F0#0000000000000000
(1612344472.888406) can0 431#33FCE301004293B2
(1612344472.888410) can0 462#07F8600000000000
(1612344472.888413) can0 46B#6371000000001500
(1612344472.888416) can0 39E#05817F0000000000
(1612344472.896604) can0 316#81500AF07A380200
(1612344472.896609) can1 600#0400000000000000
(1612344472.896612) can0 329#004500000000218C
(1612344472.896615) can0 350#01FFAFFB00007F00
(1612344472.904371) can0 360#00000000002400AD
(1612344472.904375) can0 380#80737E03E8FFFF7D
(1612344472.904378) can0 38A#00000000000000A3
(1612344472.904381) can0 329#004500000000218C
(1612344472.912437) can1 601#000A006A00000000
(1612344472.912441) can0 335#0000000000000000
(1612344472.912444) can0 33A#0006000000000000
(1612344472.912447) can1 396#0004000400000050
(1612344472.920590) can1 39F#0004000400000050
(1612344472.920596) can0 3A0#41800100000000E1
(1612344472.920600) can0 39E#05817F0000000000
(1612344472.920604) can0 3F0#0000000000000000
(1612344472.928586) can0 39E#05817F0000000000
(1612344472.928590) can0 316#81500AF07A370200
(1612344472.928594) can1 600#0400000000000000
(1612344472.928597) can1 459#4100410041004100
(1612344472.936592) can1 456#0FFF0FFF0FFF0FFF
(1612344472.936596) can1 457#01FF01FF01FF01FF
(1612344472.936600) can0 39E#05817F0000000000
(1612344472.936603) can0 350#01FFAFFB00007F00
(1612344472.944593) can0 360#00000000002400E9
(1612344472.944597) can0 380#80727E03E8FFFF7D
(1612344472.944600) can0 38A#00000000000000EF
(1612344472.944603) can0 329#004500000000218C
(1612344472.952592) can1 601#000A006A00000000
(1612344472.952596) can0 335#0000000000000000
(1612344472.952599) can0 33A#0006000000000000
(1612344472.952602) can0 3A0#41800100000000F0
(1612344472.960361) can0 39E#05817F0000000000
(1612344472.960365) can0 316#81500AF07A370200
(1612344472.960369) can1 600#0400000000000000
(1612344472.960372) can0 47C#0000000000000000
(1612344472.968596) can0 3F0#0000000000000000
(1612344472.968601) can1 38A#0000000000000000
(1612344472.968605) can1 396#0004000400000080
(1612344472.968608) can0 39E#05817F0000000000
(1612344472.976596) can0 316#81500AF07A370200
(1612344472.976601) can1 600#0400000000000000
(1612344472.976605) can0 329#004500000000218C
(1612344472.976607) can0 350#01FFAFFB00007F00
(1612344472.984371) can0 360#0000000000240025
(1612344472.984377) can0 380#80707E03E8FFFF7D
(1612344472.984381) can0 38A#000000000000002B
(1612344472.984401) can1 601#000A006A00000000
(1612344472.992405) can0 329#004500000000218C
(1612344472.992410) can0 3C5#96D0000000000000
(1612344472.992412) can0 335#0000000000000000
(1612344472.992415) can0 3A0#418001000000000F
(1612344473.000406) can0 39E#05817F0000000000
(1612344473.000410) can0 316#81500AF07A370200
(1612344473.000414) can1 600#0400000000000000
(1612344473.000417) can0 3F0#0000000000000000
(1612344473.008405) can0 39E#05817F0000000000
(1612344473.008410) can0 3BA#0000000000000000
(1612344473.008413) can0 316#81500AF07A370200
(1612344473.008416) can0 5E5#103D3D3D3D3D3D3D
(1612344473.016379) can1 38A#0000000000000000
(1612344473.016382) can1 396#00040004000000A0
(1612344473.016383) can1 39F#00040004000000A0
(1612344473.016385) can0 350#01FFAFFB00007F00
(1612344473.024373) can0 360#0000000000240061
(1612344473.024374) can0 380#80737E03E8FFFF7D
(1612344473.024375) can0 38A#0000000000000067
(1612344473.024376) can0 329#004500000000218C
(1612344473.032368) can1 601#000A006A00000000
(1612344473.032370) can0 335#0000000000000000
(1612344473.032370) can0 33A#0006000000000000
(1612344473.032371) can0 3A0#418001000000001E
(1612344473.040379) can0 39E#05817F0000000000
(1612344473.040380) can0 316#81500AF07A370200
(1612344473.040381) can1 600#0400000000000000
(1612344473.040381) can1 475#0000000000000000
(1612344473.048572) can1 48A#4000000000000000
(1612344473.048574) can1 48B#004F000000000000
(1612344473.048576) can0 3F0#0000000000000000
(1612344473.048576) can0 39E#05817F0000000000
(1612344473.056492) can0 316#81500AF07A370200
(1612344473.056493) can1 600#0400000000000000
(1612344473.056494) can0 52C#005A2000FE00A100
(1612344473.056495) can0 350#01FFAFFB00007F00
(1612344473.064585) can1 461#07F86B013EC00000
(1612344473.064588) can0 354#50CD000000000000
(1612344473.064589) can1 46A#6371FF00FF4E153A
(1612344473.064589) can1 417#0000320000000000
(1612344473.072548) can0 335#0000000000000000
(1612344473.072549) can1 421#0100000000000010
(1612344473.072550) can0 33A#0006000000000000
(1612344473.072551) can0 3A0#418001000000002D
(1612344473.080695) can0 39E#05817F0000000000
(1612344473.080697) can0 316#81500AF07A370200
(1612344473.080698) can1 600#0400000000000000
(1612344473.080698) can0 3F0#0000000000000000
(1612344473.088626) can0 431#33FCE301004293B2
(1612344473.088628) can0 462#07F8600000000000
(1612344473.088629) can0 46B#6371000000001500
(1612344473.088629) can0 39E#05817F0000000000
(1612344473.096647) can0 316#81500AF07A1E0200
(1612344473.096649) can1 600#0400000000000000
(1612344473.096650) can0 329#004500000000218C
(1612344473.096650) can0 350#01FFAFFB00007F00
(1612344473.104613) can0 360#00000000002400E9
(1612344473.104615) can0 380#80737E03E8FFFF7D
(1612344473.104617) can0 38A#00000000000000EF
(1612344473.104618) can1 601#000A006A00000000
(1612344473.112609) can0 335#0000000000000000
(1612344473.112612) can0 33A#0006000000000000
(1612344473.112614) can0 340#0004000000000000
(1612344473.112616) can1 396#00040004000000F0
(1612344473.120574) can0 3A0#418001000000003C
(1612344473.120579) can1 39F#00040004000000F0
(1612344473.120581) can0 39E#05817F0000000000
(1612344473.120584) can0 3F0#0000000000000000
(1612344473.128562) can0 39E#05817F0000000000
(1612344473.128568) can0 3BA#0000000000000000
(1612344473.128571) can0 316#81500AF07A1E0200
(1612344473.128575) can1 455#3F3F3F3FFFFFFFFF
(1612344473.136592) can1 459#4100410041004100
(1612344473.136597) can1 456#0FFF0FFF0FFF0FFF
(1612344473.136600) can1 457#01FF01FF01FF01FF
(1612344473.136604) can0 3C0#000007087FFF4401
(1612344473.144592) can0 350#01FFAFFB00007F00
(1612344473.144597) can0 360#0000000000240025
(1612344473.144600) can0 380#80737E03E8FFFF7D
(1612344473.144604) can1 601#000A006A00000000
(1612344473.152359) can0 335#0000000000000000
(1612344473.152365) can0 33A#0006000000000000
(1612344473.152368) can0 340#0004000000000000
(1612344473.152371) can0 3A0#418001000000004B
(1612344473.160595) can0 39E#05817F0000000000
(1612344473.160601) can0 316#81500AF07A1E0200
(1612344473.160604) can1 600#0400000000000000
(1612344473.160607) can0 47C#0000000000000000
(1612344473.168585) can0 3F0#0000000000000000
(1612344473.168590) can1 38A#0000000000000000
(1612344473.168594) can1 396#0004000400000020
(1612344473.168597) can0 39E#05817F0000000000
(1612344473.176361) can0 316#81500AF07A370200
(1612344473.176367) can1 600#0400000000000000
(1612344473.176370) can0 329#004500000000218C
(1612344473.176373) can0 350#01FFAFFB00007F00
(1612344473.184407) can0 360#0000000000240061
(1612344473.184412) can0 380#80727E03E8FFFF7D
(1612344473.184416) can0 38A#0000000000000067
(1612344473.184419) can1 601#000A006A00000000
(1612344473.192589) can0 329#004500000000218C
(1612344473.192594) can0 3C9#FFFFFFFFFFFFFFFF
(1612344473.192597) can0 335#0000000000000000
(1612344473.192600) can0 3A0#418001000000005A
(1612344473.200550) can0 39E#05817F0000000000
(1612344473.200556) can0 316#81500AF07A370200
(1612344473.200559) can1 600#0400000000000000
(1612344473.200563) can0 3F0#0000000000000000
(1612344473.208584) can0 39E#05817F0000000000
(1612344473.208589) can0 3BA#0000000000000000
(1612344473.208592) can0 316#81500AF07A370200
(1612344473.208596) can1 38A#0000000000000000
(1612344473.216530) can1 396#0004000400000040
(1612344473.216535) can1 39F#0004000400000040
(1612344473.216539) can0 39E#05817F0000000000
(1612344473.216542) can0 350#01FFAFFB00007F00
(1612344473.224511) can0 360#00000000002400AD
(1612344473.224516) can0 380#80727E03E8FFFF7D
(1612344473.224519) can0 38A#00000000000000A3
(1612344473.224523) can1 601#000A006A00000000
(1612344473.232436) can0 329#004500000000218C
(1612344473.232442) can1 519#0000000000000000
(1612344473.232445) can0 335#0000000000000000
(1612344473.232448) can0 3A0#4180010000000069
(1612344473.240550) can0 39E#05817F0000000000
(1612344473.240556) can0 3C5#96D0000000000000
(1612344473.240559) can0 3C9#FFFFFFFFFFFFFFFF
(1612344473.240563) can1 475#0000000000000000
(1612344473.248580) can1 5C1#00CB006500000000
(1612344473.248585) can1 48A#4000000000000000
(1612344473.248588) can1 48B#004F000000000000
(1612344473.248592) can0 39E#05817F0000000000
(1612344473.256522) can0 316#81500AF07A370200
(1612344473.256528) can1 600#0400000000000000
(1612344473.256531) can0 52C#005A2000FE00A100
(1612344473.256534) can0 354#50CD000000000000
(1612344473.264525) can1 461#07F86B013EC00000
(1612344473.264531) can0 350#01FFAFFB00007F00
(1612344473.264534) can1 46A#6371FF00FF4E153A
(1612344473.264537) can1 417#0000320000000000
(1612344473.272368) can0 335#0000000000000000
(1612344473.272375) can1 421#0100000000000010
(1612344473.272378) can0 33A#0006000000000000
(1612344473.272381) can0 3A0#4180010000000078
(1612344473.280589) can1 539#0000000000001000
(1612344473.280606) can1 72A#0006000000000000
(1612344473.280609) can1 72C#0006000000000000
(1612344473.280613) can0 3F0#0000000000000000
(1612344473.288602) can0 431#33FCE301004293B2
(1612344473.288607) can0 462#07F8600000000000
(1612344473.288611) can0 46B#6371000000001500
(1612344473.288614) can0 39E#05817F0000000000
(1612344473.296544) can0 316#81500AF07A370200
(1612344473.296550) can1 600#0400000000000000
(1612344473.296553) can0 329#004500000000218C
(1612344473.296556) can0 350#01FFAFFB00007F00
(1612344473.304587) can0 360#0000000000240025
(1612344473.304593) can0 380#80737E03E8FFFF7D
(1612344473.304596) can0 38A#000000000000002B
(1612344473.304599) can1 601#000A006A00000000
(1612344473.312588) can0 335#0000000000000000
(1612344473.312594) can0 33A#0006000000000000
(1612344473.312597) can0 340#0004000000000000
(1612344473.312600) can1 396#0004000400000090
(1612344473.320597) can0 3A0#4180010000000087
(1612344473.320602) can1 39F#0004000400000090
(1612344473.320605) can0 39E#05817F0000000000
(1612344473.320608) can0 3F0#0000000000000000
(1612344473.328429) can0 39E#05817F0000000000
(1612344473.328434) can0 3BA#0000000000000000
(1612344473.328437) can0 316#81500AF07A1E0200
(1612344473.328440) can1 445#FF000B0000040001
(1612344473.336359) can1 455#3F3F3F3FFFFFFFFF
(1612344473.336364) can1 459#4100410041004100
(1612344473.336368) can1 456#0FFF0FFF0FFF0FFF
(1612344473.336371) can0 350#01FFAFFB00007F00
(1612344473.344401) can0 360#0000000000240061
(1612344473.344406) can0 380#80727E03E8FFFF7D
(1612344473.344409) can0 38A#0000000000000067
(1612344473.344413) can1 601#000A006A00000000
(1612344473.352375) can0 335#0000000000000000
(1612344473.352382) can0 33A#0006000000000000
(1612344473.352386) can0 340#0004000000000000
(1612344473.352391) can0 3A0#4180010000000096
(1612344473.360356) can0 39E#05817F0000000000
(1612344473.360361) can0 316#81500AF07A1E0200
(1612344473.360365) can1 600#0400000000000000
(1612344473.360368) can0 47C#0000000000000000
(1612344473.368590) can0 3F0#0000000000000000
(1612344473.368596) can1 38A#0000000000000000
(1612344473.368599) can1 396#00040004000000C0
(1612344473.368602) can0 39E#05817F0000000000
(1612344473.376588) can0 316#81500AF07A370200
(1612344473.376593) can1 600#0400000000000000
(1612344473.376596) can0 329#004500000000218C
(1612344473.376599) can0 505#6B0BA00000001000
(1612344473.384586) can0 350#01FFAFFB00007F00
(1612344473.384591) can0 360#00000000002400AD
(1612344473.384594) can0 380#80737E03E8FFFF7D
(1612344473.384598) can1 601#000A006A00000000
(1612344473.392587) can0 329#004500000000218C
(1612344473.392592) can0 436#0080000000000000
(1612344473.392596) can0 335#0000000000000000
(1612344473.392599) can0 3A0#41800100000000A5
(1612344473.400537) can0 39E#05817F0000000000
(1612344473.400543) can0 316#81500AF07A370200
(1612344473.400546) can1 600#0400000000000000
(1612344473.400549) can0 576#00078D980C01635C
(1612344473.408582) can0 577#1B9A1B9A00000000
(1612344473.408588) can0 5D1#0104424E204E2042
(1612344473.408591) can0 5D2#0000000CA1271000
(1612344473.408594) can1 38A#0000000000000000
(1612344473.416592) can1 396#00040004000000E0
(1612344473.416598) can1 39F#00040004000000E0
(1612344473.416602) can0 39E#05817F0000000000
(1612344473.416605) can0 350#01FFAFFB00007F00
(1612344473.424566) can0 360#00000000002400E9
(1612344473.424572) can0 380#80727E03E8FFFF7D
(1612344473.424587) can0 38A#00000000000000EF
(1612344473.424591) can1 601#000A006A00000000
(1612344473.432586) can0 335#0000000000000000
(1612344473.432591) can0 33A#0006000000000000
(1612344473.432594) can0 340#0004000000000000
(1612344473.432597) can0 39E#05817F0000000000
(1612344473.440554) can0 3C5#96D0000000000000
(1612344473.440559) can0 3C9#FFFFFFFFFFFFFFFF
(1612344473.440562) can0 316#81500AF07A380200
(1612344473.440566) can1 475#0000000000000000
(1612344473.448585) can1 48A#4000000000000000
(1612344473.448591) can1 48B#004F000000000000
(1612344473.448594) can0 3F0#0000000000000000
(1612344473.448597) can0 39E#05817F0000000000
(1612344473.456354) can0 316#81500AF07A1F0200
(1612344473.456360) can1 600#0400000000000000
(1612344473.456363) can0 52C#005A2000FE00A100
(1612344473.456366) can0 354#50CD000000000000
(1612344473.464585) can1 461#07F86B013EC00000
(1612344473.464590) can0 350#01FFAFFB00007F00
(1612344473.464593) can1 46A#6371FF00FF4E153A
(1612344473.464595) can1 417#0000320000000000
(1612344473.472403) can0 335#0000000000000000
(1612344473.472410) can1 421#0100000000000010
(1612344473.472414) can0 33A#0006000000000000
(1612344473.472417) can0 39E#05817F0000000000
(1612344473.480588) can0 316#81500AF07A1F0200
(1612344473.480594) can1 600#0400000000000000
(1612344473.480597) can0 329#004500000000218C
(1612344473.480600) can0 3F0#0000000000000000
(1612344473.488626) can0 431#33FCE301004293B2
(1612344473.488634) can0 462#07F8600000000000
(1612344473.488638) can0 46B#6371000000001500
(1612344473.488641) can0 39E#05817F0000000000
(1612344473.496398) can0 316#81500AF07A1F0200
(1612344473.496403) can1 600#0400000000000000
(1612344473.496407) can0 329#004500000000218C
(1612344473.496409) can0 530#0000000000000008
(1612344473.573819) can0 350#01FFAFFB00007F00
(1612344473.573829) can0 360#0000000000240061
(1612344473.573835) can0 380#80737E03E8FFFF7D
(1612344473.573840) can0 335#0000000000000000
(1612344473.580337) can0 33A#0006000000000000
(1612344473.580340) can0 340#0004000000000000
(1612344473.580343) can0 34A#0000000000000000
(1612344473.580345) can1 396#0004000400000030
(1612344473.588350) can1 39F#0004000400000030
(1612344473.588352) can0 39E#05817F0000000000
(1612344473.588353) can0 316#81500AF07A1F0200
(1612344473.588355) can0 3F0#0000000000000000
(1612344473.596340) can0 3BA#0000000000000000
(1612344473.596343) can0 39E#05817F0000000000
(1612344473.596344) can0 316#81500AF07A1F0200
(1612344473.596347) can1 445#FF000B0000040001
(1612344473.604438) can1 455#3F3F3F3FFFFFFFFF
(1612344473.604440) can1 459#4100410041004100
(1612344473.604441) can1 456#0FFF0FFF0FFF0FFF
(1612344473.604443) can0 350#01FFAFFB00007F00
(1612344473.612344) can0 360#00000000002400AD
(1612344473.612346) can0 380#80727E03E8FFFF7D
(1612344473.612348) can0 38A#00000000000000A3
(1612344473.612350) can0 335#0000000000000000
(1612344473.620433) can0 33A#0006000000000000
(1612344473.620435) can0 340#0004000000000000
(1612344473.620436) can0 34A#0000000000000000
(1612344473.620437) can0 39E#05817F0000000000
(1612344473.628584) can0 316#81500AF07A1F0200
(1612344473.628586) can1 600#0400000000000000
(1612344473.628587) can0 525#0000000000007F00
(1612344473.628588) can0 47C#0000000000000000
(1612344473.636431) can0 3F0#0000000000000000
(1612344473.636433) can1 38A#0000000000000000
(1612344473.636434) can1 396#0004000400000060
(1612344473.636440) can0 39E#05817F0000000000
(1612344473.644566) can0 316#81500AF07A1F0200
(1612344473.644568) can1 600#0400000000000000
(1612344473.644570) can0 329#004500000000218C
(1612344473.644571) can0 505#6B0BA00000001000
(1612344473.652580) can0 350#01FFAFFB00007F00
(1612344473.652582) can0 360#00000000002400E9
(1612344473.652585) can0 380#80737E03E8FFFF7D
(1612344473.652587) can0 329#004500000000218C
(1612344473.660583) can0 433#0000000000000000
(1612344473.660587) can0 335#0000000000000000
(1612344473.660590) can0 436#0080000000000000
(1612344473.660593) can0 39E#05817F0000000000
(1612344473.668578) can0 316#81500AF07A380200
(1612344473.668582) can1 600#0400000000000000
(1612344473.668585) can0 329#004500000000218C
(1612344473.668588) can0 3F0#0000000000000000
(1612344473.676559) can0 3BA#0000000000000000
(1612344473.676563) can0 39E#05817F0000000000
(1612344473.676566) can0 316#81500AF07A380200
(1612344473.676570) can1 38A#0000000000000000
(1612344473.684445) can1 396#0004000400000080
(1612344473.684449) can1 39F#0004000400000080
(1612344473.684453) can0 39E#05817F0000000000
(1612344473.684456) can0 350#01FFAFFB00007F00
(1612344473.692361) can0 360#0000000000240025
(1612344473.692367) can0 380#80737E03E8FFFF7D
(1612344473.692371) can0 38A#000000000000002B
(1612344473.692377) can0 335#0000000000000000
(1612344473.700350) can0 33A#0006000000000000
(1612344473.700356) can0 340#0004000000000000
(1612344473.700359) can0 34A#0000000000000000
(1612344473.700362) can0 3C5#96D0000000000000
(1612344473.708433) can0 39E#05817F0000000000
(1612344473.708438) can0 3C9#FFFFFFFFFFFFFFFF
(1612344473.708441) can0 316#81500AF07A370200
(1612344473.708445) can1 475#0000000000000000
(1612344473.716580) can1 48A#4000000000000000
(1612344473.716585) can1 48B#004F000000000000
(1612344473.716589) can0 3F0#0000000000000000
(1612344473.716592) can0 39E#05817F0000000000
(1612344473.724382) can0 316#81500AF07A370200
(1612344473.724387) can1 600#0400000000000000
(1612344473.724391) can0 52C#005A2000FE00A100
(1612344473.724394) can0 354#50CD000000000000
(1612344473.732355) can1 461#07F86B013EC00000
(1612344473.732362) can0 350#01FFAFFB00007F00
(1612344473.732366) can1 46A#6371FF00FF4E153A
(1612344473.732369) can1 417#0000320000000000
(1612344473.740558) can0 335#0000000000000000
(1612344473.740564) can1 421#0100000000000010
(1612344473.740567) can0 33A#0006000000000000
(1612344473.740570) can0 39E#05817F0000000000
(1612344473.748575) can0 316#81500AF07A370200
(1612344473.748581) can1 600#0400000000000000
(1612344473.748584) can0 329#004500000000218C
(1612344473.748587) can0 3F0#0000000000000000
(1612344473.756539) can0 431#33FCE301004293B2
(1612344473.756544) can0 462#07F8600000000000
(1612344473.756548) can0 46B#6371000000001500
(1612344473.756550) can0 39E#05817F0000000000
(1612344473.764581) can0 316#81500AF07A370200
(1612344473.764587) can1 600#0400000000000000
(1612344473.764590) can0 329#004500000000218C
(1612344473.764593) can0 530#0000000000000008
(1612344473.772525) can0 350#01FFAFFB00007F00
(1612344473.772531) can0 360#00000000002400AD
(1612344473.772534) can0 380#80727E03E8FFFF7D
(1612344473.772537) can0 335#0000000000000000
(1612344473.780426) can0 33A#0006000000000000
(1612344473.780431) can0 340#0004000000000000
(1612344473.780434) can0 34A#0000000000000000
(1612344473.780438) can1 396#00040004000000D0
(1612344473.788365) can1 39F#00040004000000D0
(1612344473.788372) can0 39E#05817F0000000000
(1612344473.788376) can0 316#81500AF07A370200
(1612344473.788380) can0 3F0#0000000000000000
(1612344473.796539) can0 3BA#0000000000000000
(1612344473.796545) can0 39E#05817F0000000000
(1612344473.796548) can0 316#81500AF07A370200
(1612344473.796552) can1 445#FF000B0000040001
(1612344473.804565) can1 455#3F3F3F3FFFFFFFFF
(1612344473.804572) can1 459#4100410041004100
(1612344473.804576) can1 456#0FFF0FFF0FFF0FFF
(1612344473.804581) can0 350#01FFAFFB00007F00
(1612344473.812584) can0 360#00000000002400E9
(1612344473.812589) can0 380#80727E03EDFFFF7D
(1612344473.812592) can0 38A#00000000000000EF
(1612344473.812595) can0 335#0000000000000000
(1612344473.820560) can0 33A#0006000000000000
(1612344473.820565) can0 340#0004000000000000
(1612344473.820569) can0 34A#0000000000000000
(1612344473.820571) can0 39E#05817F0000000000
(1612344473.828581) can0 316#81500AF07A370200
(1612344473.828586) can1 600#0400000000000000
(1612344473.828589) can0 525#0000000000007F00
(1612344473.828592) can0 47C#0000000000000000
(1612344473.836397) can0 3F0#0000000000000000
(1612344473.836403) can1 38A#0000000000000000
(1612344473.836406) can1 396#0004000400000000
(1612344473.836409) can0 39E#05817F0000000000
(1612344473.844578) can0 316#81500AF07A370200
(1612344473.844584) can1 600#0400000000000000
(1612344473.844587) can0 329#004500000000218C
(1612344473.844590) can0 505#6B0BA00000001000
(1612344473.852583) can0 350#01FFAFFB00007F00
(1612344473.852588) can0 360#0000000000240025
(1612344473.852591) can0 380#80717E03E8FFFF7D
(1612344473.852594) can0 329#004500000000218C
(1612344473.860588) can0 433#0000000000000000
(1612344473.860593) can0 335#0000000000000000
(1612344473.860596) can0 436#0080000000000000
(1612344473.860599) can0 39E#05817F0000000000
(1612344473.868570) can0 316#81500AF07A370200
(1612344473.868575) can1 600#0400000000000000
(1612344473.868579) can0 329#004500000000218C
(1612344473.868582) can0 71A#0006000000000000
(1612344473.876569) can0 3F0#0000000000000000
(1612344473.876574) can0 705#0006000000000000
(1612344473.876577) can0 70F#0006000000000000
(1612344473.876581) can1 38A#0000000000000000
(1612344473.884567) can1 396#0004000400000020
(1612344473.884573) can1 39F#0004000400000020
(1612344473.884576) can0 39E#05817F0000000000
(1612344473.884579) can0 350#01FFAFFB00007F00
(1612344473.892581) can0 360#0000000000240061
(1612344473.892586) can0 380#80727E03E8FFFF7D
(1612344473.892589) can0 38A#0000000000000067
(1612344473.892592) can0 335#0000000000000000
(1612344473.900537) can0 33A#0006000000000000
(1612344473.900543) can0 340#0004000000000000
(1612344473.900546) can0 34A#0000000000000000
(1612344473.900548) can0 3C5#96D0000000000000
(1612344473.908569) can0 3C9#FFFFFFFFFFFFFFFF
(1612344473.908574) can0 39E#05817F0000000000
(1612344473.908578) can0 316#81500AF07A370200
(1612344473.908581) can1 475#0000000000000000
(1612344473.916580) can1 48A#4000000000000000
(1612344473.916585) can1 48B#004F000000000000
(1612344473.916588) can0 3F0#0000000000000000
(1612344473.916591) can0 39E#05817F0000000000
(1612344473.924551) can0 316#81500AF07A380200
(1612344473.924557) can1 600#0400000000000000
(1612344473.924560) can0 52C#005A2000FE00A100
(1612344473.924563) can0 354#50CD000000000000
(1612344473.932428) can1 461#07F86B013EC00000
(1612344473.932446) can1 46A#6371FF00FF4E153A
(1612344473.932450) can0 374#0E700DFA27140CC3
(1612344473.932453) can0 335#0000000000000000
(1612344473.940567) can1 417#0000320000000000
(1612344473.940573) can1 421#0100000000000010
(1612344473.940576) can0 33A#0006000000000000
(1612344473.940579) can0 39E#05817F0000000000
(1612344473.948580) can0 316#81500AF07A1F0200
(1612344473.948586) can1 600#0400000000000000
(1612344473.948589) can0 329#004500000000218C
(1612344473.948592) can0 3F0#0000000000000000
(1612344473.956548) can0 431#33FCE301004293B2
(1612344473.956553) can0 401#00007F0620000000
(1612344473.956556) can0 3BA#0000000000000000
(1612344473.956559) can0 39E#05817F0000000000
(1612344473.964580) can0 316#81500AF07A1F0200
(1612344473.964586) can1 600#0400000000000000
(1612344473.964589) can0 329#004500000000218C
(1612344473.964592) can0 530#0000000000000008
(1612344473.972530) can0 350#01FFAFFB00007F00
(1612344473.972535) can0 360#00000000002400E9
(1612344473.972538) can0 380#80737E03E8FFFF7D
(1612344473.972541) can0 335#0000000000000000
(1612344473.980348) can0 33A#0006000000000000
(1612344473.980353) can0 340#0004000000000000
(1612344473.980357) can0 34A#0000000000000000
(1612344473.980360) can1 396#0004000400000070
(1612344473.988359) can1 39F#0004000400000070
(1612344473.988365) can0 39E#05817F0000000000
(1612344473.988368) can0 316#81500AF07A1E0200
(1612344473.988371) can0 3F0#0000000000000000
(1612344473.996592) can0 3BA#0000000000000000
(1612344473.996598) can0 39E#05817F0000000000
(1612344473.996601) can0 316#81500AF07A1E0200
(1612344473.996604) can1 445#FF000B0000040001
(1612344474.004438) can1 455#3F3F3F3FFFFFFFFF
(1612344474.004457) can1 459#4100410041004100
(1612344474.004463) can1 456#0FFF0FFF0FFF0FFF
(1612344474.004467) can0 350#01FFAFFB00007F00
(1612344474.012394) can0 360#0000000000240025
(1612344474.012399) can0 380#80727E03E8FFFF7D
(1612344474.012402) can0 38A#000000000000002B
(1612344474.012405) can0 335#0000000000000000
(1612344474.020405) can0 33A#0006000000000000
(1612344474.020410) can0 340#0004000000000000
(1612344474.020413) can0 34A#0000000000000000
(1612344474.020416) can0 39E#05817F0000000000
(1612344474.028569) can0 316#81500AF07A370200
(1612344474.028575) can1 600#0400000000000000
(1612344474.028578) can0 525#0000000000007F00
(1612344474.028581) can0 47C#0000000000000000
(1612344474.036390) can0 3F0#0000000000000000
(1612344474.036395) can1 38A#0000000000000000
(1612344474.036398) can0 3BA#0000000000000000
(1612344474.036401) can0 39E#05817F0000000000
(1612344474.044390) can0 316#81500AF07A370200
(1612344474.044400) can1 600#0400000000000000
(1612344474.044405) can0 329#004500000000218C
(1612344474.044409) can0 505#6B0BA00000001000
(1612344474.052354) can0 3C0#000007087FFF4401
(1612344474.052359) can0 350#01FFAFFB00007F00
(1612344474.052362) can0 360#0000000000240061
(1612344474.052365) can0 329#004500000000218C
(1612344474.060394) can0 436#0080000000000000
(1612344474.060399) can0 335#0000000000000000
(1612344474.060403) can0 440#0200000000000000
(1612344474.060406) can0 39E#05817F0000000000
(1612344474.068393) can0 316#81500AF07A370200
(1612344474.068398) can1 600#0400000000000000
(1612344474.068401) can0 329#004500000000218C
(1612344474.068404) can0 3F0#0000000000000000
(1612344474.076390) can0 3BA#0000000000000000
(1612344474.076395) can0 39E#05817F0000000000
(1612344474.076410) can0 316#81500AF07A370200
(1612344474.076413) can0 70A#0006000000000000
(1612344474.084393) can1 38A#0000000000000000
(1612344474.084398) can1 396#00040004000000C0
(1612344474.084401) can1 39F#00040004000000C0
(1612344474.084404) can0 350#01FFAFFB00007F00
(1612344474.092364) can0 360#00000000002400AD
(1612344474.092367) can0 380#80737E03E8FFFF7D
(1612344474.092368) can0 38A#00000000000000A3
(1612344474.092370) can0 335#0000000000000000
(1612344474.100354) can0 33A#0006000000000000
(1612344474.100356) can0 340#0004000000000000
(1612344474.100357) can0 34A#0000000000000000
(1612344474.100358) can0 39E#05817F0000000000
(1612344474.108358) can0 316#81500AF07A370200
(1612344474.108359) can1 600#0400000000000000
(1612344474.108360) can0 329#004500000000218C
(1612344474.108361) can1 475#0000000000000000
(1612344474.116509) can1 48A#4000000000000000
(1612344474.116510) can1 48B#004F000000000000
(1612344474.116511) can0 3F0#0000000000000000
(1612344474.116512) can0 39E#05817F0000000000
(1612344474.124663) can0 316#81500AF07A370200
(1612344474.124665) can1 600#0400000000000000
(1612344474.124666) can0 52C#005A2000FE00A100
(1612344474.124666) can1 46A#6371FF00FF4E153A
(1612344474.132487) can0 374#0E700DFA27160CD3
(1612344474.132489) can1 521#0000000000000022
(1612344474.132489) can0 350#01FFAFFB00007F00
(1612344474.132490) can0 335#0000000000000000
(1612344474.140663) can1 417#0000320000000000
(1612344474.140665) can0 33A#0006000000000000
(1612344474.140665) can1 421#0100000000000010
(1612344474.140666) can0 39E#05817F0000000000
(1612344474.148647) can0 316#81500AF07A370200
(1612344474.148656) can1 600#0400000000000000
(1612344474.148657) can0 329#004500000000218C
(1612344474.148659) can0 401#00007F0620000000
(1612344474.156553) can0 3F0#0000000000000000
(1612344474.156555) can0 3BA#0000000000000000
(1612344474.156556) can0 3C5#96D0000000000000
(1612344474.156556) can0 39E#05817F0000000000
(1612344474.164590) can0 316#81500AF07A370200
(1612344474.164592) can1 600#0400000000000000
(1612344474.164593) can0 329#004500000000218C
(1612344474.164594) can0 530#0000000000000008
(1612344474.172546) can0 5E1#0C000E670E640E66
(1612344474.172548) can0 350#01FFAFFB00007F00
(1612344474.172550) can0 360#0000000000240025
(1612344474.172551) can0 335#0000000000000000
(1612344474.180476) can0 33A#0006000000000000
(1612344474.180480) can0 340#0004000000000000
(1612344474.180482) can0 34A#0000000000000000
(1612344474.180485) can1 396#0004000400000010
(1612344474.188396) can1 39F#0004000400000010
(1612344474.188402) can0 39E#05817F0000000000
(1612344474.188405) can0 316#81500AF07A370200
(1612344474.188408) can0 3BA#0000000000000000
(1612344474.196427) can0 3F0#0000000000000000
(1612344474.196433) can0 39E#05817F0000000000
(1612344474.196436) can0 316#81500AF07A370200
(1612344474.196440) can1 445#FF000B0000040001
(1612344474.204357) can1 455#3F3F3F3FFFFFFFFF
(1612344474.204365) can1 459#4100410041004100
(1612344474.204369) can1 456#0FFF0FFF0FFF0FFF
(1612344474.204373) can0 350#01FFAFFB00007F00
(1612344474.212573) can0 360#0000000000240061
(1612344474.212578) can0 380#80717E03E8FFFF7D
(1612344474.212582) can0 38A#0000000000000067
(1612344474.212584) can0 335#0000000000000000
(1612344474.220575) can0 33A#0006000000000000
(1612344474.220580) can0 340#0004000000000000
(1612344474.220584) can0 34A#0000000000000000
(1612344474.220599) can0 39E#05817F0000000000
(1612344474.228575) can0 316#81500AF07A1E0200
(1612344474.228580) can1 600#0400000000000000
(1612344474.228584) can0 525#0000000000007F00
(1612344474.228587) can0 47C#0000000000000000
(1612344474.236513) can0 3BA#0000000000000000
(1612344474.236519) can0 3F0#0000000000000000
(1612344474.236522) can1 38A#0000000000000000
(1612344474.236525) can0 39E#05817F0000000000
(1612344474.244523) can0 316#81500AF07A1E0200
(1612344474.244529) can1 600#0400000000000000
(1612344474.244532) can0 329#004500000000218C
(1612344474.244534) can0 505#6B0BA00000001000
(1612344474.252577) can0 3C0#000007087FFF4401
(1612344474.252582) can0 350#01FFAFFB00007F00
(1612344474.252585) can0 360#00000000002400AD
(1612344474.252588) can0 329#004500000000218C
(1612344474.260567) can0 440#0200000000000000
(1612344474.260572) can0 335#0000000000000000
(1612344474.260575) can0 445#FF00030000000000
(1612344474.260578) can0 39E#05817F0000000000
(1612344474.268567) can0 316#81500AF07A1E0200
(1612344474.268573) can1 600#0400000000000000
(1612344474.268576) can0 329#004500000000218C
(1612344474.268579) can0 3BA#0000000000000000
(1612344474.276556) can0 3F0#0000000000000000
(1612344474.276562) can0 39E#05817F0000000000
(1612344474.276565) can0 316#81500AF07A1E0200
(1612344474.276568) can1 38A#0000000000000000
(1612344474.284538) can1 396#0004000400000060
(1612344474.284544) can1 39F#0004000400000060
(1612344474.284547) can0 39E#05817F0000000000
(1612344474.284550) can0 350#01FFAFFB00007F00
(1612344474.292575) can0 360#00000000002400E9
(1612344474.292581) can0 380#80727E03E8FFFF7D
(1612344474.292584) can0 38A#00000000000000EF
(1612344474.292588) can1 519#0000000000000000
(1612344474.300353) can0 335#0000000000000000
(1612344474.300360) can0 33A#0006000000000000
(1612344474.300366) can0 340#0004000000000000
(1612344474.300371) can0 39E#05817F0000000000
(1612344474.308410) can0 316#81500AF07A370200
(1612344474.308416) can1 600#0400000000000000
(1612344474.308419) can0 329#004500000000218C
(1612344474.308422) can1 475#0000000000000000
(1612344474.316576) can1 5C1#00CB006500000000
(1612344474.316581) can1 48A#4000000000000000
(1612344474.316584) can1 48B#004F000000000000
(1612344474.316588) can0 39E#05817F0000000000
(1612344474.324421) can0 316#81500AF07A370200
(1612344474.324426) can1 600#0400000000000000
(1612344474.324429) can0 52C#005A2000FE00A100
(1612344474.324432) can1 46A#6371FF00FF4E153A
(1612344474.332585) can0 374#0E700DFA27150CC7
(1612344474.332591) can1 521#0000000000000022
(1612344474.332594) can0 350#01FFAFFB00007F00
(1612344474.332597) can0 335#0000000000000000
(1612344474.340569) can1 417#0000320000000000
(1612344474.340574) can0 33A#0006000000000000
(1612344474.340577) can1 421#0100000000000010
(1612344474.340580) can1 539#0000000000001000
(1612344474.348520) can1 72A#0006000000000000
(1612344474.348526) can0 39E#05817F0000000000
(1612344474.348529) can1 72C#0006000000000000
(1612344474.348532) can1 727#0006000000000000
(1612344474.356558) can0 3F0#0000000000000000
(1612344474.356564) can0 3BA#0000000000000000
(1612344474.356567) can0 3C5#96D0000000000000
(1612344474.356570) can0 39E#05817F0000000000
(1612344474.364569) can0 316#81500AF07A380200
(1612344474.364575) can1 600#0400000000000000
(1612344474.364578) can0 329#004500000000218C
(1612344474.364581) can0 530#0000000000000008
(1612344474.372544) can0 5E1#14000E680E6F0E6D
(1612344474.372549) can0 350#01FFAFFB00007F00
(1612344474.372552) can0 360#0000000000240061
(1612344474.372555) can0 335#0000000000000000
(1612344474.380575) can0 33A#0006000000000000
(1612344474.380580) can0 340#0004000000000000
(1612344474.380583) can0 34A#0000000000000000
(1612344474.380586) can1 396#00040004000000B0
(1612344474.388344) can1 39F#00040004000000B0
(1612344474.388350) can0 39E#05817F0000000000
(1612344474.388353) can0 316#81500AF07A1E0200
(1612344474.388356) can0 3BA#0000000000000000
(1612344474.396338) can0 3F0#0000000000000000
(1612344474.396343) can0 39E#05817F0000000000
(1612344474.396346) can0 316#81500AF07A1E0200
(1612344474.396350) can1 445#FF000B0000040001
(1612344474.404338) can1 455#3F3F3F3FFFFFFFFF
(1612344474.404343) can1 459#4100410041004100
(1612344474.404346) can1 456#0FFF0FFF0FFF0FFF
(1612344474.404350) can0 350#01FFAFFB00007F00
(1612344474.412330) can0 360#00000000002400AD
(1612344474.412334) can0 380#80727E03E8FFFF7D
(1612344474.412336) can0 38A#00000000000000A3
(1612344474.412337) can0 335#0000000000000000
(1612344474.420467) can0 33A#0006000000000000
(1612344474.420470) can0 340#0004000000000000
(1612344474.420471) can0 34A#0000000000000000
(1612344474.420473) can0 39E#05817F0000000000
(1612344474.428582) can0 316#81500AF07A1E0200
(1612344474.428585) can1 600#0400000000000000
(1612344474.428586) can0 525#0000000000007F00
(1612344474.428587) can0 47C#0000000000000000
(1612344474.436366) can0 3BA#0000000000000000
(1612344474.436368) can0 3F0#0000000000000000
(1612344474.436370) can1 38A#0000000000000000
(1612344474.436371) can0 39E#05817F0000000000
(1612344474.444576) can0 316#81500AF07A1E0200
(1612344474.444579) can1 600#0400000000000000
(1612344474.444595) can0 329#004500000000218C
(1612344474.444596) can0 505#6B0BA00000001000
(1612344474.452570) can0 3C0#000007087FFF4401
(1612344474.452574) can0 350#01FFAFFB00007F00
(1612344474.452576) can0 360#00000000002400E9
(1612344474.452578) can0 329#004500000000218C
(1612344474.460577) can0 445#FF00030000000000
(1612344474.460583) can0 335#0000000000000000
(1612344474.460586) can0 44D#0000000000000000
(1612344474.460589) can0 39E#05817F0000000000
(1612344474.468577) can0 316#81500AF07A1E0200
(1612344474.468582) can1 600#0400000000000000
(1612344474.468586) can0 329#004500000000218C
(1612344474.468588) can0 576#00078D980C01635C
(1612344474.476546) can0 577#1B9A1B9A00000000
(1612344474.476551) can0 5D1#0104424E204E2042
(1612344474.476554) can0 5D2#0000000C9F271000
(1612344474.476558) can1 38A#0000000000000000
(1612344474.484581) can1 396#0004000400000000
(1612344474.484586) can1 39F#0004000400000000
(1612344474.484590) can0 39E#05817F0000000000
(1612344474.484593) can0 350#01FFAFFB00007F00
(1612344474.492513) can0 360#0000000000240025
(1612344474.492518) can0 380#80727E03E8FFFF7D
(1612344474.492521) can0 38A#000000000000002B
(1612344474.492524) can0 335#0000000000000000
(1612344474.500348) can0 33A#0006000000000000
(1612344474.500355) can0 340#0004000000000000
(1612344474.500359) can0 34A#0000000000000000
(1612344474.500363) can0 39E#05817F0000000000
(1612344474.508341) can0 316#81500AF07A1E0200
(1612344474.508347) can1 600#0400000000000000
(1612344474.508350) can0 329#004500000000218C
(1612344474.508353) can1 475#0000000000000000
(1612344474.516383) can1 48A#4000000000000000
(1612344474.516399) can1 48B#004F000000000000
(1612344474.516403) can0 3BA#0000000000000000
(1612344474.516406) can0 39E#05817F0000000000
(1612344474.524565) can0 316#81500AF07A370200
(1612344474.524571) can1 600#0400000000000000
(1612344474.524574) can0 52C#005A2000FE00A100
(1612344474.524577) can1 46A#6371FF00FF4E153A
(1612344474.532571) can0 374#0E700DFA27150CBC
(1612344474.532577) can1 521#0000000000000022
(1612344474.532580) can0 3C0#000007087FFF4401
(1612344474.532583) can0 335#0000000000000000
(1612344474.540578) can1 417#0000320000000000
(1612344474.540583) can0 33A#0006000000000000
(1612344474.540586) can1 421#0100000000000010
(1612344474.540589) can0 39E#05817F0000000000
(1612344474.548380) can0 316#81500AF07A370200
(1612344474.548385) can1 600#0400000000000000
(1612344474.548388) can0 329#004500000000218C
(1612344474.548391) can0 3BA#0000000000000000
(1612344474.556378) can0 3C5#96D0000000000000
(1612344474.556383) can0 3C9#FFFFFFFFFFFFFFFF
(1612344474.556387) can0 3F0#0000000000000000
(1612344474.556390) can0 39E#05817F0000000000
(1612344474.564386) can0 316#81500AF07A370200
(1612344474.564391) can1 600#0400000000000000
(1612344474.564394) can0 329#004500000000218C
(1612344474.564397) can0 530#0000000000000008
(1612344474.572380) can0 5E1#1C000E680E6E0E6C
(1612344474.572385) can0 5E2#1C000E580E540E49
(1612344474.572388) can0 350#01FFAFFB00007F00
(1612344474.572391) can0 335#0000000000000000
(1612344474.580349) can0 33A#0006000000000000
(1612344474.580350) can0 340#0004000000000000
(1612344474.580352) can0 34A#0000000000000000
(1612344474.580353) can1 396#0004000400000050
(1612344474.588350) can1 39F#0004000400000050
(1612344474.588352) can0 39E#05817F0000000000
(1612344474.588353) can0 316#81500AF07A1E0200
(1612344474.588353) can0 3BA#0000000000000000
(1612344474.596360) can0 3F0#0000000000000000
(1612344474.596362) can0 39E#05817F0000000000
(1612344474.596362) can0 316#81500AF07A1E0200
(1612344474.596364) can1 445#FF000B0000040001
(1612344474.604536) can0 3C5#96D0000000000000
(1612344474.604537) can1 455#3F3F3F3FFFFFFFFF
(1612344474.604538) can0 3C9#FFFFFFFFFFFFFFFF
(1612344474.604538) can0 350#01FFAFFB00007F00
(1612344474.612683) can0 360#00000000002400E9
(1612344474.612684) can0 380#80737E03E8FFFF7D
(1612344474.612684) can0 38A#00000000000000EF
(1612344474.612685) can0 335#0000000000000000
(1612344474.620431) can0 33A#0006000000000000
(1612344474.620432) can0 340#0004000000000000
(1612344474.620432) can0 34A#0000000000000000
(1612344474.620433) can0 39E#05817F0000000000
(1612344474.628665) can0 316#81500AF07A1E0200
(1612344474.628666) can1 600#0400000000000000
(1612344474.628666) can0 525#0000000000007F00
(1612344474.628667) can0 47C#0000000000000000
(1612344474.636519) can0 3BA#0000000000000000
(1612344474.636519) can0 3F0#0000000000000000
(1612344474.636520) can1 38A#0000000000000000
(1612344474.636521) can0 39E#05817F0000000000
(1612344474.644616) can0 316#81500AF07A1E0200
(1612344474.644618) can1 600#0400000000000000
(1612344474.644619) can0 329#004500000000218C
(1612344474.644619) can0 3C0#000007087FFF4401
(1612344474.652564) can0 505#6B0BA00000001000
(1612344474.652566) can0 3CA#800180010CAB8043
(1612344474.652567) can0 350#01FFAFFB00007F00
(1612344474.652567) can0 329#004500000000218C
(1612344474.660556) can0 44D#0000000000000000
(1612344474.660558) can0 335#0000000000000000
(1612344474.660566) can0 456#0C000C000C000C00
(1612344474.660567) can0 39E#05817F0000000000
(1612344474.668572) can0 316#81500AF07A370200
(1612344474.668577) can1 600#0400000000000000
(1612344474.668580) can0 329#004500000000218C
(1612344474.668582) can0 3BA#0000000000000000
(1612344474.676504) can0 3F0#0000000000000000
(1612344474.676509) can0 39E#05817F0000000000
(1612344474.676512) can0 316#81500AF07A370200
(1612344474.676516) can1 38A#0000000000000000
(1612344474.684571) can1 396#00040004000000A0
(1612344474.684576) can1 39F#00040004000000A0
(1612344474.684580) can0 39E#05817F0000000000
(1612344474.684583) can0 350#01FFAFFB00007F00
(1612344474.692568) can0 360#0000000000240061
(1612344474.692574) can0 380#80737E03E8FFFF7D
(1612344474.692577) can0 38A#0000000000000067
(1612344474.692580) can0 335#0000000000000000
(1612344474.700341) can0 33A#0006000000000000
(1612344474.700346) can0 340#0004000000000000
(1612344474.700350) can0 34A#0000000000000000
(1612344474.700352) can0 39E#05817F0000000000
(1612344474.708562) can0 316#81500AF07A370200
(1612344474.708568) can1 600#0400000000000000
(1612344474.708571) can0 329#004500000000218C
(1612344474.708574) can1 475#0000000000000000
(1612344474.716569) can1 48A#4000000000000000
(1612344474.716574) can1 48B#004F000000000000
(1612344474.716578) can0 3BA#0000000000000000
(1612344474.716581) can0 39E#05817F0000000000
(1612344474.724574) can0 316#81500AF07A1E0200
(1612344474.724579) can1 600#0400000000000000
(1612344474.724583) can0 329#004500000000218C
(1612344474.724586) can1 46A#6371FF00FF4E153A
(1612344474.732537) can0 374#0E700DFA27160CBC
(1612344474.732543) can1 521#0000000000000022
(1612344474.732546) can0 3C0#000007087FFF4401
(1612344474.732549) can0 335#0000000000000000
(1612344474.740567) can1 417#0000320000000000
(1612344474.740573) can0 33A#0006000000000000
(1612344474.740576) can1 421#0100000000000010
(1612344474.740579) can0 39E#05817F0000000000
(1612344474.748570) can0 316#81500AF07A1E0200
(1612344474.748576) can1 600#0400000000000000
(1612344474.748579) can0 329#004500000000218C
(1612344474.748582) can0 3BA#0000000000000000
(1612344474.756570) can0 3C5#96D0000000000000
(1612344474.756575) can0 3C9#FFFFFFFFFFFFFFFF
(1612344474.756578) can0 3F0#0000000000000000
(1612344474.756581) can0 39E#05817F0000000000
(1612344474.764569) can0 316#81500AF07A1E0200
(1612344474.764574) can1 600#0400000000000000
(1612344474.764577) can0 329#004500000000218C
(1612344474.764580) can0 530#0000000000000008
(1612344474.772561) can0 5E1#04000E600E610E60
(1612344474.772566) can0 5E2#04000E6D0E570DFA
(1612344474.772570) can0 350#01FFAFFB00007F00
(1612344474.772572) can0 335#0000000000000000
(1612344474.780558) can0 33A#0006000000000000
(1612344474.780563) can0 340#0004000000000000
(1612344474.780566) can0 34A#0000000000000000
(1612344474.780570) can1 396#00040004000000F0
(1612344474.788535) can1 39F#00040004000000F0
(1612344474.788540) can0 39E#05817F0000000000
(1612344474.788544) can0 316#81500AF07A1E0200
(1612344474.788546) can0 3BA#0000000000000000
(1612344474.796574) can0 3F0#0000000000000000
(1612344474.796579) can0 39E#05817F0000000000
(1612344474.796582) can0 316#81500AF07A1E0200
(1612344474.796585) can0 3C5#96D0000000000000
(1612344474.804524) can0 3C9#FFFFFFFFFFFFFFFF
(1612344474.804530) can1 445#FF000B0000040001
(1612344474.804533) can1 455#3F3F3F3FFFFFFFFF
(1612344474.804549) can0 350#01FFAFFB00007F00
(1612344474.812576) can0 360#0000000000240025
(1612344474.812581) can0 380#80727E03E8FFFF7D
(1612344474.812584) can0 38A#000000000000002B
(1612344474.812587) can0 33A#0006000000000000
(1612344474.820349) can0 340#0004000000000000
(1612344474.820354) can0 34A#0000000000000000
(1612344474.820357) can0 39A#20FB000B58000000
(1612344474.820360) can0 39E#05817F0000000000
(1612344474.828541) can0 316#81500AF07A1E0200
(1612344474.828545) can1 600#0400000000000000
(1612344474.828548) can0 525#0000000000007F00
(1612344474.828551) can0 47C#0000000000000000
(1612344474.836344) can0 3BA#0000000000000000
(1612344474.836349) can0 3F0#0000000000000000
(1612344474.836353) can1 38A#0000000000000000
(1612344474.836357) can0 39E#05817F0000000000
(1612344474.844570) can0 316#81500AF07A1E0200
(1612344474.844575) can1 600#0400000000000000
(1612344474.844579) can0 329#004500000000218C
(1612344474.844581) can0 3C0#000007087FFF4401
(1612344474.852552) can0 505#6B0BA00000001000
(1612344474.852557) can0 3CA#800180010CAB8043
(1612344474.852560) can0 350#01FFAFFB00007F00
(1612344474.852563) can0 329#004500000000218C
(1612344474.860569) can0 44D#0000000000000000
(1612344474.860574) can0 335#0000000000000000
(1612344474.860577) can0 456#0C000C000C000C00
(1612344474.860580) can0 39E#05817F0000000000
(1612344474.868537) can0 316#81500AF07A370200
(1612344474.868543) can1 600#0400000000000000
(1612344474.868546) can0 329#004500000000218C
(1612344474.868549) can0 705#0006000000000000
(1612344474.876506) can0 70E#0006000000000000
(1612344474.876511) can0 3F0#0000000000000000
(1612344474.876514) can0 39E#05817F0000000000
(1612344474.876518) can1 38A#0000000000000000
(1612344474.884567) can1 396#0004000400000040
(1612344474.884573) can1 39F#0004000400000040
(1612344474.884576) can0 39E#05817F0000000000
(1612344474.884579) can0 350#01FFAFFB00007F00
(1612344474.892567) can0 360#00000000002400AD
(1612344474.892572) can0 380#80737E03E8FFFF7D
(1612344474.892575) can0 38A#00000000000000A3
(1612344474.892578) can0 33A#0006000000000000
(1612344474.900345) can0 340#0004000000000000
(1612344474.900353) can0 34A#0000000000000000
(1612344474.900358) can0 39A#20FB000BD0000000
(1612344474.900364) can0 39E#05817F0000000000
(1612344474.908386) can0 316#81500AF07A370200
(1612344474.908392) can1 600#0400000000000000
(1612344474.908395) can0 329#004500000000218C
(1612344474.908398) can1 475#0000000000000000
(1612344474.916330) can1 48A#4000000000000000
(1612344474.916335) can0 3BA#0000000000000000
(1612344474.916338) can1 48B#004F000000000000
(1612344474.916341) can0 39E#05817F0000000000
(1612344474.924572) can0 316#81500AF07A370200
(1612344474.924577) can1 600#0400000000000000
(1612344474.924580) can0 52C#005A2000FE00A100
(1612344474.924583) can1 46A#6371FF00FF4E153A
(1612344474.932559) can0 374#0E700DFA27150CBE
(1612344474.932564) can1 521#0000000000000022
(1612344474.932568) can0 3C0#000007087FFF4401
(1612344474.932571) can1 417#0000320000000000
(1612344474.940567) can0 33A#0006000000000000
(1612344474.940573) can1 421#0100000000000010
(1612344474.940576) can1 423#270F000FFFFFF000
(1612344474.940579) can0 39E#05817F0000000000
(1612344474.948573) can0 316#81500AF07A1E0200
(1612344474.948578) can1 600#0400000000000000
(1612344474.948581) can0 329#004500000000218C
(1612344474.948584) can0 3BA#0000000000000000
(1612344474.956546) can0 3C5#96D0000000000000
(1612344474.956552) can0 3C9#FFFFFFFFFFFFFFFF
(1612344474.956555) can0 3F0#0000000000000000
(1612344474.956558) can0 39E#05817F0000000000
(1612344474.964567) can0 316#81500AF07A1E0200
(1612344474.964572) can1 600#0400000000000000
(1612344474.964575) can0 329#004500000000218C
(1612344474.964578) can0 530#0000000000000008
(1612344474.972554) can0 5E1#0C000E670E640E66
(1612344474.972559) can0 5E2#0C000E6A0E6D0E6A
(1612344474.972563) can0 350#01FFAFFB00007F00
(1612344474.972565) can0 33A#0006000000000000
(1612344474.980335) can0 340#0004000000000000
(1612344474.980339) can0 34A#0000000000000000
(1612344474.980342) can0 39A#20FB000B58000000
(1612344474.980346) can1 396#0004000400000090
(1612344474.988551) can1 39F#0004000400000090
(1612344474.988557) can0 39E#05817F0000000000
(1612344474.988560) can0 316#81500AF07A1E0200
(1612344474.988563) can0 3BA#0000000000000000
(1612344474.996567) can0 3F0#0000000000000000
(1612344474.996572) can0 39E#05817F0000000000
(1612344474.996575) can0 316#81500AF07A1E0200
(1612344474.996578) can0 3C5#96D0000000000000
(1612344475.004533) can0 3C9#FFFFFFFFFFFFFFFF
(1612344475.004539) can1 445#FF000B0000040001
(1612344475.004542) can1 455#3F3F3F3FFFFFFFFF
(1612344475.004545) can0 350#01FFAFFB00007F00
(1612344475.012575) can0 360#0000000000240061
(1612344475.012580) can0 380#80727E03EDFFFF7D
(1612344475.012583) can0 38A#0000000000000067
(1612344475.012587) can0 33A#0006000000000000
(1612344475.020503) can0 340#0004000000000000
(1612344475.020509) can0 34A#0000000000000000
(1612344475.020512) can0 39A#20FB000B94000000
(1612344475.020514) can0 39E#05817F0000000000
(1612344475.028560) can0 316#81500AF07A370200
(1612344475.028566) can1 600#0400000000000000
(1612344475.028569) can0 525#0000000000007F00
(1612344475.028572) can0 47C#0000000000000000
(1612344475.036344) can0 3BA#0000000000000000
(1612344475.036350) can0 3F0#0000000000000000
(1612344475.036354) can1 38A#0000000000000000
(1612344475.036358) can0 39E#05817F0000000000
(1612344475.044570) can0 316#81500AF07A370200
(1612344475.044575) can1 600#0400000000000000
(1612344475.044578) can0 329#004500000000218C
(1612344475.044581) can0 401#00007F0620000000
(1612344475.052571) can0 3CA#800480040CA18043
(1612344475.052576) can0 350#01FFAFFB00007F00
(1612344475.052579) can0 360#00000000002400AD
(1612344475.052582) can0 329#004500000000218C
(1612344475.060380) can0 44D#0000000000000000
(1612344475.060385) can0 335#0000000000000000
(1612344475.060389) can0 456#0C000C000C000C00
(1612344475.060391) can0 39E#05817F0000000000
(1612344475.068340) can0 316#81500AF07A370200
(1612344475.068346) can1 600#0400000000000000
(1612344475.068350) can0 329#004500000000218C
(1612344475.068354) can0 3BA#0000000000000000
(1612344475.076380) can0 3F0#0000000000000000
(1612344475.076384) can0 39E#05817F0000000000
(1612344475.076387) can0 316#81500AF07A370200
(1612344475.076391) can1 38A#0000000000000000
(1612344475.084379) can1 396#00040004000000E0
(1612344475.084383) can1 39F#00040004000000E0
(1612344475.084386) can0 39E#05817F0000000000
(1612344475.084389) can0 350#01FFAFFB00007F00
(1612344475.092312) can0 360#00000000002400E9
(1612344475.092314) can0 380#80737E03E8FFFF7D
(1612344475.092315) can0 38A#00000000000000EF
(1612344475.092316) can0 33A#0006000000000000
(1612344475.100310) can0 340#0004000000000000
(1612344475.100316) can0 34A#0000000000000000
(1612344475.100317) can0 39A#20FB000B1C000000
(1612344475.100318) can0 39E#05817F0000000000
(1612344475.108343) can0 316#81500AF07A370200
(1612344475.108344) can1 600#0400000000000000
(1612344475.108344) can0 329#004500000000218C
(1612344475.108345) can1 475#0000000000000000
(1612344475.116518) can0 3BA#0000000000000000
(1612344475.116519) can1 48A#4000000000000000
(1612344475.116520) can1 48B#004F000000000000
(1612344475.116520) can0 39E#05817F0000000000
(1612344475.124358) can0 316#81500AF07A370200
(1612344475.124360) can1 600#0400000000000000
(1612344475.124360) can0 329#004500000000218C
(1612344475.124361) can1 46A#6371FF00FF4E153A
(1612344475.132533) can0 374#0E700DFA27170CCE
(1612344475.132535) can1 521#0000000000000022
(1612344475.132536) can0 3C0#000007087FFF4401
(1612344475.132536) can1 417#0000320000000000
(1612344475.140309) can0 33A#0006000000000000
(1612344475.140310) can1 421#0100000000000010
(1612344475.140310) can0 340#0004000000000000
(1612344475.140311) can0 39E#05817F0000000000
(1612344475.148609) can0 316#81500AF07A370200
(1612344475.148610) can1 600#0400000000000000
(1612344475.148610) can0 329#004500000000218C
(1612344475.148611) can0 3BA#0000000000000000
(1612344475.156629) can0 3C5#96D0000000000000
(1612344475.156630) can0 3C9#FFFFFFFFFFFFFFFF
(1612344475.156631) can0 3F0#0000000000000000
(1612344475.156631) can0 39E#05817F0000000000
(1612344475.164580) can0 316#81500AF07A370200
(1612344475.164582) can1 600#0400000000000000
(1612344475.164583) can0 329#004500000000218C
(1612344475.164584) can0 530#0000000000000008
(1612344475.172547) can0 5E1#14000E680E6F0E6D
(1612344475.172550) can0 5E2#14000E670E6E0E6A
(1612344475.172551) can0 350#01FFAFFB00007F00
(1612344475.172553) can0 33A#0006000000000000
(1612344475.180469) can0 340#0004000000000000
(1612344475.180473) can0 34A#0000000000000000
(1612344475.180475) can0 39A#20FB000B94000000
(1612344475.180478) can1 396#0004000400000030
(1612344475.188548) can1 39F#0004000400000030
(1612344475.188553) can0 39E#05817F0000000000
(1612344475.188557) can0 316#81500AF07A370200
(1612344475.188559) can0 3F0#0000000000000000
(1612344475.196564) can0 39E#05817F0000000000
(1612344475.196569) can0 316#81500AF07A380200
(1612344475.196573) can1 600#0400000000000000
(1612344475.196576) can0 3C5#96D0000000000000
(1612344475.204528) can0 3C9#FFFFFFFFFFFFFFFF
(1612344475.204534) can1 445#FF000B0000040001
(1612344475.204537) can1 455#3F3F3F3FFFFFFFFF
(1612344475.204540) can0 350#01FFAFFB00007F00
(1612344475.212564) can0 360#00000000002400AD
(1612344475.212569) can0 380#80727E03E3FFFF7D
(1612344475.212573) can0 38A#00000000000000A3
(1612344475.212576) can0 33A#0006000000000000
(1612344475.220515) can0 340#0004000000000000
(1612344475.220521) can0 34A#0000000000000000
(1612344475.220524) can0 39A#20FB000BD0000000
(1612344475.220527) can0 39E#05817F0000000000
(1612344475.228564) can0 316#81500AF07A1E0200
(1612344475.228570) can1 600#0400000000000000
(1612344475.228573) can0 525#0000000000007F00
(1612344475.228576) can0 3BA#0000000000000000
(1612344475.236336) can0 47C#0000000000000000
(1612344475.236342) can0 3F0#0000000000000000
(1612344475.236345) can1 38A#0000000000000000
(1612344475.236348) can0 39E#05817F0000000000
(1612344475.244506) can0 316#81500AF07A1E0200
(1612344475.244512) can1 600#0400000000000000
(1612344475.244527) can0 329#004500000000218C
(1612344475.244530) can0 45E#0000100000100000
(1612344475.252506) can0 3CA#800180010CD28043
(1612344475.252512) can0 505#6B0BA00000001000
(1612344475.252515) can0 350#01FFAFFB00007F00
(1612344475.252518) can0 329#004500000000218C
(1612344475.260554) can0 44D#0000000000000000
(1612344475.260560) can0 335#0000000000000000
(1612344475.260563) can0 456#0C000C000C000C00
(1612344475.260566) can0 39E#05817F0000000000
(1612344475.268563) can0 316#81500AF07A1E0200
(1612344475.268569) can1 600#0400000000000000
(1612344475.268572) can0 329#004500000000218C
(1612344475.268575) can0 3F0#0000000000000000
(1612344475.276563) can0 39E#05817F0000000000
(1612344475.276568) can0 316#81500AF07A1E0200
(1612344475.276571) can1 600#0400000000000000
(1612344475.276574) can1 38A#0000000000000000
(1612344475.284563) can1 396#0004000400000080
(1612344475.284569) can1 39F#0004000400000080
(1612344475.284572) can0 39E#05817F0000000000
(1612344475.284575) can0 350#01FFAFFB00007F00
(1612344475.292542) can0 360#0000000000240025
(1612344475.292547) can0 380#80737E03E8FFFF7D
(1612344475.292550) can0 38A#000000000000002B
(1612344475.292554) can1 519#0000000000000000
(1612344475.300520) can0 335#0000000000000000
(1612344475.300524) can0 33A#0006000000000000
(1612344475.300527) can0 340#0004000000000000
(1612344475.300530) can0 39E#05817F0000000000
(1612344475.308509) can0 316#81500AF07A1E0200
(1612344475.308513) can1 600#0400000000000000
(1612344475.308516) can0 329#004500000000218C
(1612344475.308519) can1 5C1#00CB006500000000
(1612344475.316586) can1 48A#4000000000000000
(1612344475.316590) can1 48B#004F000000000000
(1612344475.316593) can1 5C4#00CA022000000000
(1612344475.316596) can0 39E#05817F0000000000
(1612344475.324586) can0 316#81500AF07A1E0200
(1612344475.324591) can1 600#0400000000000000
(1612344475.324594) can0 329#004500000000218C
(1612344475.324597) can1 46A#6371FF00FF4E153A
(1612344475.332411) can0 374#0E700DFA27150CB5
(1612344475.332417) can1 521#0000000000000022
(1612344475.332420) can0 3C0#000007087FFF4401
(1612344475.332423) can1 417#0000320000000000
(1612344475.340564) can0 33A#0006000000000000
(1612344475.340570) can1 421#0100000000000010
(1612344475.340573) can0 340#0004000000000000
(1612344475.340576) can1 539#0000000000001000
(1612344475.348553) can1 72A#0006000000000000
(1612344475.348559) can0 39E#05817F0000000000
(1612344475.348562) can1 72C#0006000000000000
(1612344475.348565) can0 3C5#96D0000000000000
(1612344475.356557) can0 3C9#FFFFFFFFFFFFFFFF
(1612344475.356562) can0 51A#0000000000000000
(1612344475.356565) can0 3F0#0000000000000000
(1612344475.356568) can0 39E#05817F0000000000
(1612344475.364556) can0 316#81500AF07A1E0200
(1612344475.364561) can1 600#0400000000000000
(1612344475.364564) can0 329#004500000000218C
(1612344475.364567) can0 530#0000000000000008
(1612344475.372564) can0 5E1#1C000E680E6E0E6C
(1612344475.372568) can0 5E2#1C000E570E540E49
(1612344475.372571) can0 350#01FFAFFB00007F00
(1612344475.372574) can0 33A#0006000000000000
(1612344475.380558) can0 340#0004000000000000
(1612344475.380563) can0 34A#0000000000000000
(1612344475.380566) can0 39A#20FB000BD0000000
(1612344475.380569) can1 396#00040004000000D0
(1612344475.388549) can1 39F#00040004000000D0
(1612344475.388553) can0 39E#05817F0000000000
(1612344475.388556) can0 316#81500AF07A1E0200
(1612344475.388572) can0 3F0#0000000000000000
(1612344475.396559) can0 39E#05817F0000000000
(1612344475.396563) can0 316#81500AF07A1E0200
(1612344475.396566) can1 600#0400000000000000
(1612344475.396569) can0 3C5#96D0000000000000
(1612344475.404546) can0 3C9#FFFFFFFFFFFFFFFF
(1612344475.404552) can1 445#FF000B0000040001
(1612344475.404555) can1 455#3F3F3F3FFFFFFFFF
(1612344475.404558) can0 350#01FFAFFB00007F00
(1612344475.412513) can0 360#00000000002400E9
(1612344475.412517) can0 380#80737E03E8FFFF7D
(1612344475.412520) can0 38A#00000000000000EF
(1612344475.412523) can0 33A#0006000000000000
(1612344475.420530) can0 340#0004000000000000
(1612344475.420534) can0 34A#0000000000000000
(1612344475.420537) can0 39A#20FB000B1C000000
(1612344475.420540) can0 39E#05817F0000000000
(1612344475.428525) can0 316#81500AF07A1E0200
(1612344475.428529) can1 600#0400000000000000
(1612344475.428532) can0 525#0000000000007F00
(1612344475.428535) can0 470#0000000000000000
(1612344475.436505) can0 47C#0000000000000000
(1612344475.436509) can0 3F0#0000000000000000
(1612344475.436512) can1 38A#0000000000000000
(1612344475.436515) can0 39E#05817F0000000000
(1612344475.444559) can0 401#00007F0620000000
(1612344475.444563) can1 600#0400000000000000
(1612344475.444566) can0 316#81500AF07A370200
(1612344475.444569) can0 505#6B0BA00000001000
(1612344475.452352) can0 3C0#000007087FFF4401
(1612344475.452358) can0 50C#155C080000000000
(1612344475.452362) can0 3CA#800480040CA18043
(1612344475.452366) can0 329#004500000000218C
(1612344475.460565) can0 44D#0000000000000000
(1612344475.460570) can0 335#0000000000000000
(1612344475.460573) can0 456#0C000C000C000C00
(1612344475.460576) can0 39E#05817F0000000000
(1612344475.468565) can0 316#81500AF07A370200
(1612344475.468570) can1 600#0400000000000000
(1612344475.468573) can0 329#004500000000218C
(1612344475.468576) can0 576#00078D980C01635C
(1612344475.476556) can0 577#1B9A1B9A00000000
(1612344475.476562) can0 5D1#0104424E204E2042
(1612344475.476565) can0 5D2#0000000C9F271000
(1612344475.476568) can1 38A#0000000000000000
(1612344475.484561) can1 396#0004000400000020
(1612344475.484565) can1 39F#0004000400000020
(1612344475.484569) can0 39E#05817F0000000000
(1612344475.484572) can0 350#01FFAFFB00007F00
(1612344475.492412) can0 360#0000000000240061
(1612344475.492416) can0 380#80727E03E8FFFF7D
(1612344475.492419) can0 38A#0000000000000067
(1612344475.492422) can0 33A#0006000000000000
(1612344475.500330) can0 340#0004000000000000
(1612344475.500335) can0 34A#0000000000000000
(1612344475.500339) can0 39A#20FB000B94000000
(1612344475.500344) can0 39E#05817F0000000000
(1612344475.508332) can0 316#81500AF07A370200
(1612344475.508338) can1 600#0400000000000000
(1612344475.508342) can0 329#004500000000218C
(1612344475.508346) can1 48A#4000000000000000
(1612344475.516339) can1 48B#004F000000000000
(1612344475.516344) can0 3F0#0000000000000000
(1612344475.516347) can0 39E#05817F0000000000
(1612344475.516350) can0 39E#05817F0000000000
(1612344475.524326) can0 316#81500AF07A1E0200
(1612344475.524331) can1 600#0400000000000000
(1612344475.524334) can0 329#004500000000218C
(1612344475.524337) can1 46A#6371FF00FF4E153A
(1612344475.532410) can0 374#0E700DFA27160CBB
(1612344475.532416) can1 521#0000000000000022
(1612344475.532419) can0 3C0#000007087FFF4401
(1612344475.532422) can1 417#0000320000000000
(1612344475.540569) can0 33A#0006000000000000
(1612344475.540575) can1 421#0100000000000010
(1612344475.540578) can0 340#0004000000000000
(1612344475.540581) can0 39E#05817F0000000000
(1612344475.548566) can0 401#00007F0620000000
(1612344475.548572) can0 316#81500AF07A1E0200
(1612344475.548575) can1 600#0400000000000000
(1612344475.548578) can0 3C9#FFFFFFFFFFFFFFFF
(1612344475.556562) can0 51A#0000000000000000
(1612344475.556567) can0 3F0#0000000000000000
(1612344475.556570) can0 431#33FCE301004293B2
(1612344475.556573) can0 39E#05817F0000000000
(1612344475.564559) can0 316#81500AF07A1E0200
(1612344475.564564) can1 600#0400000000000000
(1612344475.564567) can0 329#004500000000218C
(1612344475.564570) can0 530#0000000000000008
(1612344475.572374) can0 5E1#04000E600E610E60
(1612344475.572379) can0 5E2#04000E6C0E560DFA
(1612344475.572383) can0 350#01FFAFFB00007F00
(1612344475.572386) can0 33A#0006000000000000
(1612344475.580368) can0 340#0004000000000000
(1612344475.580373) can0 34A#0000000000000000
(1612344475.580376) can0 39A#20FB000B1C000000
(1612344475.580380) can1 396#0004000400000070
(1612344475.588380) can1 39F#0004000400000070
(1612344475.588384) can0 39E#05817F0000000000
(1612344475.588387) can0 316#81500AF07A370200
(1612344475.588390) can0 3F0#0000000000000000
(1612344475.596372) can0 39E#05817F0000000000
(1612344475.596376) can0 316#81500AF07A370200
(1612344475.596379) can1 600#0400000000000000
(1612344475.596382) can0 3C5#96D0000000000000
(1612344475.604365) can0 3C9#FFFFFFFFFFFFFFFF
(1612344475.604369) can1 445#FF000B0000040001
(1612344475.604373) can0 39E#05817F0000000000
(1612344475.604375) can0 350#01FFAFFB00007F00
(1612344475.612350) can0 360#0000000000240025
(1612344475.612352) can0 380#80737E03E8FFFF7D
(1612344475.612354) can0 38A#000000000000002B
(1612344475.612355) can0 33A#0006000000000000
(1612344475.620346) can0 340#0004000000000000
(1612344475.620347) can0 34A#0000000000000000
(1612344475.620349) can0 39A#20FB000B58000000
(1612344475.620350) can0 39E#05817F0000000000
(1612344475.628335) can0 316#81500AF07A370200
(1612344475.628336) can1 600#0400000000000000
(1612344475.628337) can0 525#0000000000007F00
(1612344475.628338) can0 470#0000000000000000
(1612344475.636371) can0 47C#0000000000000000
(1612344475.636372) can0 3F0#0000000000000000
(1612344475.636373) can1 38A#0000000000000000
(1612344475.636374) can0 401#00007F0620000000
(1612344475.644659) can0 39E#05817F0000000000
(1612344475.644659) can0 316#81500AF07A370200
(1612344475.644660) can1 600#0400000000000000
(1612344475.644661) can0 505#6B0BA00000001000
(1612344475.652506) can0 3CA#800480040CAD804D
(1612344475.652507) can0 50C#155C080000000000
(1612344475.652508) can0 510#00000000270F0000
(1612344475.652509) can0 329#004500000000218C
(1612344475.660648) can0 44D#0000000000000000
(1612344475.660649) can0 335#0000000000000000
(1612344475.660650) can0 456#0C000C000C000C00
(1612344475.660650) can0 39E#05817F0000000000
(1612344475.668532) can0 316#81500AF07A370200
(1612344475.668533) can1 600#0400000000000000
(1612344475.668534) can0 329#004500000000218C
(1612344475.668535) can0 3F0#0000000000000000
(1612344475.676647) can0 39E#05817F0000000000
(1612344475.676648) can0 316#81500AF07A370200
(1612344475.676649) can1 600#0400000000000000
(1612344475.676650) can1 38A#0000000000000000
(1612344475.684578) can1 396#00040004000000C0
(1612344475.684583) can1 39F#00040004000000C0
(1612344475.684584) can0 39E#05817F0000000000
(1612344475.684585) can0 350#01FFAFFB00007F00
(1612344475.692560) can0 360#00000000002400AD
(1612344475.692561) can0 380#80727E03E8FFFF7D
(1612344475.692562) can0 38A#00000000000000A3
(1612344475.692563) can0 33A#0006000000000000
(1612344475.700317) can0 340#0004000000000000
(1612344475.700320) can0 34A#0000000000000000
(1612344475.700321) can0 39A#20FB000BD0000000
(1612344475.700323) can0 39E#05817F0000000000
(1612344475.708553) can0 316#81500AF07A370200
(1612344475.708557) can1 600#0400000000000000
(1612344475.708559) can0 329#004500000000218C
(1612344475.708562) can1 48A#4000000000000000
(1612344475.716510) can1 48B#004F000000000000
(1612344475.716515) can0 3F0#0000000000000000
(1612344475.716517) can0 39E#05817F0000000000
(1612344475.716520) can0 39E#05817F0000000000
(1612344475.724571) can0 316#81500AF07A370200
(1612344475.724575) can1 600#0400000000000000
(1612344475.724578) can0 329#004500000000218C
(1612344475.724581) can1 46A#6371FF00FF4E153A
(1612344475.732574) can0 374#0E700DFA27160CB6
(1612344475.732579) can1 521#0000000000000022
(1612344475.732582) can0 3C0#000007087FFF4401
(1612344475.732585) can1 417#0000320000000000
(1612344475.740557) can0 33A#0006000000000000
(1612344475.740562) can1 421#0100000000000010
(1612344475.740565) can0 340#0004000000000000
(1612344475.740568) can0 39E#05817F0000000000
(1612344475.748556) can0 316#81500AF07A370200
(1612344475.748560) can1 600#0400000000000000
(1612344475.748563) can0 329#004500000000218C
(1612344475.748566) can0 511#000027B400000000
(1612344475.756526) can0 51A#0000000000000000
(1612344475.756530) can0 3F0#0000000000000000
(1612344475.756533) can0 431#33FCE301004293B2
(1612344475.756536) can0 39E#05817F0000000000
(1612344475.764490) can0 316#81500AF07A370200
(1612344475.764496) can1 600#0400000000000000
(1612344475.764499) can0 329#004500000000218C
(1612344475.764502) can0 530#0000000000000008
(1612344475.772515) can0 5E1#0C000E670E640E65
(1612344475.772520) can0 5E2#0C000E6A0E6C0E6A
(1612344475.772523) can0 350#01FFAFFB00007F00
(1612344475.772526) can0 33A#0006000000000000
(1612344475.780550) can0 340#0004000000000000
(1612344475.780555) can0 34A#0000000000000000
(1612344475.780558) can0 39A#20FB000B58000000
(1612344475.780562) can1 396#0004000400000010
(1612344475.788326) can1 39F#0004000400000010
(1612344475.788331) can0 39E#05817F0000000000
(1612344475.788334) can0 316#81500AF07A370200
(1612344475.788337) can0 3F0#0000000000000000
(1612344475.796558) can0 39E#05817F0000000000
(1612344475.796563) can0 316#81500AF07A370200
(1612344475.796567) can1 600#0400000000000000
(1612344475.796570) can0 3C5#96D0000000000000
(1612344475.804549) can0 3C9#FFFFFFFFFFFFFFFF
(1612344475.804554) can0 39E#05817F0000000000
(1612344475.804558) can1 445#FF000B0000040001
(1612344475.804561) can0 350#01FFAFFB00007E00
(1612344475.812548) can0 360#0000000000240061
(1612344475.812553) can0 380#80737E03E8FFFF7D
(1612344475.812556) can0 38A#0000000000000067
(1612344475.812559) can0 33A#0006000000000000
(1612344475.820540) can0 340#0004000000000000
(1612344475.820545) can0 34A#0000000000000000
(1612344475.820548) can0 39A#20FB000B94000000
(1612344475.820551) can0 39E#05817F0000000000
(1612344475.828338) can0 316#81500AF07A370200
(1612344475.828344) can1 600#0400000000000000
(1612344475.828363) can0 329#004500000000218C
(1612344475.828367) can0 470#0000000000000000
(1612344475.836329) can0 47C#0000000000000000
(1612344475.836335) can0 3F0#0000000000000000
(1612344475.836340) can1 38A#0000000000000000
(1612344475.836344) can0 401#00007F0620000000
(1612344475.844337) can0 39E#05817F0000000000
(1612344475.844344) can0 316#81500AF07A370200
(1612344475.844349) can1 600#0400000000000000
(1612344475.844353) can0 505#6B0BA00000001000
(1612344475.852323) can0 3CA#800480040CC8804D
(1612344475.852329) can0 50C#155C080000000000
(1612344475.852334) can0 510#00000000270F0000
(1612344475.852337) can0 329#004500000000218C
(1612344475.856621) can1 475#0000008000000000
(1612344475.860323) can0 44D#0000000000000000
(1612344475.860329) can0 335#0000000000000000
(1612344475.860334) can0 456#0C000C000C000C00
(1612344475.860338) can0 39E#05817F0000000000
(1612344475.868348) can0 316#81500AF07A370200
(1612344475.868357) can1 600#0400000000000000
(1612344475.868361) can0 329#004500000000218C
(1612344475.868366) can0 705#0006000000000000
(1612344475.876344) can0 71A#0006000000000000
(1612344475.876350) can0 3F0#0000000000000000
(1612344475.876354) can0 39E#05817F0000000000
(1612344475.876358) can1 38A#0000000000000000
(1612344475.884402) can1 396#0004000400000060
(1612344475.884407) can1 39F#0004000400000060
(1612344475.884411) can0 39E#05817F0000000000
(1612344475.884413) can0 350#01FFAFFB00007F00
(1612344475.892387) can0 360#00000000002400E9
(1612344475.892393) can0 380#80727E03E8FFFF7D
(1612344475.892396) can0 38A#00000000000000EF
(1612344475.892399) can0 33A#0006000000000000
(1612344475.900400) can0 340#0004000000000000
(1612344475.900405) can0 34A#0000000000000000
(1612344475.900409) can0 39A#20FB000B1C000000
(1612344475.900411) can0 39E#05817F0000000000
(1612344475.908404) can0 316#81500AF07A370200
(1612344475.908410) can1 600#0400000000000000
(1612344475.908413) can0 329#004500000000218C
(1612344475.908416) can1 48A#4000000000000000
(1612344475.916495) can1 48B#004F000000000000
(1612344475.916501) can0 3F0#0000000000000000
(1612344475.916504) can0 39E#05817F0000000000
(1612344475.916507) can0 39E#05817F0000000000
(1612344475.924552) can0 316#81500AF07A370200
(1612344475.924558) can1 600#0400000000000000
(1612344475.924561) can0 329#004500000000218C
(1612344475.924564) can1 46A#6371FF00FF4E153A
(1612344475.932556) can0 374#0E700DFA27170CBB
(1612344475.932561) can1 521#0000000000000022
(1612344475.932564) can0 3C0#000007087FFF4401
(1612344475.932567) can1 417#0000320000000000
(1612344475.940491) can0 33A#0006000000000000
(1612344475.940497) can1 421#0100000000000010
(1612344475.940501) can0 340#0004000000000000
(1612344475.940503) can0 39E#05817F0000000000
(1612344475.948548) can0 316#81500AF07A1E0200
(1612344475.948554) can1 600#0400000000000000
(1612344475.948557) can0 329#004500000000218C
(1612344475.948560) can0 511#000027B400000000
(1612344475.956550) can0 51A#0000000000000000
(1612344475.956555) can0 3F0#0000000000000000
(1612344475.956559) can0 431#33FCE301004293B2
(1612344475.956561) can0 39E#05817F0000000000
(1612344475.964533) can0 316#81500AF07A1E0200
(1612344475.964539) can1 600#0400000000000000
(1612344475.964542) can0 329#004500000000218C
(1612344475.964545) can0 5E1#14000E680E6F0E6D
(1612344475.972550) can0 5E2#10000E6F0E650E6F
(1612344475.972556) can0 350#01FFAFFB00007F00
(1612344475.972559) can0 360#0000000000240061
(1612344475.972574) can0 33A#0006000000000000
(1612344475.980328) can0 340#0004000000000000
(1612344475.980334) can0 34A#0000000000000000
(1612344475.980337) can0 39A#20FB000B94000000
(1612344475.980341) can1 396#00040004000000B0
(1612344475.988551) can1 39F#00040004000000B0
(1612344475.988556) can0 39E#05817F0000000000
(1612344475.988559) can0 316#81500AF07A1E0200
(1612344475.988562) can0 3F0#0000000000000000
(1612344475.996546) can0 39E#05817F0000000000
(1612344475.996550) can0 316#81500AF07A1E0200
(1612344475.996553) can1 600#0400000000000000
(1612344475.996556) can0 3C5#96D0000000000000
(1612344476.004558) can0 3C9#FFFFFFFFFFFFFFFF
(1612344476.004562) can0 39E#05817F0000000000
(1612344476.004566) can1 445#FF000B0000040001
(1612344476.004569) can0 350#01FFAFFB00007F00
(1612344476.012542) can0 360#00000000002400AD
(1612344476.012546) can0 380#80727E03E8FFFF7D
(1612344476.012549) can0 38A#00000000000000A3
(1612344476.012552) can0 33A#0006000000000000
(1612344476.020548) can0 340#0004000000000000
(1612344476.020552) can0 34A#0000000000000000
(1612344476.020555) can0 39A#20FB000BD0000000
(1612344476.020558) can0 39E#05817F0000000000
(1612344476.028547) can0 316#81500AF07A380200
(1612344476.028552) can1 600#0400000000000000
(1612344476.028555) can0 329#004500000000218C
(1612344476.028558) can0 470#0000000000000000
(1612344476.036521) can0 47C#0000000000000000
(1612344476.036525) can0 3F0#0000000000000000
(1612344476.036529) can1 38A#0000000000000000
(1612344476.036532) can0 401#00007F0620000000
(1612344476.044561) can0 39E#05817F0000000000
(1612344476.044565) can0 316#81500AF07A380200
(1612344476.044569) can1 600#0400000000000000
(1612344476.044572) can0 505#6B0BA00000001000
(1612344476.052509) can0 3CA#800480040CD28043
(1612344476.052513) can0 50C#155C080000000000
(1612344476.052516) can0 510#00000000270F0000
(1612344476.052519) can0 329#004500000000218C
(1612344476.060561) can0 44D#0000000000000000
(1612344476.060565) can0 335#0000000000000000
(1612344476.060568) can0 456#0C000C000C000C00
(1612344476.060571) can0 39E#05817F0000000000
(1612344476.068336) can0 316#81500AF07A370200
(1612344476.068342) can1 600#0400000000000000
(1612344476.068346) can0 329#004500000000218C
(1612344476.068351) can0 3F0#0000000000000000
(1612344476.069298) can1 475#0000004000000000
(1612344476.076335) can0 39E#05817F0000000000
(1612344476.076339) can0 316#81500AF07A370200
(1612344476.076342) can1 600#0400000000000000
(1612344476.076345) can0 38A#000000000000001C
(1612344476.084509) can0 650#A000000000000000
(1612344476.084514) can1 38A#0000000000000000
(1612344476.084517) can1 396#0004000400000000
(1612344476.084520) can0 350#01FFAFFB00007F00
(1612344476.092544) can0 360#0000000000240025
(1612344476.092549) can0 380#80737E03E8FFFF7D
(1612344476.092552) can0 38A#000000000000002B
(1612344476.092555) can0 33A#0006000000000000
(1612344476.100403) can0 340#0004000000000000
(1612344476.100408) can0 34A#0000000000000000
(1612344476.100412) can0 39A#20FB000B58000000
